(1791431223.384447) can1 0200FD01#0100000000000000
(1791431223.384653) can1 020001FD#7FFD807C7FFF0136
(1791431223.384657) can0 0200FD01#0100000000000000
(1791431223.384878) can0 020001FD#7FB180B77FFF0136
(1791431223.385016) can1 0200FD02#0100000000000000
(1791431223.385202) can0 0200FD02#0100000000000000
(1791431223.385321) can1 020002FD#7FFE80887FFF0140
(1791431223.385419) can0 020002FD#7FFF803E7FFF014A
(1791431223.385653) can1 0200FD03#0100000000000000
(1791431223.385787) can0 0200FD03#0100000000000000
(1791431223.385877) can1 020003FD#7FFF801E7FFF0154
(1791431223.386040) can0 020003FD#7FFF7FDD7FFF014A
(1791431223.386203) can1 0200FD04#0100000000000000
(1791431223.386378) can0 0200FD04#0100000000000000
(1791431223.386414) can1 020004FD#7FFF807B7FFF0140
(1791431223.386557) can0 020004FD#7FF87FC77FFF012C
(1791431223.386814) can1 0200FD05#0100000000000000
(1791431223.386954) can0 0200FD05#0100000000000000
(1791431223.386991) can1 020005FD#88E180167FFF015E
(1791431223.387265) can0 020005FD#7E7C80227FFF015E
(1791431223.387442) can1 0200FD06#0100000000000000
(1791431223.387573) can0 0200FD06#0100000000000000
(1791431223.387655) can1 020006FD#7FFA80057FFF015E
(1791431223.387814) can0 020006FD#7FFB80087FFF0154
(1791431223.388009) can1 0200FD07#0100000000000000
(1791431223.388141) can0 0200FD07#0100000000000000
(1791431223.388317) can1 020007FD#800280387FFF0140
(1791431223.388370) can0 020007FD#7ADB800B7FFF0140
(1791431223.388639) can1 0200FD08#0100000000000000
(1791431223.388758) can0 0200FD08#0100000000000000
(1791431223.388796) can1 020008FD#828F7FD97FFF0140
(1791431223.388887) can0 020008FD#7EBD801E7FFF012C
(1791431223.447771) can1 0200FD01#0100000000000000
(1791431223.448023) can1 020001FD#7FFD7FDB7FFF0136
(1791431223.448376) can1 0200FD02#0100000000000000
(1791431223.448557) can1 020002FD#7FFE80307FFF0140
(1791431223.448831) can0 0200FD01#0100000000000000
(1791431223.448955) can1 0200FD03#0100000000000000
(1791431223.449084) can0 020001FD#7FB17F827FFF0136
(1791431223.449263) can1 020003FD#7FFF7FB77FFF0154
(1791431223.449447) can0 0200FD02#0100000000000000
(1791431223.449572) can1 0200FD04#0100000000000000
(1791431223.449628) can0 020002FD#7FFF808A7FFF014A
(1791431223.449813) can1 020004FD#7FFF7FC17FFF0140
(1791431223.450022) can0 0200FD03#0100000000000000
(1791431223.450145) can1 0200FD05#0100000000000000
(1791431223.450316) can0 020003FD#7FFF80B07FFF014A
(1791431223.450371) can1 020005FD#88E17FF47FFF015E
(1791431223.450628) can0 0200FD04#0100000000000000
(1791431223.450758) can1 0200FD06#0100000000000000
(1791431223.450875) can0 020004FD#7FF880537FFF012C
(1791431223.450936) can1 020006FD#7FFA80107FFF015E
(1791431223.451193) can0 0200FD05#0100000000000000
(1791431223.451380) can1 0200FD07#0100000000000000
(1791431223.451416) can0 020005FD#7E7C800B7FFF015E
(1791431223.451558) can1 020007FD#8002804E7FFF0140
(1791431223.451876) can0 0200FD06#0100000000000000
(1791431223.451953) can1 0200FD08#0100000000000000
(1791431223.452059) can0 020006FD#7FFB801B7FFF0154
(1791431223.452103) can1 020008FD#828F802C7FFF0140
(1791431223.452501) can0 0200FD07#0100000000000000
(1791431223.452687) can0 020007FD#7ADB7FEA7FFF0140
(1791431223.453073) can0 0200FD08#0100000000000000
(1791431223.453259) can0 020008FD#7EBD800A7FFF012C
(1791431223.498571) can1 0200FD01#0100000000000000
(1791431223.498806) can1 020001FD#7FFD7FF97FFF0136
(1791431223.499132) can1 0200FD02#0100000000000000
(1791431223.499357) can1 020002FD#7FFD7FEE7FFF0140
(1791431223.499510) can0 0200FD01#0100000000000000
(1791431223.499695) can0 020001FD#7FB17FE37FFF0136
(1791431223.499758) can1 0200FD03#0100000000000000
(1791431223.499940) can1 020003FD#7FFF80727FFF0154
(1791431223.500069) can0 0200FD02#0100000000000000
(1791431223.500357) can0 020002FD#7FFF805D7FFF014A
(1791431223.500391) can1 0200FD04#0100000000000000
(1791431223.500560) can1 020004FD#7FFE7FA07FFF0140
(1791431223.500697) can0 0200FD03#0100000000000000
(1791431223.500875) can0 020003FD#7FFF7FB47FFF014A
(1791431223.500948) can1 0200FD05#0100000000000000
(1791431223.501272) can1 020005FD#88E180047FFF015E
(1791431223.501305) can0 0200FD04#0100000000000000
(1791431223.501481) can0 020004FD#7FF8808E7FFF012C
(1791431223.501574) can1 0200FD06#0100000000000000
(1791431223.501818) can1 020006FD#7FFA7FA17FFF015E
(1791431223.501877) can0 0200FD05#0100000000000000
(1791431223.502060) can0 020005FD#7E7C800A7FFF015E
(1791431223.502136) can1 0200FD07#0100000000000000
(1791431223.502360) can1 020007FD#80027FF67FFF0140
(1791431223.502503) can0 0200FD06#0100000000000000
(1791431223.502688) can0 020006FD#7FFB801A7FFF0154
(1791431223.502760) can1 0200FD08#0100000000000000
(1791431223.502924) can1 020008FD#828F7FF37FFF0140
(1791431223.503138) can0 0200FD07#0100000000000000
(1791431223.503377) can0 020007FD#7ADB800D7FFF0140
(1791431223.503754) can0 0200FD08#0100000000000000
(1791431223.503910) can0 020008FD#7EBD7FEB7FFF012C
(1791431223.661712) can1 0200FD01#0100000000000000
(1791431223.661946) can1 020001FD#7FFD7FE67FFF0136
(1791431223.662327) can1 0200FD02#0100000000000000
(1791431223.662507) can1 020002FD#7FFD7F817FFF0140
(1791431223.662915) can0 0200FD01#0100000000000000
(1791431223.662946) can1 0200FD03#0100000000000000
(1791431223.663107) can1 020003FD#7FFF7FDD7FFF0154
(1791431223.663165) can0 020001FD#7FB17F667FFF0136
(1791431223.663519) can1 0200FD04#0100000000000000
(1791431223.663520) can0 0200FD02#0100000000000000
(1791431223.663692) can1 020004FD#7FFF80427FFF0140
(1791431223.663728) can0 020002FD#7FFF80157FFF014A
(1791431223.664094) can1 0200FD05#0100000000000000
(1791431223.664102) can0 0200FD03#0100000000000000
(1791431223.664369) can0 020003FD#7FFF800F7FFF014A
(1791431223.664403) can1 020005FD#88E280327FFF015E
(1791431223.664712) can0 0200FD04#0100000000000000
(1791431223.664715) can1 0200FD06#0100000000000000
(1791431223.664881) can1 020006FD#7FFA7FFB7FFF015E
(1791431223.664916) can0 020004FD#7FF87F037FFF012C
(1791431223.665325) can0 0200FD05#0100000000000000
(1791431223.665326) can1 0200FD07#0100000000000000
(1791431223.665492) can0 020005FD#7E7C7FFE7FFF015E
(1791431223.665527) can1 020007FD#80027FF67FFF0140
(1791431223.665916) can1 0200FD08#0100000000000000
(1791431223.665920) can0 0200FD06#0100000000000000
(1791431223.666056) can1 020008FD#828F7FEB7FFF0140
(1791431223.666149) can0 020006FD#7FFB7FE67FFF0154
(1791431223.666519) can0 0200FD07#0100000000000000
(1791431223.666701) can0 020007FD#7ADB7FF37FFF0140
(1791431223.667077) can0 0200FD08#0100000000000000
(1791431223.667261) can0 020008FD#7EBD80007FFF012C
(1791431223.747768) can1 0200FD01#0100000000000000
(1791431223.748014) can1 020001FD#7FFE80657FFF0136
(1791431223.748384) can0 0200FD01#0100000000000000
(1791431223.748385) can1 0200FD02#0100000000000000
(1791431223.748559) can1 020002FD#7FFE800C7FFF0140
(1791431223.748595) can0 020001FD#7FB17FC77FFF0136
(1791431223.748947) can0 0200FD02#0100000000000000
(1791431223.748981) can1 0200FD03#0100000000000000
(1791431223.749180) can0 020002FD#7FFE80007FFF014A
(1791431223.749274) can1 020003FD#7FFF7F927FFF0154
(1791431223.749516) can0 0200FD03#0100000000000000
(1791431223.749581) can1 0200FD04#0100000000000000
(1791431223.749762) can0 020003FD#7FFF804C7FFF014A
(1791431223.749820) can1 020004FD#7FFE7F5A7FFF0140
(1791431223.750082) can0 0200FD04#0100000000000000
(1791431223.750143) can1 0200FD05#0100000000000000
(1791431223.750389) can1 020005FD#88E180217FFF015E
(1791431223.750396) can0 020004FD#7FF880FC7FFF012C
(1791431223.750709) can0 0200FD05#0100000000000000
(1791431223.750761) can1 0200FD06#0100000000000000
(1791431223.750894) can0 020005FD#7E7C800E7FFF015E
(1791431223.750944) can1 020006FD#7FFA7FFA7FFF015E
(1791431223.751329) can0 0200FD06#0100000000000000
(1791431223.751395) can1 0200FD07#0100000000000000
(1791431223.751510) can0 020006FD#7FFB7FE97FFF0154
(1791431223.751573) can1 020007FD#80027FEE7FFF0140
(1791431223.751911) can0 0200FD07#0100000000000000
(1791431223.751964) can1 0200FD08#0100000000000000
(1791431223.752088) can0 020007FD#7ADB80027FFF0140
(1791431223.752123) can1 020008FD#828F80007FFF0140
(1791431223.752521) can0 0200FD08#0100000000000000
(1791431223.752641) can0 020008FD#7EBD80217FFF0136
(1791431223.826966) can1 0200FD01#0100000000000000
(1791431223.827204) can1 020001FD#7FFD7F867FFF0136
(1791431223.827585) can1 0200FD02#0100000000000000
(1791431223.827833) can1 020002FD#7FFD7FA77FFF0140
(1791431223.827866) can0 0200FD01#0100000000000000
(1791431223.828038) can0 020001FD#7FB17FE67FFF0136
(1791431223.828158) can1 0200FD03#0100000000000000
(1791431223.828390) can1 020003FD#80007FF17FFF0154
(1791431223.828446) can0 0200FD02#0100000000000000
(1791431223.828625) can0 020002FD#7FFF800B7FFF014A
(1791431223.828779) can1 0200FD04#0100000000000000
(1791431223.828950) can1 020004FD#7FFE7F5D7FFF0140
(1791431223.828996) can0 0200FD03#0100000000000000
(1791431223.829278) can0 020003FD#7FFF80337FFF014A
(1791431223.829399) can1 0200FD05#0100000000000000
(1791431223.829577) can1 020005FD#88E27FE57FFF015E
(1791431223.829611) can0 0200FD04#0100000000000000
(1791431223.829838) can0 020004FD#7FF880297FFF012C
(1791431223.829973) can1 0200FD06#0100000000000000
(1791431223.830165) can0 0200FD05#0100000000000000
(1791431223.830285) can1 020006FD#7FFA7FD97FFF015E
(1791431223.830391) can0 020005FD#7E7C80007FFF015E
(1791431223.830588) can1 0200FD07#0100000000000000
(1791431223.830768) can0 0200FD06#0100000000000000
(1791431223.830828) can1 020007FD#800280207FFF0140
(1791431223.830948) can0 020006FD#7FFB7FBE7FFF0154
(1791431223.831145) can1 0200FD08#0100000000000000
(1791431223.831349) can1 020008FD#828F7FED7FFF0140
(1791431223.831385) can0 0200FD07#0100000000000000
(1791431223.831568) can0 020007FD#7ADB80087FFF0140
(1791431223.832025) can0 0200FD08#0100000000000000
(1791431223.832120) can0 020008FD#7EBD80167FFF012C
(1791431223.906246) can1 0200FD01#0100000000000000
(1791431223.906432) can1 020001FD#7FFD80157FFF0136
(1791431223.906516) can0 0200FD01#0100000000000000
(1791431223.906694) can0 020001FD#7FB1800F7FFF0136
(1791431223.906833) can1 0200FD02#0100000000000000
(1791431223.907074) can1 020002FD#7FFE808E7FFF0140
(1791431223.907108) can0 0200FD02#0100000000000000
(1791431223.907395) can0 020002FD#7FFF7FC27FFF014A
(1791431223.907456) can1 0200FD03#0100000000000000
(1791431223.907673) can1 020003FD#7FFF7FDE7FFF0154
(1791431223.907713) can0 0200FD03#0100000000000000
(1791431223.907896) can0 020003FD#7FFF804E7FFF014A
(1791431223.908025) can1 0200FD04#0100000000000000
(1791431223.908334) can0 0200FD04#0100000000000000
(1791431223.908369) can1 020004FD#7FFE80417FFF0140
(1791431223.908520) can0 020004FD#7FF87F907FFF012C
(1791431223.908688) can1 0200FD05#0100000000000000
(1791431223.908895) can1 020005FD#88E2801C7FFF015E
(1791431223.908930) can0 0200FD05#0100000000000000
(1791431223.909147) can0 020005FD#7E7C80057FFF015E
(1791431223.909221) can1 0200FD06#0100000000000000
(1791431223.909436) can1 020006FD#7FFA80067FFF015E
(1791431223.909516) can0 0200FD06#0100000000000000
(1791431223.909696) can0 020006FD#7FFB80057FFF0154
(1791431223.909837) can1 0200FD07#0100000000000000
(1791431223.910080) can1 020007FD#800280007FFF0140
(1791431223.910114) can0 0200FD07#0100000000000000
(1791431223.910391) can0 020007FD#7ADB800B7FFF0140
(1791431223.910456) can1 0200FD08#0100000000000000
(1791431223.910568) can1 020008FD#828F80217FFF0140
(1791431223.910711) can0 0200FD08#0100000000000000
(1791431223.910852) can0 020008FD#7EBD80147FFF012C
(1791431223.976400) can1 0200FD01#0100000000000000
(1791431223.976507) can1 020001FD#7FFD80517FFF0136
(1791431223.976783) can0 0200FD01#0100000000000000
(1791431223.976957) can1 0200FD02#0100000000000000
(1791431223.977023) can0 020001FD#7FB17FFE7FFF0136
(1791431223.977132) can1 020002FD#7FFE7FD97FFF0140
(1791431223.977400) can0 0200FD02#0100000000000000
(1791431223.977527) can1 0200FD03#0100000000000000
(1791431223.977580) can0 020002FD#7FFF7FE07FFF014A
(1791431223.977767) can1 020003FD#800080EE7FFF0154
(1791431223.977970) can0 0200FD03#0100000000000000
(1791431223.978100) can1 0200FD04#0100000000000000
(1791431223.978285) can0 020003FD#7FFF7FAA7FFF014A
(1791431223.978393) can1 020004FD#7FFF7FF57FFF0140
(1791431223.978594) can0 0200FD04#0100000000000000
(1791431223.978722) can1 0200FD05#0100000000000000
(1791431223.978836) can0 020004FD#7FF87F5A7FFF012C
(1791431223.978897) can1 020005FD#88E17FF37FFF015E
(1791431223.979162) can0 0200FD05#0100000000000000
(1791431223.979332) can1 0200FD06#0100000000000000
(1791431223.979396) can0 020005FD#7E7C7FBA7FFF015E
(1791431223.979500) can1 020006FD#7FFA80127FFF015E
(1791431223.979785) can0 0200FD06#0100000000000000
(1791431223.979899) can1 0200FD07#0100000000000000
(1791431223.980038) can0 020006FD#7FFB7FF57FFF0154
(1791431223.980147) can1 020007FD#80027FEF7FFF0140
(1791431223.980398) can0 0200FD07#0100000000000000
(1791431223.980530) can1 0200FD08#0100000000000000
(1791431223.980579) can0 020007FD#7ADB7FAD7FFF0140
(1791431223.980623) can1 020008FD#828F7FD57FFF0140
(1791431223.980966) can0 0200FD08#0100000000000000
(1791431223.981109) can0 020008FD#7EBD800A7FFF012C
(1791431224.051681) can1 0200FD01#0100000000000000
(1791431224.051845) can1 020001FD#7FFD80507FFF0136
(1791431224.052048) can0 0200FD01#0100000000000000
(1791431224.052231) can1 0200FD02#0100000000000000
(1791431224.052340) can0 020001FD#7FB180447FFF0136
(1791431224.052450) can1 020002FD#7FFD7F557FFF0140
(1791431224.052682) can0 0200FD02#0100000000000000
(1791431224.052845) can1 0200FD03#0100000000000000
(1791431224.052900) can0 020002FD#7FFF800A7FFF014A
(1791431224.053020) can1 020003FD#7FFF805F7FFF0154
(1791431224.053224) can0 0200FD03#0100000000000000
(1791431224.053438) can0 020003FD#7FFF7F437FFF014A
(1791431224.053471) can1 0200FD04#0100000000000000
(1791431224.053680) can1 020004FD#7FFE805B7FFF0140
(1791431224.053832) can0 0200FD04#0100000000000000
(1791431224.054002) can0 020004FD#7FF8803A7FFF012C
(1791431224.054045) can1 0200FD05#0100000000000000
(1791431224.054346) can1 020005FD#88E180467FFF015E
(1791431224.054464) can0 0200FD05#0100000000000000
(1791431224.054576) can0 020005FD#7E7B7FC57FFF015E
(1791431224.054688) can1 0200FD06#0100000000000000
(1791431224.054906) can1 020006FD#7FFA803D7FFF015E
(1791431224.055045) can0 0200FD06#0100000000000000
(1791431224.055224) can1 0200FD07#0100000000000000
(1791431224.055346) can0 020006FD#7FFB80017FFF0154
(1791431224.055446) can1 020007FD#8002800A7FFF0140
(1791431224.055681) can0 0200FD07#0100000000000000
(1791431224.055819) can1 0200FD08#0100000000000000
(1791431224.055902) can0 020007FD#7ADB800F7FFF0140
(1791431224.056050) can1 020008FD#828F800A7FFF0140
(1791431224.056345) can0 0200FD08#0100000000000000
(1791431224.056404) can0 020008FD#7EBC7FE97FFF012C
(1791431224.129246) can1 0200FD01#0100000000000000
(1791431224.129520) can1 020001FD#7FFD80497FFF0136
(1791431224.129689) can0 0200FD01#0100000000000000
(1791431224.129845) can1 0200FD02#0100000000000000
(1791431224.129847) can0 020001FD#7FB17FC77FFF0136
(1791431224.130021) can1 020002FD#7FFE803F7FFF0140
(1791431224.130229) can0 0200FD02#0100000000000000
(1791431224.130450) can0 020002FD#7FFE7F707FFF014A
(1791431224.130484) can1 0200FD03#0100000000000000
(1791431224.130683) can1 020003FD#7FFF7FA57FFF0154
(1791431224.130847) can0 0200FD03#0100000000000000
(1791431224.131048) can1 0200FD04#0100000000000000
(1791431224.131095) can0 020003FD#7FFF80707FFF014A
(1791431224.131351) can1 020004FD#7FFF80F47FFF0140
(1791431224.131470) can0 0200FD04#0100000000000000
(1791431224.131683) can0 020004FD#7FF880077FFF012C
(1791431224.131687) can1 0200FD05#0100000000000000
(1791431224.131912) can1 020005FD#88E180277FFF015E
(1791431224.132043) can0 0200FD05#0100000000000000
(1791431224.132235) can1 0200FD06#0100000000000000
(1791431224.132336) can0 020005FD#7E7C80297FFF015E
(1791431224.132453) can1 020006FD#7FFA7FFA7FFF015E
(1791431224.132691) can0 0200FD06#0100000000000000
(1791431224.132842) can1 0200FD07#0100000000000000
(1791431224.132904) can0 020006FD#7FFB7FD87FFF0154
(1791431224.133083) can1 020007FD#800280377FFF0140
(1791431224.133223) can0 0200FD07#0100000000000000
(1791431224.133449) can0 020007FD#7ADB7FF77FFF0140
(1791431224.133483) can1 0200FD08#0100000000000000
(1791431224.133551) can1 020008FD#828F7FEA7FFF0140
(1791431224.133884) can0 0200FD08#0100000000000000
(1791431224.133977) can0 020008FD#7EBC7FE47FFF012C
(1791431224.203792) can1 0200FD01#0100000000000000
(1791431224.204009) can0 0200FD01#0100000000000000
(1791431224.204047) can1 020001FD#7FFD7F887FFF0136
(1791431224.204295) can0 020001FD#7FB17FEF7FFF0136
(1791431224.204413) can1 0200FD02#0100000000000000
(1791431224.204590) can1 020002FD#7FFE803E7FFF0140
(1791431224.204623) can0 0200FD02#0100000000000000
(1791431224.204852) can0 020002FD#7FFF808F7FFF014A
(1791431224.204985) can1 0200FD03#0100000000000000
(1791431224.205177) can0 0200FD03#0100000000000000
(1791431224.205292) can1 020003FD#8000800F7FFF0154
(1791431224.205391) can0 020003FD#7FFF7FE67FFF014A
(1791431224.205596) can1 0200FD04#0100000000000000
(1791431224.205790) can0 0200FD04#0100000000000000
(1791431224.205844) can1 020004FD#7FFE801D7FFF0140
(1791431224.205966) can0 020004FD#7FF87FF27FFF012C
(1791431224.206167) can1 0200FD05#0100000000000000
(1791431224.206401) can0 0200FD05#0100000000000000
(1791431224.206402) can1 020005FD#88E180437FFF015E
(1791431224.206583) can0 020005FD#7E7C80567FFF015E
(1791431224.206786) can1 0200FD06#0100000000000000
(1791431224.206959) can1 020006FD#7FFA80137FFF015E
(1791431224.206994) can0 0200FD06#0100000000000000
(1791431224.207151) can0 020006FD#7FFB80027FFF0154
(1791431224.207410) can1 0200FD07#0100000000000000
(1791431224.207565) can0 0200FD07#0100000000000000
(1791431224.207586) can1 020007FD#8002800B7FFF0140
(1791431224.207784) can0 020007FD#7ADB802B7FFF0140
(1791431224.207981) can1 0200FD08#0100000000000000
(1791431224.208103) can0 0200FD08#0100000000000000
(1791431224.208138) can1 020008FD#828F80497FFF0140
(1791431224.208291) can0 020008FD#7EBD80007FFF012C
(1791431224.280983) can1 0200FD01#0100000000000000
(1791431224.281242) can0 0200FD01#0100000000000000
(1791431224.281292) can1 020001FD#7FFD7F987FFF0136
(1791431224.281453) can0 020001FD#7FB1801C7FFF0136
(1791431224.281598) can1 0200FD02#0100000000000000
(1791431224.281825) can0 0200FD02#0100000000000000
(1791431224.281860) can1 020002FD#7FFE800D7FFF0140
(1791431224.282071) can0 020002FD#7FFF7FF27FFF014A
(1791431224.282169) can1 0200FD03#0100000000000000
(1791431224.282402) can1 020003FD#7FFF80457FFF0154
(1791431224.282404) can0 0200FD03#0100000000000000
(1791431224.282693) can0 020003FD#7FFF80937FFF014A
(1791431224.282787) can1 0200FD04#0100000000000000
(1791431224.282978) can0 0200FD04#0100000000000000
(1791431224.283031) can1 020004FD#7FFF801A7FFF0140
(1791431224.283159) can0 020004FD#7FF87FCA7FFF012C
(1791431224.283413) can1 0200FD05#0100000000000000
(1791431224.283594) can1 020005FD#88E17FFA7FFF015E
(1791431224.283628) can0 0200FD05#0100000000000000
(1791431224.283849) can0 020005FD#7E7C7FF97FFF015E
(1791431224.283988) can1 0200FD06#0100000000000000
(1791431224.284172) can0 0200FD06#0100000000000000
(1791431224.284293) can1 020006FD#7FFA7FF47FFF015E
(1791431224.284402) can0 020006FD#7FFB80017FFF0154
(1791431224.284606) can1 0200FD07#0100000000000000
(1791431224.284796) can0 0200FD07#0100000000000000
(1791431224.284849) can1 020007FD#80027FF67FFF0140
(1791431224.285042) can0 020007FD#7ADB7FEB7FFF0140
(1791431224.285175) can1 0200FD08#0100000000000000
(1791431224.285361) can1 020008FD#828F801C7FFF0140
(1791431224.285405) can0 0200FD08#0100000000000000
(1791431224.285509) can0 020008FD#7EBD7FFC7FFF012C
(1791431224.364796) can1 0200FD01#0100000000000000
(1791431224.365040) can1 020001FD#7FFD7FEB7FFF0136
(1791431224.365183) can0 0200FD01#0100000000000000
(1791431224.365412) can0 020001FD#7FB1800D7FFF0136
(1791431224.365415) can1 0200FD02#0100000000000000
(1791431224.365594) can1 020002FD#7FFE7FEF7FFF0140
(1791431224.365804) can0 0200FD02#0100000000000000
(1791431224.365984) can1 0200FD03#0100000000000000
(1791431224.366053) can0 020002FD#7FFF80397FFF014A
(1791431224.366301) can1 020003FD#7FFF7FD07FFF0154
(1791431224.366417) can0 0200FD03#0100000000000000
(1791431224.366595) can0 020003FD#7FFF80247FFF014A
(1791431224.366629) can1 0200FD04#0100000000000000
(1791431224.366851) can1 020004FD#7FFE80657FFF0140
(1791431224.366990) can0 0200FD04#0100000000000000
(1791431224.367170) can1 0200FD05#0100000000000000
(1791431224.367295) can0 020004FD#7FF87FED7FFF012C
(1791431224.367396) can1 020005FD#88E17FDE7FFF015E
(1791431224.367610) can0 0200FD05#0100000000000000
(1791431224.367800) can1 0200FD06#0100000000000000
(1791431224.367845) can0 020005FD#7E7C7FFC7FFF015E
(1791431224.367975) can1 020006FD#7FFA801A7FFF015E
(1791431224.368178) can0 0200FD06#0100000000000000
(1791431224.368420) can1 0200FD07#0100000000000000
(1791431224.368426) can0 020006FD#7FFB800E7FFF0154
(1791431224.368596) can1 020007FD#8002801D7FFF0140
(1791431224.368801) can0 0200FD07#0100000000000000
(1791431224.368988) can1 0200FD08#0100000000000000
(1791431224.368993) can0 020007FD#7ADB7FFB7FFF0140
(1791431224.369143) can1 020008FD#828F80217FFF0140
(1791431224.369485) can0 0200FD08#0100000000000000
(1791431224.369551) can0 020008FD#7EBD7FEB7FFF012C
(1791431224.438673) can1 0200FD01#0100000000000000
(1791431224.438850) can1 020001FD#7FFD7FF37FFF0136
(1791431224.439133) can0 0200FD01#0100000000000000
(1791431224.439242) can1 0200FD02#0100000000000000
(1791431224.439418) can0 020001FD#7FB17FCC7FFF0136
(1791431224.439454) can1 020002FD#7FFD7F827FFF0140
(1791431224.439797) can0 0200FD02#0100000000000000
(1791431224.439842) can1 0200FD03#0100000000000000
(1791431224.439972) can0 020002FD#7FFE80087FFF014A
(1791431224.440084) can1 020003FD#800080627FFF0154
(1791431224.440419) can0 0200FD03#0100000000000000
(1791431224.440483) can1 0200FD04#0100000000000000
(1791431224.440600) can1 020004FD#7FFE80317FFF0140
(1791431224.440635) can0 020003FD#7FFF806D7FFF014A
(1791431224.440995) can0 0200FD04#0100000000000000
(1791431224.441047) can1 0200FD05#0100000000000000
(1791431224.441310) can0 020004FD#7FF880DC7FFF012C
(1791431224.441346) can1 020005FD#88E280337FFF015E
(1791431224.441610) can0 0200FD05#0100000000000000
(1791431224.441701) can1 0200FD06#0100000000000000
(1791431224.441851) can0 020005FD#7E7C80277FFF015E
(1791431224.441919) can1 020006FD#7FFA80137FFF015E
(1791431224.442180) can0 0200FD06#0100000000000000
(1791431224.442251) can1 0200FD07#0100000000000000
(1791431224.442418) can0 020006FD#7FFB7FFE7FFF0154
(1791431224.442456) can1 020007FD#800280297FFF0140
(1791431224.442807) can0 0200FD07#0100000000000000
(1791431224.442915) can1 0200FD08#0100000000000000
(1791431224.442978) can0 020007FD#7ADB7FE17FFF0140
(1791431224.443014) can1 020008FD#828F7FF97FFF0140
(1791431224.443420) can0 0200FD08#0100000000000000
(1791431224.443511) can0 020008FD#7EBD80237FFF012C
(1791431224.513805) can1 0200FD01#0100000000000000
(1791431224.514049) can1 020001FD#7FFD80417FFF0136
(1791431224.514121) can0 0200FD01#0100000000000000
(1791431224.514418) can0 020001FD#7FB181057FFF0136
(1791431224.514421) can1 0200FD02#0100000000000000
(1791431224.514601) can1 020002FD#7FFD7F727FFF0140
(1791431224.514739) can0 0200FD02#0100000000000000
(1791431224.514986) can0 020002FD#7FFE7FCF7FFF014A
(1791431224.515021) can1 0200FD03#0100000000000000
(1791431224.515237) can1 020003FD#7FFF800E7FFF0154
(1791431224.515356) can0 0200FD03#0100000000000000
(1791431224.515549) can0 020003FD#7FFF7F9A7FFF014A
(1791431224.515614) can1 0200FD04#0100000000000000
(1791431224.515797) can1 020004FD#7FFE80B37FFF0140
(1791431224.515930) can0 0200FD04#0100000000000000
(1791431224.516173) can0 020004FD#7FF8809C7FFF012C
(1791431224.516246) can1 0200FD05#0100000000000000
(1791431224.516417) can1 020005FD#88E17FD57FFF015E
(1791431224.516551) can0 0200FD05#0100000000000000
(1791431224.516730) can0 020005FD#7E7B7FEB7FFF015E
(1791431224.516847) can1 0200FD06#0100000000000000
(1791431224.517102) can1 020006FD#7FFA7FEC7FFF015E
(1791431224.517137) can0 0200FD06#0100000000000000
(1791431224.517420) can0 020006FD#7FFB800D7FFF0154
(1791431224.517483) can1 0200FD07#0100000000000000
(1791431224.517670) can1 020007FD#80027FB87FFF0140
(1791431224.517748) can0 0200FD07#0100000000000000
(1791431224.517924) can0 020007FD#7ADB7FCF7FFF0140
(1791431224.518058) can1 0200FD08#0100000000000000
(1791431224.518201) can1 020008FD#828F80237FFF0140
(1791431224.518361) can0 0200FD08#0100000000000000
(1791431224.518455) can0 020008FD#7EBD7FFA7FFF012C
(1791431224.597555) can1 0200FD01#0100000000000000
(1791431224.597677) can1 020001FD#7FFE80967FFF0136
(1791431224.597934) can0 0200FD01#0100000000000000
(1791431224.598116) can1 0200FD02#0100000000000000
(1791431224.598186) can0 020001FD#7FB17FE17FFF0136
(1791431224.598419) can1 020002FD#7FFE7FB07FFF0140
(1791431224.598555) can0 0200FD02#0100000000000000
(1791431224.598730) can0 020002FD#7FFE7F6E7FFF014A
(1791431224.598764) can1 0200FD03#0100000000000000
(1791431224.598926) can1 020003FD#7FFF801F7FFF0154
(1791431224.599122) can0 0200FD03#0100000000000000
(1791431224.599372) can1 0200FD04#0100000000000000
(1791431224.599410) can0 020003FD#7FFF80157FFF014A
(1791431224.599557) can1 020004FD#7FFE80217FFF0140
(1791431224.599745) can0 0200FD04#0100000000000000
(1791431224.599927) can1 0200FD05#0100000000000000
(1791431224.599928) can0 020004FD#7FF87F9C7FFF012C
(1791431224.600180) can1 020005FD#88E17FCB7FFF015E
(1791431224.600365) can0 0200FD05#0100000000000000
(1791431224.600557) can0 020005FD#7E7C80097FFF015E
(1791431224.600560) can1 0200FD06#0100000000000000
(1791431224.600741) can1 020006FD#7FFA80217FFF015E
(1791431224.600932) can0 0200FD06#0100000000000000
(1791431224.601127) can1 0200FD07#0100000000000000
(1791431224.601180) can0 020006FD#7FFB7FE77FFF0154
(1791431224.601404) can1 020007FD#800280137FFF0140
(1791431224.601552) can0 0200FD07#0100000000000000
(1791431224.601723) can0 020007FD#7ADB800D7FFF0140
(1791431224.601759) can1 0200FD08#0100000000000000
(1791431224.601901) can1 020008FD#828F7FF87FFF0140
(1791431224.602113) can0 0200FD08#0100000000000000
(1791431224.602314) can0 020008FD#7EBD80097FFF012C
(1791431224.674436) can1 0200FD01#0100000000000000
(1791431224.674555) can1 020001FD#7FFD7FED7FFF0136
(1791431224.674935) can0 0200FD01#0100000000000000
(1791431224.675009) can1 0200FD02#0100000000000000
(1791431224.675111) can0 020001FD#7FB180277FFF0136
(1791431224.675305) can1 020002FD#7FFE80437FFF0140
(1791431224.675555) can0 0200FD02#0100000000000000
(1791431224.675620) can1 0200FD03#0100000000000000
(1791431224.675732) can0 020002FD#7FFE7FD27FFF014A
(1791431224.675864) can1 020003FD#7FFF80047FFF0154
(1791431224.676123) can0 0200FD03#0100000000000000
(1791431224.676183) can1 0200FD04#0100000000000000
(1791431224.676419) can0 020003FD#7FFF7FED7FFF014A
(1791431224.676454) can1 020004FD#7FFF7F7E7FFF0140
(1791431224.676748) can0 0200FD04#0100000000000000
(1791431224.676808) can1 0200FD05#0100000000000000
(1791431224.676994) can1 020005FD#88E180277FFF015E
(1791431224.676997) can0 020004FD#7FF880257FFF012C
(1791431224.677368) can0 0200FD05#0100000000000000
(1791431224.677430) can1 0200FD06#0100000000000000
(1791431224.677536) can0 020005FD#7E7C80107FFF015E
(1791431224.677610) can1 020006FD#7FFB800F7FFF015E
(1791431224.677944) can0 0200FD06#0100000000000000
(1791431224.678001) can1 0200FD07#0100000000000000
(1791431224.678193) can0 020006FD#7FFB80077FFF0154
(1791431224.678316) can1 020007FD#80027F987FFF0140
(1791431224.678558) can0 0200FD07#0100000000000000
(1791431224.678624) can1 0200FD08#0100000000000000
(1791431224.678730) can0 020007FD#7ADB80177FFF0140
(1791431224.678797) can1 020008FD#828F7FC47FFF0140
(1791431224.679125) can0 0200FD08#0100000000000000
(1791431224.679305) can0 020008FD#7EBC7FF57FFF012C
(1791431224.750006) can1 0200FD01#0100000000000000
(1791431224.750311) can1 020001FD#7FFD80087FFF0136
(1791431224.750355) can0 0200FD01#0100000000000000
(1791431224.750618) can0 020001FD#7FB17FE77FFF0136
(1791431224.750651) can1 0200FD02#0100000000000000
(1791431224.750873) can1 020002FD#7FFE802E7FFF0140
(1791431224.750946) can0 0200FD02#0100000000000000
(1791431224.751189) can0 020002FD#7FFE7F9B7FFF014A
(1791431224.751193) can1 0200FD03#0100000000000000
(1791431224.751423) can1 020003FD#7FFF80787FFF0154
(1791431224.751562) can0 0200FD03#0100000000000000
(1791431224.751739) can0 020003FD#7FFF7FBB7FFF014A
(1791431224.751804) can1 0200FD04#0100000000000000
(1791431224.751983) can1 020004FD#7FFF80B47FFF0140
(1791431224.752121) can0 0200FD04#0100000000000000
(1791431224.752411) can0 020004FD#7FF8800E7FFF012C
(1791431224.752446) can1 0200FD05#0100000000000000
(1791431224.752609) can1 020005FD#88E280037FFF015E
(1791431224.752750) can0 0200FD05#0100000000000000
(1791431224.752925) can0 020005FD#7E7C80057FFF015E
(1791431224.753003) can1 0200FD06#0100000000000000
(1791431224.753328) can1 020006FD#7FFB7FFC7FFF015E
(1791431224.753362) can0 0200FD06#0100000000000000
(1791431224.753533) can0 020006FD#7FFB80347FFF0154
(1791431224.753616) can1 0200FD07#0100000000000000
(1791431224.753883) can1 020007FD#800280127FFF0140
(1791431224.753967) can0 0200FD07#0100000000000000
(1791431224.754141) can0 020007FD#7ADB80037FFF0140
(1791431224.754191) can1 0200FD08#0100000000000000
(1791431224.754391) can1 020008FD#828F801B7FFF0140
(1791431224.754559) can0 0200FD08#0100000000000000
(1791431224.754710) can0 020008FD#7EBD80197FFF012C
(1791431224.827999) can1 0200FD01#0100000000000000
(1791431224.828239) can1 020001FD#7FFE80B07FFF0136
(1791431224.828371) can0 0200FD01#0100000000000000
(1791431224.828558) can0 020001FD#7FB17F997FFF0136
(1791431224.828620) can1 0200FD02#0100000000000000
(1791431224.828804) can1 020002FD#7FFE7FD67FFF0140
(1791431224.828940) can0 0200FD02#0100000000000000
(1791431224.829184) can0 020002FD#7FFF803F7FFF014A
(1791431224.829218) can1 0200FD03#0100000000000000
(1791431224.829412) can1 020003FD#7FFF7FBE7FFF0154
(1791431224.829559) can0 0200FD03#0100000000000000
(1791431224.829744) can0 020003FD#7FFF7FCE7FFF014A
(1791431224.829816) can1 0200FD04#0100000000000000
(1791431224.830004) can1 020004FD#7FFF806F7FFF0140
(1791431224.830137) can0 0200FD04#0100000000000000
(1791431224.830368) can0 020004FD#7FF87F917FFF012C
(1791431224.830433) can1 0200FD05#0100000000000000
(1791431224.830619) can1 020005FD#88E17FFF7FFF015E
(1791431224.830753) can0 0200FD05#0100000000000000
(1791431224.831006) can0 020005FD#7E7C7FC17FFF015E
(1791431224.831011) can1 0200FD06#0100000000000000
(1791431224.831324) can1 020006FD#7FFA80197FFF015E
(1791431224.831362) can0 0200FD06#0100000000000000
(1791431224.831557) can0 020006FD#7FFB7FF97FFF0154
(1791431224.831628) can1 0200FD07#0100000000000000
(1791431224.831894) can1 020007FD#800280057FFF0140
(1791431224.831933) can0 0200FD07#0100000000000000
(1791431224.832188) can0 020007FD#7ADB80007FFF0140
(1791431224.832221) can1 0200FD08#0100000000000000
(1791431224.832392) can1 020008FD#828F801E7FFF0140
(1791431224.832559) can0 0200FD08#0100000000000000
(1791431224.832647) can0 020008FD#7EBD805C7FFF012C
(1791431224.927500) can1 0200FD01#0100000000000000
(1791431224.927673) can1 020001FD#7FFD7FD77FFF0136
(1791431224.927763) can0 0200FD01#0100000000000000
(1791431224.928006) can0 020001FD#7FB17FBF7FFF0136
(1791431224.928063) can1 0200FD02#0100000000000000
(1791431224.928379) can0 0200FD02#0100000000000000
(1791431224.928381) can1 020002FD#7FFD7FC77FFF0140
(1791431224.928562) can0 020002FD#7FFE800A7FFF014A
(1791431224.928721) can1 0200FD03#0100000000000000
(1791431224.928945) can0 0200FD03#0100000000000000
(1791431224.928947) can1 020003FD#7FFF80267FFF0154
(1791431224.929200) can0 020003FD#800081047FFF014A
(1791431224.929262) can1 0200FD04#0100000000000000
(1791431224.929484) can1 020004FD#7FFF805F7FFF0140
(1791431224.929572) can0 0200FD04#0100000000000000
(1791431224.929745) can0 020004FD#7FF8802B7FFF012C
(1791431224.929880) can1 0200FD05#0100000000000000
(1791431224.930139) can1 020005FD#88E180057FFF015E
(1791431224.930172) can0 0200FD05#0100000000000000
(1791431224.930433) can0 020005FD#7E7C7FD07FFF015E
(1791431224.930499) can1 0200FD06#0100000000000000
(1791431224.930717) can1 020006FD#7FFA80037FFF015E
(1791431224.930754) can0 0200FD06#0100000000000000
(1791431224.930938) can0 020006FD#7FFB800B7FFF0154
(1791431224.931072) can1 0200FD07#0100000000000000
(1791431224.931371) can0 0200FD07#0100000000000000
(1791431224.931374) can1 020007FD#80027FCB7FFF0140
(1791431224.931546) can0 020007FD#7ADB7FFD7FFF0140
(1791431224.931719) can1 0200FD08#0100000000000000
(1791431224.931850) can1 020008FD#828F7FF87FFF0140
(1791431224.931919) can0 0200FD08#0100000000000000
(1791431224.932078) can0 020008FD#7EBD7FF27FFF012C
(1791431225.008905) can1 0200FD01#0100000000000000
(1791431225.009085) can1 020001FD#7FFD80007FFF0136
(1791431225.009189) can0 0200FD01#0100000000000000
(1791431225.009439) can0 020001FD#7FB17FC67FFF0136
(1791431225.009503) can1 0200FD02#0100000000000000
(1791431225.009721) can1 020002FD#7FFE804E7FFF0140
(1791431225.009828) can0 0200FD02#0100000000000000
(1791431225.010006) can0 020002FD#7FFF80347FFF014A
(1791431225.010071) can1 0200FD03#0100000000000000
(1791431225.010394) can1 020003FD#7FFF7FE07FFF0154
(1791431225.010446) can0 0200FD03#0100000000000000
(1791431225.010625) can0 020003FD#7FFF80117FFF014A
(1791431225.010723) can1 0200FD04#0100000000000000
(1791431225.010949) can1 020004FD#7FFF80747FFF0140
(1791431225.011015) can0 0200FD04#0100000000000000
(1791431225.011270) can1 0200FD05#0100000000000000
(1791431225.011328) can0 020004FD#7FF880557FFF012C
(1791431225.011482) can1 020005FD#88E17FF07FFF015E
(1791431225.011627) can0 0200FD05#0100000000000000
(1791431225.011865) can0 020005FD#7E7C7FF27FFF015E
(1791431225.011900) can1 0200FD06#0100000000000000
(1791431225.012067) can1 020006FD#7FFA80147FFF015E
(1791431225.012198) can0 0200FD06#0100000000000000
(1791431225.012434) can0 020006FD#7FFB80097FFF0154
(1791431225.012502) can1 0200FD07#0100000000000000
(1791431225.012719) can1 020007FD#800280097FFF0140
(1791431225.012824) can0 0200FD07#0100000000000000
(1791431225.013073) can0 020007FD#7ADB800F7FFF0140
(1791431225.013107) can1 0200FD08#0100000000000000
(1791431225.013233) can1 020008FD#828F7FC67FFF0140
(1791431225.013440) can0 0200FD08#0100000000000000
(1791431225.013549) can0 020008FD#7EBD7FD67FFF012C
(1791431225.086099) can1 0200FD01#0100000000000000
(1791431225.086378) can1 020001FD#7FFD7FD67FFF0136
(1791431225.086568) can0 0200FD01#0100000000000000
(1791431225.086700) can0 020001FD#7FB17FCD7FFF0136
(1791431225.086704) can1 0200FD02#0100000000000000
(1791431225.086939) can1 020002FD#7FFD7FD57FFF0140
(1791431225.087274) can1 0200FD03#0100000000000000
(1791431225.087491) can1 020003FD#7FFF7FAE7FFF0154
(1791431225.087883) can1 0200FD04#0100000000000000
(1791431225.088023) can0 0200FD02#0100000000000000
(1791431225.088119) can1 020004FD#7FFE80407FFF0140
(1791431225.088345) can0 020002FD#7FFE7FC17FFF014A
(1791431225.088516) can1 0200FD05#0100000000000000
(1791431225.088628) can1 020005FD#88E27FC27FFF015E
(1791431225.088661) can0 0200FD03#0100000000000000
(1791431225.088886) can0 020003FD#7FFF7FDF7FFF014A
(1791431225.089089) can1 0200FD06#0100000000000000
(1791431225.089207) can0 0200FD04#0100000000000000
(1791431225.089392) can1 020006FD#7FFA7FF07FFF015E
(1791431225.089424) can0 020004FD#7FF87F8B7FFF012C
(1791431225.089702) can1 0200FD07#0100000000000000
(1791431225.089829) can0 0200FD05#0100000000000000
(1791431225.089947) can1 020007FD#80027FC07FFF0140
(1791431225.090067) can0 020005FD#7E7C800D7FFF015E
(1791431225.090275) can1 0200FD08#0100000000000000
(1791431225.090437) can1 020008FD#828F80087FFF0140
(1791431225.090471) can0 0200FD06#0100000000000000
(1791431225.090623) can0 020006FD#7FFB80147FFF0154
(1791431225.091012) can0 0200FD07#0100000000000000
(1791431225.091244) can0 020007FD#7ADB80047FFF0140
(1791431225.091574) can0 0200FD08#0100000000000000
(1791431225.091737) can0 020008FD#7EBD800D7FFF012C
(1791431225.166738) can1 0200FD01#0100000000000000
(1791431225.166946) can1 020001FD#7FFD80527FFF0136
(1791431225.167021) can0 0200FD01#0100000000000000
(1791431225.167275) can1 0200FD02#0100000000000000
(1791431225.167326) can0 020001FD#7FB180597FFF0136
(1791431225.167496) can1 020002FD#7FFE80557FFF0140
(1791431225.167651) can0 0200FD02#0100000000000000
(1791431225.167879) can1 0200FD03#0100000000000000
(1791431225.167921) can0 020002FD#7FFF7FB37FFF014A
(1791431225.168121) can1 020003FD#7FFF7FF27FFF0154
(1791431225.168201) can0 0200FD03#0100000000000000
(1791431225.168438) can0 020003FD#7FFF7FEB7FFF014A
(1791431225.168508) can1 0200FD04#0100000000000000
(1791431225.168734) can1 020004FD#7FFF80807FFF0140
(1791431225.168829) can0 0200FD04#0100000000000000
(1791431225.169014) can0 020004FD#7FF87FD47FFF012C
(1791431225.169079) can1 0200FD05#0100000000000000
(1791431225.169388) can1 020005FD#88E17FD57FFF015E
(1791431225.169446) can0 0200FD05#0100000000000000
(1791431225.169631) can0 020005FD#7E7B7FBD7FFF015E
(1791431225.169725) can1 0200FD06#0100000000000000
(1791431225.169941) can1 020006FD#7FFA80007FFF015E
(1791431225.170017) can0 0200FD06#0100000000000000
(1791431225.170260) can0 020006FD#7FFB7FE77FFF0154
(1791431225.170295) can1 0200FD07#0100000000000000
(1791431225.170490) can1 020007FD#800280127FFF0140
(1791431225.170662) can0 0200FD07#0100000000000000
(1791431225.170827) can0 020007FD#7ADB800C7FFF0140
(1791431225.170879) can1 0200FD08#0100000000000000
(1791431225.171048) can1 020008FD#828F80477FFF0140
(1791431225.171260) can0 0200FD08#0100000000000000
(1791431225.171386) can0 020008FD#7EBD7FF07FFF012C
(1791431225.244177) can1 0200FD01#0100000000000000
(1791431225.244447) can1 020001FD#7FFD80037FFF0136
(1791431225.244767) can1 0200FD02#0100000000000000
(1791431225.244834) can0 0200FD01#0100000000000000
(1791431225.244960) can1 020002FD#7FFE7FB87FFF0140
(1791431225.245087) can0 020001FD#7FB180067FFF0136
(1791431225.245392) can1 0200FD03#0100000000000000
(1791431225.245456) can0 0200FD02#0100000000000000
(1791431225.245589) can1 020003FD#7FFF808A7FFF0154
(1791431225.245640) can0 020002FD#7FFE7FDD7FFF014A
(1791431225.245969) can1 0200FD04#0100000000000000
(1791431225.246027) can0 0200FD03#0100000000000000
(1791431225.246222) can1 020004FD#7FFE7FB97FFF0140
(1791431225.246333) can0 020003FD#7FFF802C7FFF014A
(1791431225.246577) can1 0200FD05#0100000000000000
(1791431225.246639) can0 0200FD04#0100000000000000
(1791431225.246749) can1 020005FD#88E280227FFF015E
(1791431225.246885) can0 020004FD#7FF87FAC7FFF012C
(1791431225.247149) can1 0200FD06#0100000000000000
(1791431225.247209) can0 0200FD05#0100000000000000
(1791431225.247445) can1 020006FD#7FFB804F7FFF015E
(1791431225.247477) can0 020005FD#7E7C7FF37FFF015E
(1791431225.247774) can1 0200FD07#0100000000000000
(1791431225.247837) can0 0200FD06#0100000000000000
(1791431225.248014) can1 020007FD#8002801B7FFF0140
(1791431225.248021) can0 020006FD#7FFB7FE87FFF0154
(1791431225.248391) can1 0200FD08#0100000000000000
(1791431225.248453) can0 0200FD07#0100000000000000
(1791431225.248495) can1 020008FD#828F80257FFF0140
(1791431225.248628) can0 020007FD#7ADB7FF97FFF0140
(1791431225.249015) can0 0200FD08#0100000000000000
(1791431225.249195) can0 020008FD#7EBD80217FFF012C
(1791431225.320522) can1 0200FD01#0100000000000000
(1791431225.320745) can1 020001FD#7FFD7FFE7FFF0136
(1791431225.320750) can0 0200FD01#0100000000000000
(1791431225.320958) can0 020001FD#7FB17F597FFF0136
(1791431225.321088) can1 0200FD02#0100000000000000
(1791431225.321275) can0 0200FD02#0100000000000000
(1791431225.321404) can1 020002FD#7FFE80557FFF0140
(1791431225.321491) can0 020002FD#7FFF802F7FFF014A
(1791431225.321731) can1 0200FD03#0100000000000000
(1791431225.321890) can0 0200FD03#0100000000000000
(1791431225.321949) can1 020003FD#800080887FFF0154
(1791431225.322080) can0 020003FD#7FFF7FBB7FFF014A
(1791431225.322275) can1 0200FD04#0100000000000000
(1791431225.322496) can1 020004FD#7FFF80717FFF0140
(1791431225.322532) can0 0200FD04#0100000000000000
(1791431225.322732) can0 020004FD#7FF87FEA7FFF012C
(1791431225.322894) can1 0200FD05#0100000000000000
(1791431225.323072) can1 020005FD#88E17FF37FFF015E
(1791431225.323107) can0 0200FD05#0100000000000000
(1791431225.323393) can0 020005FD#7E7C7FEC7FFF015E
(1791431225.323519) can1 0200FD06#0100000000000000
(1791431225.323731) can0 0200FD06#0100000000000000
(1791431225.323732) can1 020006FD#7FFA80237FFF015E
(1791431225.323948) can0 020006FD#7FFB7FD87FFF0154
(1791431225.324093) can1 0200FD07#0100000000000000
(1791431225.324280) can0 0200FD07#0100000000000000
(1791431225.324337) can1 020007FD#800280197FFF0140
(1791431225.324496) can0 020007FD#7ADB7FFA7FFF0140
(1791431225.324732) can1 0200FD08#0100000000000000
(1791431225.324858) can0 0200FD08#0100000000000000
(1791431225.324895) can1 020008FD#828F7FF87FFF0140
(1791431225.325049) can0 020008FD#7EBD7FDC7FFF012C
(1791431225.395971) can1 0200FD01#0100000000000000
(1791431225.396210) can1 020001FD#7FFE7FD17FFF0136
(1791431225.396303) can0 0200FD01#0100000000000000
(1791431225.396496) can0 020001FD#7FB17F697FFF0136
(1791431225.396586) can1 0200FD02#0100000000000000
(1791431225.396758) can1 020002FD#7FFE80A07FFF0140
(1791431225.396895) can0 0200FD02#0100000000000000
(1791431225.397138) can0 020002FD#7FFE7FBB7FFF014A
(1791431225.397172) can1 0200FD03#0100000000000000
(1791431225.397450) can1 020003FD#7FFF80227FFF0154
(1791431225.397520) can0 0200FD03#0100000000000000
(1791431225.397734) can0 020003FD#7FFF7F9C7FFF014A
(1791431225.397775) can1 0200FD04#0100000000000000
(1791431225.398017) can1 020004FD#7FFE80537FFF0140
(1791431225.398085) can0 0200FD04#0100000000000000
(1791431225.398390) can1 0200FD05#0100000000000000
(1791431225.398430) can0 020004FD#7FF8800C7FFF012C
(1791431225.398566) can1 020005FD#88E1802A7FFF015E
(1791431225.398710) can0 0200FD05#0100000000000000
(1791431225.398956) can0 020005FD#7E7C7FFD7FFF015E
(1791431225.398992) can1 0200FD06#0100000000000000
(1791431225.399211) can1 020006FD#7FFA7FEE7FFF015E
(1791431225.399279) can0 0200FD06#0100000000000000
(1791431225.399502) can0 020006FD#7FFB80177FFF0154
(1791431225.399587) can1 0200FD07#0100000000000000
(1791431225.399771) can1 020007FD#800280457FFF0140
(1791431225.399900) can0 0200FD07#0100000000000000
(1791431225.400080) can0 020007FD#7ADB80087FFF0140
(1791431225.400155) can1 0200FD08#0100000000000000
(1791431225.400398) can1 020008FD#828F80297FFF0140
(1791431225.400518) can0 0200FD08#0100000000000000
(1791431225.400639) can0 020008FD#7EBD80157FFF012C
(1791431225.469840) can1 0200FD01#0100000000000000
(1791431225.470082) can1 020001FD#7FFD80157FFF0136
(1791431225.470242) can0 0200FD01#0100000000000000
(1791431225.470461) can1 0200FD02#0100000000000000
(1791431225.470501) can0 020001FD#7FB17F9E7FFF0136
(1791431225.470642) can1 020002FD#7FFD80967FFF0140
(1791431225.470816) can0 0200FD02#0100000000000000
(1791431225.470999) can0 020002FD#7FFF800F7FFF014A
(1791431225.471038) can1 0200FD03#0100000000000000
(1791431225.471337) can1 020003FD#7FFF805A7FFF0154
(1791431225.471393) can0 0200FD03#0100000000000000
(1791431225.471569) can0 020003FD#7FFF800C7FFF014A
(1791431225.471648) can1 0200FD04#0100000000000000
(1791431225.471894) can1 020004FD#7FFE7F7D7FFF0140
(1791431225.471959) can0 0200FD04#0100000000000000
(1791431225.472137) can0 020004FD#7FF880447FFF012C
(1791431225.472211) can1 0200FD05#0100000000000000
(1791431225.472452) can1 020005FD#88E180077FFF015E
(1791431225.472586) can0 0200FD05#0100000000000000
(1791431225.472764) can0 020005FD#7E7C80077FFF015E
(1791431225.472839) can1 0200FD06#0100000000000000
(1791431225.473015) can1 020006FD#7FFA7FC67FFF015E
(1791431225.473152) can0 0200FD06#0100000000000000
(1791431225.473459) can1 0200FD07#0100000000000000
(1791431225.473461) can0 020006FD#7FFB80047FFF0154
(1791431225.473635) can1 020007FD#8002800B7FFF0140
(1791431225.473782) can0 0200FD07#0100000000000000
(1791431225.474026) can1 0200FD08#0100000000000000
(1791431225.474068) can0 020007FD#7ADB80027FFF0140
(1791431225.474186) can1 020008FD#828F7FCC7FFF0140
(1791431225.474398) can0 0200FD08#0100000000000000
(1791431225.474490) can0 020008FD#7EBD7FD17FFF012C
(1791431225.550223) can1 0200FD01#0100000000000000
(1791431225.550461) can1 020001FD#7FFD7F3D7FFF0136
(1791431225.550880) can1 0200FD02#0100000000000000
(1791431225.551054) can1 020002FD#7FFE80047FFF0140
(1791431225.551465) can1 0200FD03#0100000000000000
(1791431225.551644) can1 020003FD#7FFF80857FFF0154
(1791431225.551677) can0 0200FD01#0100000000000000
(1791431225.551898) can0 020001FD#7FB17FB07FFF0136
(1791431225.552027) can1 0200FD04#0100000000000000
(1791431225.552220) can0 0200FD02#0100000000000000
(1791431225.552274) can1 020004FD#7FFF80BF7FFF0140
(1791431225.552454) can0 020002FD#7FFE7FD77FFF014A
(1791431225.552655) can1 0200FD05#0100000000000000
(1791431225.552835) can1 020005FD#88E17FF27FFF015E
(1791431225.552870) can0 0200FD03#0100000000000000
(1791431225.553022) can0 020003FD#7FFF80AE7FFF014A
(1791431225.553221) can1 0200FD06#0100000000000000
(1791431225.553453) can1 020006FD#7FFA80077FFF015E
(1791431225.553482) can0 0200FD04#0100000000000000
(1791431225.553635) can0 020004FD#7FF87F797FFF012C
(1791431225.553855) can1 0200FD07#0100000000000000
(1791431225.554029) can0 0200FD05#0100000000000000
(1791431225.554061) can1 020007FD#800280197FFF0140
(1791431225.554213) can0 020005FD#7E7C7FED7FFF015E
(1791431225.554464) can1 0200FD08#0100000000000000
(1791431225.554592) can1 020008FD#828F7FE97FFF0140
(1791431225.554640) can0 0200FD06#0100000000000000
(1791431225.554885) can0 020006FD#7FFB80237FFF0154
(1791431225.555280) can0 0200FD07#0100000000000000
(1791431225.555499) can0 020007FD#7ADB7FEE7FFF0140
(1791431225.555894) can0 0200FD08#0100000000000000
(1791431225.556045) can0 020008FD#7EBD7FFB7FFF012C
(1791431225.627730) can1 0200FD01#0100000000000000
(1791431225.627972) can1 020001FD#7FFE80207FFF0136
(1791431225.628282) can1 0200FD02#0100000000000000
(1791431225.628512) can1 020002FD#7FFD80017FFF0140
(1791431225.628545) can0 0200FD01#0100000000000000
(1791431225.628745) can0 020001FD#7FB17F937FFF0136
(1791431225.628894) can1 0200FD03#0100000000000000
(1791431225.629145) can1 020003FD#7FFF801A7FFF0154
(1791431225.629178) can0 0200FD02#0100000000000000
(1791431225.629415) can0 020002FD#7FFF803F7FFF014A
(1791431225.629533) can1 0200FD04#0100000000000000
(1791431225.629720) can1 020004FD#7FFF80317FFF0140
(1791431225.629785) can0 0200FD03#0100000000000000
(1791431225.630047) can0 020003FD#7FFF7FC57FFF014A
(1791431225.630100) can1 0200FD05#0100000000000000
(1791431225.630423) can0 0200FD04#0100000000000000
(1791431225.630429) can1 020005FD#88E280017FFF015E
(1791431225.630598) can0 020004FD#7FF880137FFF012C
(1791431225.630752) can1 0200FD06#0100000000000000
(1791431225.630982) can1 020006FD#7FFA80177FFF015E
(1791431225.631007) can0 0200FD05#0100000000000000
(1791431225.631160) can0 020005FD#7E7C7FB97FFF015E
(1791431225.631300) can1 0200FD07#0100000000000000
(1791431225.631511) can1 020007FD#800280027FFF0140
(1791431225.631594) can0 0200FD06#0100000000000000
(1791431225.631770) can0 020006FD#7FFB7FFC7FFF0154
(1791431225.631907) can1 0200FD08#0100000000000000
(1791431225.632161) can0 0200FD07#0100000000000000
(1791431225.632067) can1 020008FD#828F7FFC7FFF0140
(1791431225.632465) can0 020007FD#7ADB7FE17FFF0140
(1791431225.632847) can0 0200FD08#0100000000000000
(1791431225.632931) can0 020008FD#7EBD7FEA7FFF012C
(1791431225.715913) can1 0200FD01#0100000000000000
(1791431225.716157) can1 020001FD#7FFD7FE77FFF0136
(1791431225.716539) can1 0200FD02#0100000000000000
(1791431225.716662) can0 0200FD01#0100000000000000
(1791431225.716718) can1 020002FD#7FFE80537FFF0140
(1791431225.716847) can0 020001FD#7FB17FA47FFF0136
(1791431225.717107) can1 0200FD03#0100000000000000
(1791431225.717237) can0 0200FD02#0100000000000000
(1791431225.717406) can1 020003FD#7FFF80527FFF0154
(1791431225.717466) can0 020002FD#7FFF7FBB7FFF014A
(1791431225.717750) can1 0200FD04#0100000000000000
(1791431225.717858) can0 0200FD03#0100000000000000
(1791431225.717974) can1 020004FD#7FFF806B7FFF0140
(1791431225.718029) can0 020003FD#7FFF80FA7FFF014A
(1791431225.718302) can1 0200FD05#0100000000000000
(1791431225.718466) can0 0200FD04#0100000000000000
(1791431225.718511) can1 020005FD#88E280027FFF015E
(1791431225.718652) can0 020004FD#7FF880617FFF012C
(1791431225.718896) can1 0200FD06#0100000000000000
(1791431225.719042) can0 0200FD05#0100000000000000
(1791431225.719141) can1 020006FD#7FFA80167FFF015E
(1791431225.719361) can0 020005FD#7E7C80017FFF015E
(1791431225.719533) can1 0200FD07#0100000000000000
(1791431225.719662) can0 0200FD06#0100000000000000
(1791431225.719748) can1 020007FD#800280177FFF0140
(1791431225.719904) can0 020006FD#7FFB80187FFF0154
(1791431225.720105) can1 0200FD08#0100000000000000
(1791431225.720237) can0 0200FD07#0100000000000000
(1791431225.720272) can1 020008FD#828F7FBB7FFF0140
(1791431225.720460) can0 020007FD#7ADB7FDF7FFF0140
(1791431225.720846) can0 0200FD08#0100000000000000
(1791431225.720975) can0 020008FD#7EBC7FC57FFF012C
(1791431225.797753) can1 0200FD01#0100000000000000
(1791431225.797983) can1 020001FD#7FFD7FA37FFF0136
(1791431225.797987) can0 0200FD01#0100000000000000
(1791431225.798229) can0 020001FD#7FB07F6C7FFF0136
(1791431225.798299) can1 0200FD02#0100000000000000
(1791431225.798510) can1 020002FD#7FFE804F7FFF0140
(1791431225.798601) can0 0200FD02#0100000000000000
(1791431225.798780) can0 020002FD#7FFF80EC7FFF014A
(1791431225.798906) can1 0200FD03#0100000000000000
(1791431225.799158) can1 020003FD#800080617FFF0154
(1791431225.799192) can0 0200FD03#0100000000000000
(1791431225.799469) can0 020003FD#7FFF7FD37FFF014A
(1791431225.799540) can1 0200FD04#0100000000000000
(1791431225.799730) can1 020004FD#7FFF7F677FFF0140
(1791431225.799792) can0 0200FD04#0100000000000000
(1791431225.799975) can0 020004FD#7FF87FC67FFF012C
(1791431225.800114) can1 0200FD05#0100000000000000
(1791431225.800409) can0 0200FD05#0100000000000000
(1791431225.800444) can1 020005FD#88E180357FFF015E
(1791431225.800598) can0 020005FD#7E7C80387FFF015E
(1791431225.800761) can1 0200FD06#0100000000000000
(1791431225.800972) can1 020006FD#7FFA7FCB7FFF015E
(1791431225.801007) can0 0200FD06#0100000000000000
(1791431225.801170) can0 020006FD#7FFB800A7FFF0154
(1791431225.801292) can1 0200FD07#0100000000000000
(1791431225.801520) can1 020007FD#8002800D7FFF0140
(1791431225.801601) can0 0200FD07#0100000000000000
(1791431225.801780) can0 020007FD#7ADB80007FFF0140
(1791431225.801914) can1 0200FD08#0100000000000000
(1791431225.802064) can1 020008FD#828F7FFF7FFF0140
(1791431225.802169) can0 0200FD08#0100000000000000
(1791431225.802348) can0 020008FD#7EBD800B7FFF012C
(1791431225.869470) can1 0200FD01#0100000000000000
(1791431225.869647) can1 020001FD#7FFD7FF67FFF0136
(1791431225.869864) can0 0200FD01#0100000000000000
(1791431225.870044) can1 0200FD02#0100000000000000
(1791431225.870115) can0 020001FD#7FB180727FFF0136
(1791431225.870283) can1 020002FD#7FFE801A7FFF0140
(1791431225.870483) can0 0200FD02#0100000000000000
(1791431225.870663) can0 020002FD#7FFE800C7FFF014A
(1791431225.870698) can1 0200FD03#0100000000000000
(1791431225.870918) can1 020003FD#7FFF7FD77FFF0154
(1791431225.871050) can0 0200FD03#0100000000000000
(1791431225.871235) can1 0200FD04#0100000000000000
(1791431225.871364) can0 020003FD#7FFF7FF57FFF014A
(1791431225.871472) can1 020004FD#7FFE7FCF7FFF0140
(1791431225.871761) can0 0200FD04#0100000000000000
(1791431225.871860) can1 0200FD05#0100000000000000
(1791431225.871910) can0 020004FD#7FF87FF77FFF012C
(1791431225.872097) can1 020005FD#88E180267FFF015E
(1791431225.872301) can0 0200FD05#0100000000000000
(1791431225.872477) can1 0200FD06#0100000000000000
(1791431225.872515) can0 020005FD#7E7C80267FFF015E
(1791431225.872659) can1 020006FD#7FFA7FD47FFF015E
(1791431225.872919) can0 0200FD06#0100000000000000
(1791431225.873055) can1 0200FD07#0100000000000000
(1791431225.873159) can0 020006FD#7FFB80117FFF0154
(1791431225.873377) can1 020007FD#80027FFE7FFF0140
(1791431225.873543) can0 0200FD07#0100000000000000
(1791431225.873670) can1 0200FD08#0100000000000000
(1791431225.873766) can0 020007FD#7ADB7FED7FFF0140
(1791431225.873819) can1 020008FD#828F7FD67FFF0140
(1791431225.874107) can0 0200FD08#0100000000000000
(1791431225.874281) can0 020008FD#7EBD7FBB7FFF012C
(1791431225.946763) can1 0200FD01#0100000000000000
(1791431225.946978) can1 020001FD#7FFD7FF37FFF0136
(1791431225.947050) can0 0200FD01#0100000000000000
(1791431225.947302) can1 0200FD02#0100000000000000
(1791431225.947358) can0 020001FD#7FB180477FFF0136
(1791431225.947522) can1 020002FD#7FFD7FD17FFF0140
(1791431225.947674) can0 0200FD02#0100000000000000
(1791431225.947894) can1 0200FD03#0100000000000000
(1791431225.947930) can0 020002FD#7FFF80047FFF014A
(1791431225.948154) can1 020003FD#7FFF80BB7FFF0154
(1791431225.948237) can0 0200FD03#0100000000000000
(1791431225.948473) can0 020003FD#7FFF80467FFF014A
(1791431225.948548) can1 0200FD04#0100000000000000
(1791431225.948757) can1 020004FD#7FFF7FFE7FFF0140
(1791431225.948850) can0 0200FD04#0100000000000000
(1791431225.949098) can0 020004FD#7FF880537FFF012C
(1791431225.949133) can1 0200FD05#0100000000000000
(1791431225.949425) can1 020005FD#88E17FED7FFF015E
(1791431225.949477) can0 0200FD05#0100000000000000
(1791431225.949654) can0 020005FD#7E7C7FE67FFF015E
(1791431225.949757) can1 0200FD06#0100000000000000
(1791431225.949978) can1 020006FD#7FFA80027FFF015E
(1791431225.950052) can0 0200FD06#0100000000000000
(1791431225.950303) can1 0200FD07#0100000000000000
(1791431225.950363) can0 020006FD#7FFB80297FFF0154
(1791431225.950519) can1 020007FD#80027FE87FFF0140
(1791431225.950678) can0 0200FD07#0100000000000000
(1791431225.950899) can1 0200FD08#0100000000000000
(1791431225.950935) can0 020007FD#7ADB7FF87FFF0140
(1791431225.951084) can1 020008FD#828F80067FFF0140
(1791431225.951238) can0 0200FD08#0100000000000000
(1791431225.951417) can0 020008FD#7EBD7FC17FFF012C
(1791431226.020294) can1 0200FD01#0100000000000000
(1791431226.020477) can1 020001FD#7FFD7F9A7FFF0136
(1791431226.020810) can0 0200FD01#0100000000000000
(1791431226.020893) can1 0200FD02#0100000000000000
(1791431226.021053) can0 020001FD#7FB180457FFF0136
(1791431226.021141) can1 020002FD#7FFE807C7FFF0140
(1791431226.021418) can0 0200FD02#0100000000000000
(1791431226.021480) can1 0200FD03#0100000000000000
(1791431226.021614) can0 020002FD#7FFF7FB37FFF014A
(1791431226.021663) can1 020003FD#8000805E7FFF0154
(1791431226.021999) can0 0200FD03#0100000000000000
(1791431226.022054) can1 0200FD04#0100000000000000
(1791431226.022178) can0 020003FD#7FFF800E7FFF014A
(1791431226.022290) can1 020004FD#7FFE80167FFF0140
(1791431226.022611) can0 0200FD04#0100000000000000
(1791431226.022674) can1 0200FD05#0100000000000000
(1791431226.022796) can0 020004FD#7FF880477FFF012C
(1791431226.022916) can1 020005FD#88E180147FFF015E
(1791431226.023180) can0 0200FD05#0100000000000000
(1791431226.023234) can1 0200FD06#0100000000000000
(1791431226.023468) can1 020006FD#7FFA7FA47FFF015E
(1791431226.023501) can0 020005FD#7E7C80167FFF015E
(1791431226.023817) can0 0200FD06#0100000000000000
(1791431226.023850) can1 0200FD07#0100000000000000
(1791431226.024052) can0 020006FD#7FFB7FDD7FFF0154
(1791431226.024088) can1 020007FD#800280037FFF0140
(1791431226.024434) can0 0200FD07#0100000000000000
(1791431226.024438) can1 0200FD08#0100000000000000
(1791431226.024573) can1 020008FD#828F801E7FFF0140
(1791431226.024604) can0 020007FD#7ADB7FE57FFF0140
(1791431226.024996) can0 0200FD08#0100000000000000
(1791431226.025140) can0 020008FD#7EBD7FDC7FFF012C
(1791431226.103801) can1 0200FD01#0100000000000000
(1791431226.104048) can1 020001FD#7FFD7FFD7FFF0136
(1791431226.104293) can0 0200FD01#0100000000000000
(1791431226.104425) can1 0200FD02#0100000000000000
(1791431226.104527) can0 020001FD#7FB17F7C7FFF0136
(1791431226.104611) can1 020002FD#7FFE7FD87FFF0140
(1791431226.104892) can0 0200FD02#0100000000000000
(1791431226.105003) can1 0200FD03#0100000000000000
(1791431226.105131) can0 020002FD#7FFF7FCB7FFF014A
(1791431226.105247) can1 020003FD#7FFF7FA17FFF0154
(1791431226.105486) can0 0200FD03#0100000000000000
(1791431226.105613) can1 0200FD04#0100000000000000
(1791431226.105667) can0 020003FD#7FFF80A37FFF014A
(1791431226.105797) can1 020004FD#7FFF7FCE7FFF0140
(1791431226.106122) can0 0200FD04#0100000000000000
(1791431226.106183) can1 0200FD05#0100000000000000
(1791431226.106375) can0 020004FD#7FF77F497FFF012C
(1791431226.106485) can1 020005FD#88E1802B7FFF015E
(1791431226.106767) can0 0200FD05#0100000000000000
(1791431226.106803) can1 0200FD06#0100000000000000
(1791431226.106991) can0 020005FD#7E7C80017FFF015E
(1791431226.107052) can1 020006FD#7FFA7FE07FFF015E
(1791431226.107314) can0 0200FD06#0100000000000000
(1791431226.107424) can1 0200FD07#0100000000000000
(1791431226.107526) can0 020006FD#7FFB7FEC7FFF0154
(1791431226.107613) can1 020007FD#80027FC47FFF0140
(1791431226.107929) can0 0200FD07#0100000000000000
(1791431226.107998) can1 0200FD08#0100000000000000
(1791431226.108111) can0 020007FD#7ADB801F7FFF0140
(1791431226.108147) can1 020008FD#828F7FA77FFF0140
(1791431226.108547) can0 0200FD08#0100000000000000
(1791431226.108649) can0 020008FD#7EBD7FBC7FFF012C
(1791431226.177749) can1 0200FD01#0100000000000000
(1791431226.177926) can1 020001FD#7FFD80277FFF0136
(1791431226.178312) can1 0200FD02#0100000000000000
(1791431226.178490) can0 0200FD01#0100000000000000
(1791431226.178534) can1 020002FD#7FFE7FD87FFF0140
(1791431226.178671) can0 020001FD#7FB17FB27FFF0136
(1791431226.178930) can1 0200FD03#0100000000000000
(1791431226.179064) can0 0200FD02#0100000000000000
(1791431226.179179) can1 020003FD#800081177FFF0154
(1791431226.179371) can0 020002FD#7FFF80557FFF014A
(1791431226.179552) can1 0200FD04#0100000000000000
(1791431226.179677) can0 0200FD03#0100000000000000
(1791431226.179768) can1 020004FD#7FFE7FE77FFF0140
(1791431226.179924) can0 020003FD#7FFF7FF47FFF014A
(1791431226.180132) can1 0200FD05#0100000000000000
(1791431226.180255) can0 0200FD04#0100000000000000
(1791431226.180437) can1 020005FD#88E180077FFF015E
(1791431226.180486) can0 020004FD#7FF87FFB7FFF012C
(1791431226.180770) can1 0200FD06#0100000000000000
(1791431226.180867) can0 0200FD05#0100000000000000
(1791431226.180987) can1 020006FD#7FFA801D7FFF015E
(1791431226.181111) can0 020005FD#7E7C80037FFF015E
(1791431226.181309) can1 0200FD07#0100000000000000
(1791431226.181485) can0 0200FD06#0100000000000000
(1791431226.181535) can1 020007FD#800280287FFF0140
(1791431226.181663) can0 020006FD#7FFB7FE57FFF0154
(1791431226.181919) can1 0200FD08#0100000000000000
(1791431226.182050) can0 0200FD07#0100000000000000
(1791431226.182086) can1 020008FD#828F7FF37FFF0140
(1791431226.182289) can0 020007FD#7ADB7FE27FFF0140
(1791431226.182620) can0 0200FD08#0100000000000000
(1791431226.182775) can0 020008FD#7EBD800A7FFF012C
(1791431226.253426) can1 0200FD01#0100000000000000
(1791431226.253621) can1 020001FD#7FFD7F9D7FFF0136
(1791431226.253690) can0 0200FD01#0100000000000000
(1791431226.253929) can0 020001FD#7FB17FA77FFF0136
(1791431226.253973) can1 0200FD02#0100000000000000
(1791431226.254221) can1 020002FD#7FFE7FF67FFF0140
(1791431226.254256) can0 0200FD02#0100000000000000
(1791431226.254483) can0 020002FD#7FFF803E7FFF014A
(1791431226.254619) can1 0200FD03#0100000000000000
(1791431226.254798) can1 020003FD#7FFF7F8B7FFF0154
(1791431226.254875) can0 0200FD03#0100000000000000
(1791431226.255058) can0 020003FD#7FFF7FD37FFF014A
(1791431226.255186) can1 0200FD04#0100000000000000
(1791431226.255482) can1 020004FD#7FFE802A7FFF0140
(1791431226.255517) can0 0200FD04#0100000000000000
(1791431226.255659) can0 020004FD#7FF8804A7FFF012C
(1791431226.255810) can1 0200FD05#0100000000000000
(1791431226.255992) can1 020005FD#88E27FF47FFF015E
(1791431226.256055) can0 0200FD05#0100000000000000
(1791431226.256306) can0 020005FD#7E7C800F7FFF015E
(1791431226.256427) can1 0200FD06#0100000000000000
(1791431226.256615) can1 020006FD#7FFA7FD27FFF015E
(1791431226.256681) can0 0200FD06#0100000000000000
(1791431226.256866) can0 020006FD#7FFB7FE47FFF0154
(1791431226.257002) can1 0200FD07#0100000000000000
(1791431226.257244) can1 020007FD#800280117FFF0140
(1791431226.257246) can0 0200FD07#0100000000000000
(1791431226.257489) can0 020007FD#7ADB80437FFF0140
(1791431226.257613) can1 0200FD08#0100000000000000
(1791431226.257769) can1 020008FD#828F80227FFF0140
(1791431226.257869) can0 0200FD08#0100000000000000
(1791431226.258020) can0 020008FD#7EBD80487FFF012C
(1791431226.329498) can1 0200FD01#0100000000000000
(1791431226.329601) can1 020001FD#7FFD7F917FFF0136
(1791431226.329820) can0 0200FD01#0100000000000000
(1791431226.330051) can1 0200FD02#0100000000000000
(1791431226.330088) can0 020001FD#7FB17FA87FFF0136
(1791431226.330240) can1 020002FD#7FFD7FE47FFF0140
(1791431226.330437) can0 0200FD02#0100000000000000
(1791431226.330622) can0 020002FD#7FFF80357FFF014A
(1791431226.330658) can1 0200FD03#0100000000000000
(1791431226.330804) can1 020003FD#7FFF7F417FFF0154
(1791431226.331010) can0 0200FD03#0100000000000000
(1791431226.331195) can1 0200FD04#0100000000000000
(1791431226.331250) can0 020003FD#7FFF80177FFF014A
(1791431226.331493) can1 020004FD#7FFE7F627FFF0140
(1791431226.331618) can0 0200FD04#0100000000000000
(1791431226.331803) can0 020004FD#7FF880A27FFF012C
(1791431226.331838) can1 0200FD05#0100000000000000
(1791431226.332056) can1 020005FD#88E17FF67FFF015E
(1791431226.332190) can0 0200FD05#0100000000000000
(1791431226.332434) can1 0200FD06#0100000000000000
(1791431226.332489) can0 020005FD#7E7C801B7FFF015E
(1791431226.332619) can1 020006FD#7FFA801C7FFF015E
(1791431226.332812) can0 0200FD06#0100000000000000
(1791431226.333007) can1 0200FD07#0100000000000000
(1791431226.333057) can0 020006FD#7FFB7FDD7FFF0154
(1791431226.333249) can1 020007FD#80027FCE7FFF0140
(1791431226.333422) can0 0200FD07#0100000000000000
(1791431226.333615) can0 020007FD#7ADB7FEC7FFF0140
(1791431226.333651) can1 0200FD08#0100000000000000
(1791431226.333728) can1 020008FD#828F7FEC7FFF0140
(1791431226.334038) can0 0200FD08#0100000000000000
(1791431226.334130) can0 020008FD#7EBD80207FFF012C
(1791431226.408749) can1 0200FD01#0100000000000000
(1791431226.408996) can1 020001FD#7FFE805D7FFF0136
(1791431226.409436) can1 0200FD02#0100000000000000
(1791431226.409543) can1 020002FD#7FFE803A7FFF0140
(1791431226.409624) can0 0200FD01#0100000000000000
(1791431226.409804) can0 020001FD#7FB180347FFF0136
(1791431226.409997) can1 0200FD03#0100000000000000
(1791431226.410167) can1 020003FD#8000802C7FFF0154
(1791431226.410202) can0 0200FD02#0100000000000000
(1791431226.410494) can0 020002FD#7FFF7F797FFF014A
(1791431226.410629) can1 0200FD04#0100000000000000
(1791431226.410804) can1 020004FD#7FFE7FBA7FFF0140
(1791431226.410840) can0 0200FD03#0100000000000000
(1791431226.411000) can0 020003FD#7FFF7FDC7FFF014A
(1791431226.411196) can1 0200FD05#0100000000000000
(1791431226.411440) can0 0200FD04#0100000000000000
(1791431226.411494) can1 020005FD#88E1801A7FFF015E
(1791431226.411633) can0 020004FD#7FF8802E7FFF012C
(1791431226.411815) can1 0200FD06#0100000000000000
(1791431226.411993) can1 020006FD#7FFA7FF87FFF015E
(1791431226.412029) can0 0200FD05#0100000000000000
(1791431226.412244) can0 020005FD#7E7C7FC67FFF015E
(1791431226.412431) can1 0200FD07#0100000000000000
(1791431226.412626) can1 020007FD#80027FCD7FFF0140
(1791431226.412631) can0 0200FD06#0100000000000000
(1791431226.412803) can0 020006FD#7FFB7FE87FFF0154
(1791431226.412993) can1 0200FD08#0100000000000000
(1791431226.413130) can1 020008FD#828F800B7FFF0140
(1791431226.413183) can0 0200FD07#0100000000000000
(1791431226.413495) can0 020007FD#7ADB7FED7FFF0140
(1791431226.413809) can0 0200FD08#0100000000000000
(1791431226.413955) can0 020008FD#7EBD802D7FFF012C
(1791431226.482880) can1 0200FD01#0100000000000000
(1791431226.483124) can1 020001FD#7FFD7FD37FFF0136
(1791431226.483177) can0 0200FD01#0100000000000000
(1791431226.483498) can1 0200FD02#0100000000000000
(1791431226.483499) can0 020001FD#7FB180547FFF0136
(1791431226.483674) can1 020002FD#7FFE80017FFF0140
(1791431226.483822) can0 0200FD02#0100000000000000
(1791431226.484068) can1 0200FD03#0100000000000000
(1791431226.484070) can0 020002FD#7FFF80297FFF014A
(1791431226.484307) can1 020003FD#7FFF7FA37FFF0154
(1791431226.484431) can0 0200FD03#0100000000000000
(1791431226.484624) can0 020003FD#7FFF80257FFF014A
(1791431226.484690) can1 0200FD04#0100000000000000
(1791431226.484940) can1 020004FD#7FFF80617FFF0140
(1791431226.485003) can0 0200FD04#0100000000000000
(1791431226.485247) can0 020004FD#7FF880297FFF012C
(1791431226.485286) can1 0200FD05#0100000000000000
(1791431226.485516) can1 020005FD#88E2801B7FFF015E
(1791431226.485628) can0 0200FD05#0100000000000000
(1791431226.485809) can0 020005FD#7E7C80157FFF015E
(1791431226.485880) can1 0200FD06#0100000000000000
(1791431226.486059) can1 020006FD#7FFA80027FFF015E
(1791431226.486201) can0 0200FD06#0100000000000000
(1791431226.486495) can1 0200FD07#0100000000000000
(1791431226.486496) can0 020006FD#7FFB7FFB7FFF0154
(1791431226.486670) can1 020007FD#800280057FFF0140
(1791431226.486805) can0 0200FD07#0100000000000000
(1791431226.487055) can0 020007FD#7ADB80207FFF0140
(1791431226.487090) can1 0200FD08#0100000000000000
(1791431226.487224) can1 020008FD#828F80327FFF0140
(1791431226.487435) can0 0200FD08#0100000000000000
(1791431226.487522) can0 020008FD#7EBD7FDB7FFF012C
(1791431226.562437) can1 0200FD01#0100000000000000
(1791431226.562632) can1 020001FD#7FFD7FC67FFF0136
(1791431226.562704) can0 0200FD01#0100000000000000
(1791431226.562874) can0 020001FD#7FB17F6A7FFF0136
(1791431226.563007) can1 0200FD02#0100000000000000
(1791431226.563193) can1 020002FD#7FFE80357FFF0140
(1791431226.563265) can0 0200FD02#0100000000000000
(1791431226.563488) can0 020002FD#7FFE80067FFF014A
(1791431226.563629) can1 0200FD03#0100000000000000
(1791431226.563808) can1 020003FD#7FFF7FFD7FFF0154
(1791431226.563891) can0 0200FD03#0100000000000000
(1791431226.564145) can0 020003FD#7FFF7FE07FFF014A
(1791431226.564195) can1 0200FD04#0100000000000000
(1791431226.564498) can1 020004FD#7FFF7F9D7FFF0140
(1791431226.564501) can0 0200FD04#0100000000000000
(1791431226.564675) can0 020004FD#7FF87FDB7FFF012C
(1791431226.564828) can1 0200FD05#0100000000000000
(1791431226.565000) can1 020005FD#88E280287FFF015E
(1791431226.565060) can0 0200FD05#0100000000000000
(1791431226.565304) can0 020005FD#7E7C80167FFF015E
(1791431226.565446) can1 0200FD06#0100000000000000
(1791431226.565631) can1 020006FD#7FFA7FFC7FFF015E
(1791431226.565666) can0 0200FD06#0100000000000000
(1791431226.565810) can0 020006FD#7FFB7FF57FFF0154
(1791431226.566019) can1 0200FD07#0100000000000000
(1791431226.566204) can0 0200FD07#0100000000000000
(1791431226.566259) can1 020007FD#80027FDB7FFF0140
(1791431226.566485) can0 020007FD#7ADB7FA77FFF0140
(1791431226.566633) can1 0200FD08#0100000000000000
(1791431226.566734) can1 020008FD#828F800B7FFF0140
(1791431226.566819) can0 0200FD08#0100000000000000
(1791431226.566962) can0 020008FD#7EBD801A7FFF012C
(1791431226.638506) can1 0200FD01#0100000000000000
(1791431226.638636) can1 020001FD#7FFD80537FFF0136
(1791431226.638828) can0 0200FD01#0100000000000000
(1791431226.639076) can1 0200FD02#0100000000000000
(1791431226.639078) can0 020001FD#7FB1800B7FFF0136
(1791431226.639317) can1 020002FD#7FFE800A7FFF0140
(1791431226.639444) can0 0200FD02#0100000000000000
(1791431226.639637) can0 020002FD#7FFF804A7FFF014A
(1791431226.639700) can1 0200FD03#0100000000000000
(1791431226.639947) can1 020003FD#7FFF7F527FFF0154
(1791431226.640017) can0 0200FD03#0100000000000000
(1791431226.640259) can0 020003FD#7FFF7FF97FFF014A
(1791431226.640294) can1 0200FD04#0100000000000000
(1791431226.640501) can1 020004FD#7FFE80067FFF0140
(1791431226.640634) can0 0200FD04#0100000000000000
(1791431226.640817) can0 020004FD#7FF880957FFF012C
(1791431226.640887) can1 0200FD05#0100000000000000
(1791431226.641069) can1 020005FD#88E17FED7FFF015E
(1791431226.641206) can0 0200FD05#0100000000000000
(1791431226.641488) can0 020005FD#7E7C800A7FFF015E
(1791431226.641525) can1 0200FD06#0100000000000000
(1791431226.641687) can1 020006FD#7FFA80067FFF015E
(1791431226.641811) can0 0200FD06#0100000000000000
(1791431226.642049) can0 020006FD#7FFB80007FFF0154
(1791431226.642084) can1 0200FD07#0100000000000000
(1791431226.642307) can1 020007FD#8002801C7FFF0140
(1791431226.642441) can0 0200FD07#0100000000000000
(1791431226.642631) can0 020007FD#7ADB80197FFF0140
(1791431226.642698) can1 0200FD08#0100000000000000
(1791431226.642878) can1 020008FD#828F80047FFF0140
(1791431226.643002) can0 0200FD08#0100000000000000
(1791431226.643157) can0 020008FD#7EBD802E7FFF012C
(1791431226.720822) can1 0200FD01#0100000000000000
(1791431226.721059) can1 020001FD#7FFD806E7FFF0136
(1791431226.721433) can1 0200FD02#0100000000000000
(1791431226.721609) can1 020002FD#7FFE802B7FFF0140
(1791431226.721789) can0 0200FD01#0100000000000000
(1791431226.721992) can1 0200FD03#0100000000000000
(1791431226.722029) can0 020001FD#7FB17FD87FFF0136
(1791431226.722242) can1 020003FD#7FFF80F57FFF0154
(1791431226.722336) can0 0200FD02#0100000000000000
(1791431226.722555) can0 020002FD#7FFF803D7FFF014A
(1791431226.722632) can1 0200FD04#0100000000000000
(1791431226.722814) can1 020004FD#7FFF804A7FFF0140
(1791431226.723017) can0 0200FD03#0100000000000000
(1791431226.723184) can0 020003FD#7FFF80BC7FFF014A
(1791431226.723215) can1 0200FD05#0100000000000000
(1791431226.723512) can1 020005FD#88E280477FFF015E
(1791431226.723640) can0 0200FD04#0100000000000000
(1791431226.723818) can0 020004FD#7FF87FEF7FFF012C
(1791431226.723852) can1 0200FD06#0100000000000000
(1791431226.724018) can1 020006FD#7FFB80267FFF015E
(1791431226.724204) can0 0200FD05#0100000000000000
(1791431226.724454) can1 0200FD07#0100000000000000
(1791431226.724502) can0 020005FD#7E7C80267FFF015E
(1791431226.724644) can1 020007FD#800280007FFF0140
(1791431226.724797) can0 0200FD06#0100000000000000
(1791431226.725028) can1 0200FD08#0100000000000000
(1791431226.725064) can0 020006FD#7FFB7FE27FFF0154
(1791431226.725158) can1 020008FD#828F7FFD7FFF0140
(1791431226.725449) can0 0200FD07#0100000000000000
(1791431226.725551) can0 020007FD#7ADB7FEE7FFF0140
(1791431226.725979) can0 0200FD08#0100000000000000
(1791431226.726131) can0 020008FD#7EBD7FF67FFF012C
(1791431226.828517) can1 0200FD01#0100000000000000
(1791431226.828699) can1 020001FD#7FFD808D7FFF0136
(1791431226.829080) can1 0200FD02#0100000000000000
(1791431226.829109) can0 0200FD01#0100000000000000
(1791431226.829277) can0 020001FD#7FB180CF7FFF0136
(1791431226.829313) can1 020002FD#7FFD80907FFF0140
(1791431226.829710) can0 0200FD02#0100000000000000
(1791431226.829712) can1 0200FD03#0100000000000000
(1791431226.829953) can1 020003FD#7FFF7F1A7FFF0154
(1791431226.829988) can0 020002FD#7FFF805F7FFF014A
(1791431226.830277) can1 0200FD04#0100000000000000
(1791431226.830278) can0 0200FD03#0100000000000000
(1791431226.830501) can1 020004FD#7FFE7FAA7FFF0140
(1791431226.830532) can0 020003FD#7FFF800A7FFF014A
(1791431226.830888) can1 0200FD05#0100000000000000
(1791431226.830923) can0 0200FD04#0100000000000000
(1791431226.831067) can1 020005FD#88E180097FFF015E
(1791431226.831144) can0 020004FD#7FF87FB07FFF012C
(1791431226.831516) can1 0200FD06#0100000000000000
(1791431226.831516) can0 0200FD05#0100000000000000
(1791431226.831696) can1 020006FD#7FFA80227FFF015E
(1791431226.831731) can0 020005FD#7E7C80037FFF015E
(1791431226.832131) can1 0200FD07#0100000000000000
(1791431226.832134) can0 0200FD06#0100000000000000
(1791431226.832331) can1 020007FD#80027FE67FFF0140
(1791431226.832398) can0 020006FD#7FFB7FF97FFF0154
(1791431226.832711) can1 0200FD08#0100000000000000
(1791431226.832713) can0 0200FD07#0100000000000000
(1791431226.832888) can1 020008FD#828F7FC47FFF0140
(1791431226.832954) can0 020007FD#7ADB802E7FFF0140
(1791431226.833258) can0 0200FD08#0100000000000000
(1791431226.833454) can0 020008FD#7EBD7FE47FFF012C
(1791431226.911099) can1 0200FD01#0100000000000000
(1791431226.911409) can1 020001FD#7FFE7FB87FFF0136
(1791431226.911582) can0 0200FD01#0100000000000000
(1791431226.911714) can1 0200FD02#0100000000000000
(1791431226.911799) can0 020001FD#7FB1804C7FFF0136
(1791431226.911960) can1 020002FD#7FFE800B7FFF0140
(1791431226.912155) can0 0200FD02#0100000000000000
(1791431226.912288) can1 0200FD03#0100000000000000
(1791431226.912454) can0 020002FD#7FFF7FA37FFF014A
(1791431226.912513) can1 020003FD#7FFF7FFA7FFF0154
(1791431226.912798) can0 0200FD03#0100000000000000
(1791431226.912869) can1 0200FD04#0100000000000000
(1791431226.913021) can0 020003FD#7FFF7F737FFF014A
(1791431226.913122) can1 020004FD#7FFF80A27FFF0140
(1791431226.913348) can0 0200FD04#0100000000000000
(1791431226.913453) can1 0200FD05#0100000000000000
(1791431226.913565) can0 020004FD#7FF87F827FFF012C
(1791431226.913698) can1 020005FD#88E17FCB7FFF015E
(1791431226.913950) can0 0200FD05#0100000000000000
(1791431226.914022) can1 0200FD06#0100000000000000
(1791431226.914196) can0 020005FD#7E7C7FF17FFF015E
(1791431226.914232) can1 020006FD#7FFA80117FFF015E
(1791431226.914591) can0 0200FD06#0100000000000000
(1791431226.914654) can1 0200FD07#0100000000000000
(1791431226.914802) can0 020006FD#7FFB80107FFF0154
(1791431226.914844) can1 020007FD#800280267FFF0140
(1791431226.915219) can0 0200FD07#0100000000000000
(1791431226.915252) can1 0200FD08#0100000000000000
(1791431226.915401) can1 020008FD#828F805A7FFF0140
(1791431226.915454) can0 020007FD#7ADB7FD07FFF0140
(1791431226.915850) can0 0200FD08#0100000000000000
(1791431226.915979) can0 020008FD#7EBD7FF27FFF012C
(1791431226.988989) can1 0200FD01#0100000000000000
(1791431226.989178) can1 020001FD#7FFD7FC57FFF0136
(1791431226.989315) can0 0200FD01#0100000000000000
(1791431226.989573) can0 020001FD#7FB17FF37FFF0136
(1791431226.989601) can1 0200FD02#0100000000000000
(1791431226.989788) can1 020002FD#7FFE80437FFF0140
(1791431226.989873) can0 0200FD02#0100000000000000
(1791431226.990119) can0 020002FD#7FFE7F917FFF014A
(1791431226.990156) can1 0200FD03#0100000000000000
(1791431226.990457) can0 0200FD03#0100000000000000
(1791431226.990463) can1 020003FD#800080737FFF0154
(1791431226.990722) can0 020003FD#7FFF80267FFF014A
(1791431226.990801) can1 0200FD04#0100000000000000
(1791431226.991019) can1 020004FD#7FFF807A7FFF0140
(1791431226.991054) can0 0200FD04#0100000000000000
(1791431226.991207) can0 020004FD#7FF8808C7FFF012C
(1791431226.991348) can1 0200FD05#0100000000000000
(1791431226.991566) can1 020005FD#88E17FE97FFF015E
(1791431226.991647) can0 0200FD05#0100000000000000
(1791431226.991827) can0 020005FD#7E7C80297FFF015E
(1791431226.991963) can1 0200FD06#0100000000000000
(1791431226.992148) can1 020006FD#7FFA7FDA7FFF015E
(1791431226.992215) can0 0200FD06#0100000000000000
(1791431226.992505) can0 020006FD#7FFB80017FFF0154
(1791431226.992589) can1 0200FD07#0100000000000000
(1791431226.992776) can1 020007FD#800280277FFF0140
(1791431226.992842) can0 0200FD07#0100000000000000
(1791431226.993089) can0 020007FD#7ADB7FD07FFF0140
(1791431226.993156) can1 0200FD08#0100000000000000
(1791431226.993311) can1 020008FD#828F805B7FFF0140
(1791431226.993465) can0 0200FD08#0100000000000000
(1791431226.993558) can0 020008FD#7EBD80377FFF012C
(1791431227.067467) can1 0200FD01#0100000000000000
(1791431227.067652) can1 020001FD#7FFD80087FFF0136
(1791431227.068005) can1 0200FD02#0100000000000000
(1791431227.068054) can0 0200FD01#0100000000000000
(1791431227.068267) can1 020002FD#7FFE807D7FFF0140
(1791431227.068303) can0 020001FD#7FB17F967FFF0136
(1791431227.068600) can1 0200FD03#0100000000000000
(1791431227.068654) can0 0200FD02#0100000000000000
(1791431227.068775) can1 020003FD#8000809E7FFF0154
(1791431227.068831) can0 020002FD#7FFF80067FFF014A
(1791431227.069169) can1 0200FD04#0100000000000000
(1791431227.069222) can0 0200FD03#0100000000000000
(1791431227.069461) can1 020004FD#7FFE7F677FFF0140
(1791431227.069520) can0 020003FD#7FFF80427FFF014A
(1791431227.069804) can1 0200FD05#0100000000000000
(1791431227.069845) can0 0200FD04#0100000000000000
(1791431227.070026) can1 020005FD#88E17FF27FFF015E
(1791431227.070087) can0 020004FD#7FF880787FFF012C
(1791431227.070345) can1 0200FD06#0100000000000000
(1791431227.070459) can0 0200FD05#0100000000000000
(1791431227.070565) can1 020006FD#7FFA7FED7FFF015E
(1791431227.070648) can0 020005FD#7E7C80357FFF015E
(1791431227.070949) can1 0200FD07#0100000000000000
(1791431227.071039) can0 0200FD06#0100000000000000
(1791431227.071200) can1 020007FD#80027FDA7FFF0140
(1791431227.071274) can0 020006FD#7FFB80017FFF0154
(1791431227.071589) can1 0200FD08#0100000000000000
(1791431227.071649) can0 0200FD07#0100000000000000
(1791431227.071690) can1 020008FD#828F7FDA7FFF0140
(1791431227.071835) can0 020007FD#7ADB80087FFF0140
(1791431227.072218) can0 0200FD08#0100000000000000
(1791431227.072415) can0 020008FD#7EBD7FDE7FFF012C
(1791431227.146593) can1 0200FD01#0100000000000000
(1791431227.146809) can1 020001FD#7FFD80297FFF0136
(1791431227.146990) can0 0200FD01#0100000000000000
(1791431227.147154) can1 0200FD02#0100000000000000
(1791431227.147231) can0 020001FD#7FB180557FFF0136
(1791431227.147464) can1 020002FD#7FFE80917FFF0140
(1791431227.147594) can0 0200FD02#0100000000000000
(1791431227.147809) can0 020002FD#7FFF7FB77FFF014A
(1791431227.147812) can1 0200FD03#0100000000000000
(1791431227.148038) can1 020003FD#7FFF7FCA7FFF0154
(1791431227.148160) can0 0200FD03#0100000000000000
(1791431227.148348) can1 0200FD04#0100000000000000
(1791431227.148481) can0 020003FD#7FFF80577FFF014A
(1791431227.148567) can1 020004FD#7FFF7FC67FFF0140
(1791431227.148809) can0 0200FD04#0100000000000000
(1791431227.148949) can1 0200FD05#0100000000000000
(1791431227.149031) can0 020004FD#7FF87F917FFF012C
(1791431227.149200) can1 020005FD#88E27FFC7FFF015E
(1791431227.149355) can0 0200FD05#0100000000000000
(1791431227.149528) can1 0200FD06#0100000000000000
(1791431227.149568) can0 020005FD#7E7C7FDE7FFF015E
(1791431227.149699) can1 020006FD#7FFA800C7FFF015E
(1791431227.149970) can0 0200FD06#0100000000000000
(1791431227.150095) can1 0200FD07#0100000000000000
(1791431227.150152) can0 020006FD#7FFB801A7FFF0154
(1791431227.150347) can1 020007FD#8002800F7FFF0140
(1791431227.150591) can0 0200FD07#0100000000000000
(1791431227.150720) can1 0200FD08#0100000000000000
(1791431227.150807) can0 020007FD#7ADB7FEC7FFF0140
(1791431227.150869) can1 020008FD#828F80027FFF0140
(1791431227.151151) can0 0200FD08#0100000000000000
(1791431227.151308) can0 020008FD#7EBD800D7FFF012C
(1791431227.228521) can1 0200FD01#0100000000000000
(1791431227.228641) can1 020001FD#7FFD7FEB7FFF0136
(1791431227.229005) can0 0200FD01#0100000000000000
(1791431227.229089) can1 0200FD02#0100000000000000
(1791431227.229256) can0 020001FD#7FB180117FFF0136
(1791431227.229328) can1 020002FD#7FFE80537FFF0140
(1791431227.229605) can0 0200FD02#0100000000000000
(1791431227.229662) can1 0200FD03#0100000000000000
(1791431227.229788) can0 020002FD#7FFF7FE07FFF014A
(1791431227.229903) can1 020003FD#7FFF7F5B7FFF0154
(1791431227.230169) can0 0200FD03#0100000000000000
(1791431227.230227) can1 0200FD04#0100000000000000
(1791431227.230472) can0 020003FD#7FFF801F7FFF014A
(1791431227.230533) can1 020004FD#7FFE7FC97FFF0140
(1791431227.230801) can0 0200FD04#0100000000000000
(1791431227.230851) can1 0200FD05#0100000000000000
(1791431227.231045) can0 020004FD#7FF87FBE7FFF012C
(1791431227.231089) can1 020005FD#88E17FD77FFF015E
(1791431227.231358) can0 0200FD05#0100000000000000
(1791431227.231471) can1 0200FD06#0100000000000000
(1791431227.231579) can0 020005FD#7E7C802E7FFF015E
(1791431227.231639) can1 020006FD#7FFA7FE07FFF015E
(1791431227.231965) can0 0200FD06#0100000000000000
(1791431227.232053) can1 0200FD07#0100000000000000
(1791431227.232168) can0 020006FD#7FFB7FEE7FFF0154
(1791431227.232221) can1 020007FD#80027FED7FFF0140
(1791431227.232548) can0 0200FD07#0100000000000000
(1791431227.232677) can1 0200FD08#0100000000000000
(1791431227.232767) can1 020008FD#828F7FC17FFF0140
(1791431227.232810) can0 020007FD#7ADB7FA57FFF0140
(1791431227.233102) can0 0200FD08#0100000000000000
(1791431227.233260) can0 020008FD#7EBD7FE07FFF012C
(1791431227.308925) can1 0200FD01#0100000000000000
(1791431227.309143) can0 0200FD01#0100000000000000
(1791431227.309178) can1 020001FD#7FFD7FC17FFF0136
(1791431227.309420) can0 020001FD#7FB17FC57FFF0136
(1791431227.309543) can1 0200FD02#0100000000000000
(1791431227.309719) can1 020002FD#7FFD80757FFF0140
(1791431227.309754) can0 0200FD02#0100000000000000
(1791431227.309977) can0 020002FD#7FFF80297FFF014A
(1791431227.310104) can1 0200FD03#0100000000000000
(1791431227.310296) can0 0200FD03#0100000000000000
(1791431227.310348) can1 020003FD#7FFF80117FFF0154
(1791431227.310521) can0 020003FD#7FFF7FA67FFF014A
(1791431227.310727) can1 0200FD04#0100000000000000
(1791431227.310915) can0 0200FD04#0100000000000000
(1791431227.310969) can1 020004FD#7FFF80787FFF0140
(1791431227.311157) can0 020004FD#7FF880467FFF012C
(1791431227.311296) can1 0200FD05#0100000000000000
(1791431227.311513) can1 020005FD#88E2800D7FFF015E
(1791431227.311548) can0 0200FD05#0100000000000000
(1791431227.311705) can0 020005FD#7E7C801D7FFF015E
(1791431227.311915) can1 0200FD06#0100000000000000
(1791431227.312094) can1 020006FD#7FFA80077FFF015E
(1791431227.312129) can0 0200FD06#0100000000000000
(1791431227.312344) can0 020006FD#7FFB800A7FFF0154
(1791431227.312536) can1 0200FD07#0100000000000000
(1791431227.312720) can1 020007FD#80027FDA7FFF0140
(1791431227.312756) can0 0200FD07#0100000000000000
(1791431227.312977) can0 020007FD#7ADB80277FFF0140
(1791431227.313112) can1 0200FD08#0100000000000000
(1791431227.313265) can1 020008FD#828F801E7FFF0140
(1791431227.313301) can0 0200FD08#0100000000000000
(1791431227.313473) can0 020008FD#7EBD801F7FFF012C
(1791431227.379682) can1 0200FD01#0100000000000000
(1791431227.379821) can1 020001FD#7FFD7F577FFF0136
(1791431227.380239) can1 0200FD02#0100000000000000
(1791431227.380532) can1 020002FD#7FFE7FE17FFF0140
(1791431227.380817) can0 0200FD01#0100000000000000
(1791431227.380852) can1 0200FD03#0100000000000000
(1791431227.381039) can1 020003FD#7FFF80247FFF0154
(1791431227.381046) can0 020001FD#7FB17FD37FFF0136
(1791431227.381361) can0 0200FD02#0100000000000000
(1791431227.381469) can1 0200FD04#0100000000000000
(1791431227.381578) can0 020002FD#7FFF804E7FFF014A
(1791431227.381665) can1 020004FD#7FFF80047FFF0140
(1791431227.381980) can0 0200FD03#0100000000000000
(1791431227.382050) can1 0200FD05#0100000000000000
(1791431227.382214) can0 020003FD#7FFF80457FFF014A
(1791431227.382292) can1 020005FD#88E17FCC7FFF015E
(1791431227.382616) can0 0200FD04#0100000000000000
(1791431227.382682) can1 0200FD06#0100000000000000
(1791431227.382789) can0 020004FD#7FF8800A7FFF012C
(1791431227.382857) can1 020006FD#7FFA803B7FFF015E
(1791431227.383184) can0 0200FD05#0100000000000000
(1791431227.383244) can1 0200FD07#0100000000000000
(1791431227.383481) can0 020005FD#7E7C801F7FFF015E
(1791431227.383521) can1 020007FD#800280277FFF0140
(1791431227.383822) can0 0200FD06#0100000000000000
(1791431227.383861) can1 0200FD08#0100000000000000
(1791431227.384015) can1 020008FD#828F7FFB7FFF0140
(1791431227.384054) can0 020006FD#7FFB800B7FFF0154
(1791431227.384346) can0 0200FD07#0100000000000000
(1791431227.384588) can0 020007FD#7ADB7FDC7FFF0140
(1791431227.384970) can0 0200FD08#0100000000000000
(1791431227.385111) can0 020008FD#7EBD803F7FFF012C
(1791431227.460854) can1 0200FD01#0100000000000000
(1791431227.461097) can1 020001FD#7FFE80027FFF0136
(1791431227.461371) can0 0200FD01#0100000000000000
(1791431227.461466) can1 0200FD02#0100000000000000
(1791431227.461582) can0 020001FD#7FB1802C7FFF0136
(1791431227.461642) can1 020002FD#7FFD7FB27FFF0140
(1791431227.461968) can0 0200FD02#0100000000000000
(1791431227.462021) can1 0200FD03#0100000000000000
(1791431227.462164) can0 020002FD#7FFF7FEC7FFF014A
(1791431227.462269) can1 020003FD#7FFF7FE17FFF0154
(1791431227.462600) can1 0200FD04#0100000000000000
(1791431227.462600) can0 0200FD03#0100000000000000
(1791431227.462789) can0 020003FD#7FFF7F2F7FFF014A
(1791431227.462820) can1 020004FD#7FFF81317FFF0140
(1791431227.463170) can1 0200FD05#0100000000000000
(1791431227.463206) can0 0200FD04#0100000000000000
(1791431227.463347) can1 020005FD#88E1800C7FFF015E
(1791431227.463478) can0 020004FD#7FF87FCC7FFF012C
(1791431227.463796) can1 0200FD06#0100000000000000
(1791431227.463824) can0 0200FD05#0100000000000000
(1791431227.464039) can0 020005FD#7E7C800D7FFF015E
(1791431227.464073) can1 020006FD#7FFA800C7FFF015E
(1791431227.464362) can1 0200FD07#0100000000000000
(1791431227.464363) can0 0200FD06#0100000000000000
(1791431227.464585) can1 020007FD#80027FFE7FFF0140
(1791431227.464620) can0 020006FD#7FFB7FE47FFF0154
(1791431227.464970) can1 0200FD08#0100000000000000
(1791431227.465004) can0 0200FD07#0100000000000000
(1791431227.465124) can1 020008FD#828F800E7FFF0140
(1791431227.465218) can0 020007FD#7ADB80217FFF0140
(1791431227.465607) can0 0200FD08#0100000000000000
(1791431227.465683) can0 020008FD#7EBD80187FFF012C
(1791431227.540864) can1 0200FD01#0100000000000000
(1791431227.541109) can1 020001FD#7FFD7FC17FFF0136
(1791431227.541148) can0 0200FD01#0100000000000000
(1791431227.541331) can0 020001FD#7FB180707FFF0136
(1791431227.541485) can1 0200FD02#0100000000000000
(1791431227.541668) can1 020002FD#7FFE800E7FFF0140
(1791431227.541744) can0 0200FD02#0100000000000000
(1791431227.541990) can0 020002FD#7FFF7FC07FFF014A
(1791431227.542058) can1 0200FD03#0100000000000000
(1791431227.542305) can1 020003FD#7FFF80607FFF0154
(1791431227.542308) can0 0200FD03#0100000000000000
(1791431227.542539) can0 020003FD#7FFF80437FFF014A
(1791431227.542670) can1 0200FD04#0100000000000000
(1791431227.542847) can1 020004FD#7FFF7F7C7FFF0140
(1791431227.542927) can0 0200FD04#0100000000000000
(1791431227.543108) can0 020004FD#7FF880077FFF012C
(1791431227.543235) can1 0200FD05#0100000000000000
(1791431227.543539) can1 020005FD#88E280037FFF015E
(1791431227.543541) can0 0200FD05#0100000000000000
(1791431227.543718) can0 020005FD#7E7C80307FFF015E
(1791431227.543864) can1 0200FD06#0100000000000000
(1791431227.544107) can1 020006FD#7FFA7FB67FFF015E
(1791431227.544143) can0 0200FD06#0100000000000000
(1791431227.544357) can0 020006FD#7FFB7FEA7FFF0154
(1791431227.544481) can1 0200FD07#0100000000000000
(1791431227.544672) can1 020007FD#800280137FFF0140
(1791431227.544740) can0 0200FD07#0100000000000000
(1791431227.544913) can0 020007FD#7ADB80267FFF0140
(1791431227.545058) can1 0200FD08#0100000000000000
(1791431227.545198) can1 020008FD#828F80397FFF0140
(1791431227.545298) can0 0200FD08#0100000000000000
(1791431227.545482) can0 020008FD#7EBD7F677FFF012C
(1791431227.616549) can1 0200FD01#0100000000000000
(1791431227.616724) can1 020001FD#7FFD80167FFF0136
(1791431227.616960) can0 0200FD01#0100000000000000
(1791431227.617108) can1 0200FD02#0100000000000000
(1791431227.617201) can0 020001FD#7FB17F6C7FFF0136
(1791431227.617352) can1 020002FD#7FFE7F947FFF0140
(1791431227.617547) can0 0200FD02#0100000000000000
(1791431227.617722) can0 020002FD#7FFF7FF17FFF014A
(1791431227.617756) can1 0200FD03#0100000000000000
(1791431227.617979) can1 020003FD#800081097FFF0154
(1791431227.618118) can0 0200FD03#0100000000000000
(1791431227.618311) can1 0200FD04#0100000000000000
(1791431227.618363) can0 020003FD#7FFF80247FFF014A
(1791431227.618543) can1 020004FD#7FFF7FDA7FFF0140
(1791431227.618752) can0 0200FD04#0100000000000000
(1791431227.618932) can1 0200FD05#0100000000000000
(1791431227.618993) can0 020004FD#7FF87F117FFF012C
(1791431227.619104) can1 020005FD#88E27FEC7FFF015E
(1791431227.619309) can0 0200FD05#0100000000000000
(1791431227.619544) can1 0200FD06#0100000000000000
(1791431227.619545) can0 020005FD#7E7C7FE47FFF015E
(1791431227.619716) can1 020006FD#7FFA7FE47FFF015E
(1791431227.619932) can0 0200FD06#0100000000000000
(1791431227.620113) can1 0200FD07#0100000000000000
(1791431227.620176) can0 020006FD#7FFB802F7FFF0154
(1791431227.620354) can1 020007FD#800280337FFF0140
(1791431227.620547) can0 0200FD07#0100000000000000
(1791431227.620729) can0 020007FD#7ADB7FEC7FFF0140
(1791431227.620773) can1 0200FD08#0100000000000000
(1791431227.620919) can1 020008FD#828F7FAD7FFF0140
(1791431227.621115) can0 0200FD08#0100000000000000
(1791431227.621271) can0 020008FD#7EBD7FE37FFF012C
(1791431227.703138) can1 0200FD01#0100000000000000
(1791431227.703446) can1 020001FD#7FFD80367FFF0136
(1791431227.703746) can1 0200FD02#0100000000000000
(1791431227.703815) can0 0200FD01#0100000000000000
(1791431227.703992) can1 020002FD#7FFE80587FFF0140
(1791431227.704052) can0 020001FD#7FB180157FFF0136
(1791431227.704311) can1 0200FD03#0100000000000000
(1791431227.704375) can0 0200FD02#0100000000000000
(1791431227.704552) can1 020003FD#7FFF807F7FFF0154
(1791431227.704596) can0 020002FD#7FFE801B7FFF014A
(1791431227.704970) can1 0200FD04#0100000000000000
(1791431227.704980) can0 0200FD03#0100000000000000
(1791431227.705175) can1 020004FD#7FFE801C7FFF0140
(1791431227.705240) can0 020003FD#7FFF7FA17FFF014A
(1791431227.705568) can1 0200FD05#0100000000000000
(1791431227.705739) can1 020005FD#88E17FF07FFF015E
(1791431227.705627) can0 0200FD04#0100000000000000
(1791431227.705831) can0 020004FD#7FF880207FFF012C
(1791431227.706130) can1 0200FD06#0100000000000000
(1791431227.706182) can0 0200FD05#0100000000000000
(1791431227.706441) can1 020006FD#7FFA7FD77FFF015E
(1791431227.706485) can0 020005FD#7E7C7FC57FFF015E
(1791431227.706739) can1 0200FD07#0100000000000000
(1791431227.706833) can0 0200FD06#0100000000000000
(1791431227.706980) can1 020007FD#800280087FFF0140
(1791431227.707046) can0 020006FD#7FFB800A7FFF0154
(1791431227.707306) can1 0200FD08#0100000000000000
(1791431227.707366) can0 0200FD07#0100000000000000
(1791431227.707511) can1 020008FD#828F80017FFF0140
(1791431227.707596) can0 020007FD#7ADB80067FFF0140
(1791431227.707975) can0 0200FD08#0100000000000000
(1791431227.708107) can0 020008FD#7EBD80307FFF012C
(1791431227.785682) can1 0200FD01#0100000000000000
(1791431227.785857) can1 020001FD#7FFD7F8E7FFF0136
(1791431227.786125) can0 0200FD01#0100000000000000
(1791431227.786262) can1 0200FD02#0100000000000000
(1791431227.786306) can0 020001FD#7FB180117FFF0136
(1791431227.786494) can1 020002FD#7FFE7FE47FFF0140
(1791431227.786749) can0 0200FD02#0100000000000000
(1791431227.786873) can1 0200FD03#0100000000000000
(1791431227.787001) can0 020002FD#7FFE80397FFF014A
(1791431227.787115) can1 020003FD#7FFF802B7FFF0154
(1791431227.787318) can0 0200FD03#0100000000000000
(1791431227.787492) can1 0200FD04#0100000000000000
(1791431227.787549) can0 020003FD#7FFF80197FFF014A
(1791431227.787678) can1 020004FD#7FFF80807FFF0140
(1791431227.787942) can0 0200FD04#0100000000000000
(1791431227.788060) can1 0200FD05#0100000000000000
(1791431227.788193) can0 020004FD#7FF87FFC7FFF012C
(1791431227.788303) can1 020005FD#88E2801C7FFF015E
(1791431227.788562) can0 0200FD05#0100000000000000
(1791431227.788691) can1 0200FD06#0100000000000000
(1791431227.788737) can0 020005FD#7E7C80007FFF015E
(1791431227.788864) can1 020006FD#7FFA800B7FFF015E
(1791431227.789130) can0 0200FD06#0100000000000000
(1791431227.789253) can1 0200FD07#0100000000000000
(1791431227.789437) can0 020006FD#7FFB7FDE7FFF0154
(1791431227.789538) can1 020007FD#80027FC77FFF0140
(1791431227.789749) can0 0200FD07#0100000000000000
(1791431227.789875) can1 0200FD08#0100000000000000
(1791431227.789993) can0 020007FD#7ADB80087FFF0140
(1791431227.790029) can1 020008FD#828F801B7FFF0140
(1791431227.790305) can0 0200FD08#0100000000000000
(1791431227.790491) can0 020008FD#7EBD80347FFF012C
(1791431227.860693) can1 0200FD01#0100000000000000
(1791431227.860797) can1 020001FD#7FFD7FB67FFF0136
(1791431227.861096) can0 0200FD01#0100000000000000
(1791431227.861240) can1 0200FD02#0100000000000000
(1791431227.861337) can0 020001FD#7FB17FE47FFF0136
(1791431227.861551) can1 020002FD#7FFE7FDE7FFF0140
(1791431227.861677) can0 0200FD02#0100000000000000
(1791431227.861856) can0 020002FD#7FFF7FD27FFF014A
(1791431227.861891) can1 0200FD03#0100000000000000
(1791431227.862060) can1 020003FD#7FFF806D7FFF0154
(1791431227.862253) can0 0200FD03#0100000000000000
(1791431227.862484) can1 0200FD04#0100000000000000
(1791431227.862528) can0 020003FD#7FFF7FCB7FFF014A
(1791431227.862690) can1 020004FD#7FFF80277FFF0140
(1791431227.862880) can0 0200FD04#0100000000000000
(1791431227.863113) can1 0200FD05#0100000000000000
(1791431227.863149) can0 020004FD#7FF87FE67FFF012C
(1791431227.863282) can1 020005FD#88E17FDA7FFF015E
(1791431227.863491) can0 0200FD05#0100000000000000
(1791431227.863667) can0 020005FD#7E7C80137FFF015E
(1791431227.863701) can1 0200FD06#0100000000000000
(1791431227.863929) can1 020006FD#7FFA80277FFF015E
(1791431227.864061) can0 0200FD06#0100000000000000
(1791431227.864241) can0 020006FD#7FFB80087FFF0154
(1791431227.864276) can1 0200FD07#0100000000000000
(1791431227.864558) can1 020007FD#80027FE97FFF0140
(1791431227.864683) can0 0200FD07#0100000000000000
(1791431227.864859) can0 020007FD#7ADB803F7FFF0140
(1791431227.864894) can1 0200FD08#0100000000000000
(1791431227.865016) can1 020008FD#828F7FB67FFF0140
(1791431227.865227) can0 0200FD08#0100000000000000
(1791431227.865435) can0 020008FD#7EBD7FCE7FFF012C
(1791431227.937563) can1 0200FD01#0100000000000000
(1791431227.937665) can1 020001FD#7FFD80357FFF0136
(1791431227.937981) can0 0200FD01#0100000000000000
(1791431227.938141) can1 0200FD02#0100000000000000
(1791431227.938237) can0 020001FD#7FB17FBB7FFF0136
(1791431227.938320) can1 020002FD#7FFE80597FFF0140
(1791431227.938628) can0 0200FD02#0100000000000000
(1791431227.938742) can0 020002FD#7FFE7FDD7FFF014A
(1791431227.938776) can1 0200FD03#0100000000000000
(1791431227.939002) can1 020003FD#7FFF80AA7FFF0154
(1791431227.939203) can0 0200FD03#0100000000000000
(1791431227.939323) can1 0200FD04#0100000000000000
(1791431227.939439) can0 020003FD#7FFF7F357FFF014A
(1791431227.939540) can1 020004FD#7FFE7FEE7FFF0140
(1791431227.939845) can0 0200FD04#0100000000000000
(1791431227.939945) can1 0200FD05#0100000000000000
(1791431227.940062) can0 020004FD#7FF880917FFF012C
(1791431227.940184) can1 020005FD#88E17FE57FFF015E
(1791431227.940387) can0 0200FD05#0100000000000000
(1791431227.940555) can1 0200FD06#0100000000000000
(1791431227.940599) can0 020005FD#7E7C7FF17FFF015E
(1791431227.940730) can1 020006FD#7FFA80137FFF015E
(1791431227.941079) can0 0200FD06#0100000000000000
(1791431227.941133) can1 0200FD07#0100000000000000
(1791431227.941185) can0 020006FD#7FFB80037FFF0154
(1791431227.941381) can1 020007FD#80027FDA7FFF0140
(1791431227.941700) can0 0200FD07#0100000000000000
(1791431227.941760) can1 0200FD08#0100000000000000
(1791431227.941884) can0 020007FD#7ADB7FAB7FFF0140
(1791431227.941919) can1 020008FD#828F80127FFF0140
(1791431227.942257) can0 0200FD08#0100000000000000
(1791431227.942444) can0 020008FD#7EBD7FEE7FFF012C
(1791431228.017846) can1 0200FD01#0100000000000000
(1791431228.018003) can1 020001FD#7FFE80B87FFF0136
(1791431228.018199) can0 0200FD01#0100000000000000
(1791431228.018391) can1 0200FD02#0100000000000000
(1791431228.018515) can0 020001FD#7FB180167FFF0136
(1791431228.018605) can1 020002FD#7FFE7F8B7FFF0140
(1791431228.018843) can0 0200FD02#0100000000000000
(1791431228.018975) can1 0200FD03#0100000000000000
(1791431228.019065) can0 020002FD#7FFF809D7FFF014A
(1791431228.019234) can1 020003FD#7FFF7EF57FFF0154
(1791431228.019393) can0 0200FD03#0100000000000000
(1791431228.019571) can1 0200FD04#0100000000000000
(1791431228.019607) can0 020003FD#7FFF80367FFF014A
(1791431228.019817) can1 020004FD#7FFF802E7FFF0140
(1791431228.020009) can0 0200FD04#0100000000000000
(1791431228.020140) can1 0200FD05#0100000000000000
(1791431228.020247) can0 020004FD#7FF880117FFF012C
(1791431228.020464) can1 020005FD#88E17FF47FFF015E
(1791431228.020639) can0 0200FD05#0100000000000000
(1791431228.020753) can0 020005FD#7E7C7FE67FFF015E
(1791431228.020803) can1 0200FD06#0100000000000000
(1791431228.020998) can1 020006FD#7FFA7FCB7FFF015E
(1791431228.021204) can0 0200FD06#0100000000000000
(1791431228.021327) can1 0200FD07#0100000000000000
(1791431228.021492) can0 020006FD#7FFB80057FFF0154
(1791431228.021560) can1 020007FD#80027FF07FFF0140
(1791431228.021844) can0 0200FD07#0100000000000000
(1791431228.021956) can1 0200FD08#0100000000000000
(1791431228.022066) can0 020007FD#7ADB800E7FFF0140
(1791431228.022100) can1 020008FD#828F80017FFF0140
(1791431228.022506) can0 0200FD08#0100000000000000
(1791431228.022559) can0 020008FD#7EBC7FCE7FFF012C
(1791431228.098152) can1 0200FD01#0100000000000000
(1791431228.098466) can1 020001FD#7FFD80257FFF0136
(1791431228.098500) can0 0200FD01#0100000000000000
(1791431228.098690) can0 020001FD#7FB1802B7FFF0136
(1791431228.098760) can1 0200FD02#0100000000000000
(1791431228.099004) can1 020002FD#7FFE7F937FFF0140
(1791431228.099049) can0 0200FD02#0100000000000000
(1791431228.099300) can0 020002FD#7FFF80477FFF014A
(1791431228.099336) can1 0200FD03#0100000000000000
(1791431228.099566) can1 020003FD#800080877FFF0154
(1791431228.099695) can0 0200FD03#0100000000000000
(1791431228.099878) can0 020003FD#7FFF80217FFF014A
(1791431228.099952) can1 0200FD04#0100000000000000
(1791431228.100193) can1 020004FD#7FFE802C7FFF0140
(1791431228.100265) can0 0200FD04#0100000000000000
(1791431228.100550) can0 020004FD#7FF8800D7FFF012C
(1791431228.100584) can1 0200FD05#0100000000000000
(1791431228.100752) can1 020005FD#88E17FF57FFF015E
(1791431228.100887) can0 0200FD05#0100000000000000
(1791431228.101133) can0 020005FD#7E7C7FF37FFF015E
(1791431228.101135) can1 0200FD06#0100000000000000
(1791431228.101373) can1 020006FD#7FFA80127FFF015E
(1791431228.101498) can0 0200FD06#0100000000000000
(1791431228.101693) can0 020006FD#7FFB80167FFF0154
(1791431228.101762) can1 0200FD07#0100000000000000
(1791431228.102005) can1 020007FD#80027FDA7FFF0140
(1791431228.102062) can0 0200FD07#0100000000000000
(1791431228.102318) can0 020007FD#7ADB7FC77FFF0140
(1791431228.102353) can1 0200FD08#0100000000000000
(1791431228.102524) can1 020008FD#828F7FE07FFF0140
(1791431228.102692) can0 0200FD08#0100000000000000
(1791431228.102803) can0 020008FD#7EBD7FD47FFF012C
(1791431228.175700) can1 0200FD01#0100000000000000
(1791431228.175877) can1 020001FD#7FFD80407FFF0136
(1791431228.176221) can0 0200FD01#0100000000000000
(1791431228.176267) can1 0200FD02#0100000000000000
(1791431228.176518) can0 020001FD#7FB17FE37FFF0136
(1791431228.176573) can1 020002FD#7FFD801C7FFF0140
(1791431228.176853) can0 0200FD02#0100000000000000
(1791431228.176891) can1 0200FD03#0100000000000000
(1791431228.177070) can0 020002FD#7FFF7FEC7FFF014A
(1791431228.177132) can1 020003FD#7FFF80E97FFF0154
(1791431228.177399) can0 0200FD03#0100000000000000
(1791431228.177509) can1 0200FD04#0100000000000000
(1791431228.177610) can0 020003FD#7FFF7FB47FFF014A
(1791431228.177725) can1 020004FD#7FFE7F037FFF0140
(1791431228.178004) can0 0200FD04#0100000000000000
(1791431228.178085) can1 0200FD05#0100000000000000
(1791431228.178257) can0 020004FD#7FF87FE67FFF012C
(1791431228.178327) can1 020005FD#88E280167FFF015E
(1791431228.178639) can0 0200FD05#0100000000000000
(1791431228.178699) can1 0200FD06#0100000000000000
(1791431228.178852) can0 020005FD#7E7C80077FFF015E
(1791431228.178887) can1 020006FD#7FFA7FFB7FFF015E
(1791431228.179210) can0 0200FD06#0100000000000000
(1791431228.179263) can1 0200FD07#0100000000000000
(1791431228.179514) can0 020006FD#7FFB800E7FFF0154
(1791431228.179549) can1 020007FD#80027FB07FFF0140
(1791431228.179851) can0 0200FD07#0100000000000000
(1791431228.179895) can1 0200FD08#0100000000000000
(1791431228.180057) can1 020008FD#828F7FD17FFF0140
(1791431228.180091) can0 020007FD#7ADB7FF97FFF0140
(1791431228.180527) can0 0200FD08#0100000000000000
(1791431228.180576) can0 020008FD#7EBD801A7FFF012C
(1791431228.261572) can1 0200FD01#0100000000000000
(1791431228.261674) can1 020001FD#7FFD7FAD7FFF0136
(1791431228.261897) can0 0200FD01#0100000000000000
(1791431228.262131) can1 0200FD02#0100000000000000
(1791431228.262168) can0 020001FD#7FB180687FFF0136
(1791431228.262370) can1 020002FD#7FFE80B07FFF0140
(1791431228.262498) can0 0200FD02#0100000000000000
(1791431228.262681) can0 020002FD#7FFF80637FFF014A
