(1791430715.880201) can1 0200FD01#0100000000000000
(1791430715.880520) can1 020001FD#7FFE803E7FFF0136
(1791430715.880571) can0 0200FD01#0100000000000000
(1791430715.880759) can0 020001FD#7FAA7FF97FFF0136
(1791430715.880822) can1 0200FD02#0100000000000000
(1791430715.881064) can1 020002FD#7FFD80247FFF014A
(1791430715.881138) can0 0200FD02#0100000000000000
(1791430715.881381) can0 020002FD#7FFB80417FFF014A
(1791430715.881416) can1 0200FD03#0100000000000000
(1791430715.881607) can1 020003FD#7FFF80537FFF0154
(1791430715.881773) can0 0200FD03#0100000000000000
(1791430715.881945) can0 020003FD#7FFE80457FFF014A
(1791430715.881992) can1 0200FD04#0100000000000000
(1791430715.882244) can1 020004FD#7FFF7FA97FFF0140
(1791430715.882333) can0 0200FD04#0100000000000000
(1791430715.882567) can0 020004FD#7FF77FA77FFF012C
(1791430715.882602) can1 0200FD05#0100000000000000
(1791430715.882750) can1 020005FD#88E180607FFF0168
(1791430715.882948) can0 0200FD05#0100000000000000
(1791430715.883143) can1 0200FD06#0100000000000000
(1791430715.883200) can0 020005FD#7E7D7FFB7FFF015E
(1791430715.883381) can1 020006FD#7FFF800C7FFF0168
(1791430715.883576) can0 0200FD06#0100000000000000
(1791430715.883758) can0 020006FD#7FFA7FF97FFF015E
(1791430715.883793) can1 0200FD07#0100000000000000
(1791430715.883954) can1 020007FD#7FFF80247FFF014A
(1791430715.884147) can0 0200FD07#0100000000000000
(1791430715.884332) can1 0200FD08#0100000000000000
(1791430715.884468) can0 020007FD#7AF0801F7FFF0140
(1791430715.884514) can1 020008FD#828F80257FFF0140
(1791430715.884828) can0 0200FD08#0100000000000000
(1791430715.884938) can0 020008FD#7EBD80057FFF0136
(1791430715.970077) can1 0200FD01#0100000000000000
(1791430715.970322) can1 020001FD#7FFE7F717FFF0136
(1791430715.970700) can1 0200FD02#0100000000000000
(1791430715.970875) can1 020002FD#7FFE7FC27FFF014A
(1791430715.971267) can1 0200FD03#0100000000000000
(1791430715.971407) can0 0200FD01#0100000000000000
(1791430715.971506) can1 020003FD#7FFF7F877FFF0154
(1791430715.971696) can0 020001FD#7FAA7F977FFF0136
(1791430715.971893) can1 0200FD04#0100000000000000
(1791430715.972017) can0 0200FD02#0100000000000000
(1791430715.972139) can1 020004FD#7FFF80977FFF0140
(1791430715.972259) can0 020002FD#7FFB80137FFF014A
(1791430715.972517) can1 0200FD05#0100000000000000
(1791430715.972642) can0 0200FD03#0100000000000000
(1791430715.972702) can1 020005FD#88E17FFE7FFF0168
(1791430715.972853) can0 020003FD#7FFF80557FFF014A
(1791430715.973094) can1 0200FD06#0100000000000000
(1791430715.973240) can0 0200FD04#0100000000000000
(1791430715.973338) can1 020006FD#7FFF800E7FFF0168
(1791430715.973523) can0 020004FD#7FF77F957FFF012C
(1791430715.973708) can1 0200FD07#0100000000000000
(1791430715.973858) can0 0200FD05#0100000000000000
(1791430715.973893) can1 020007FD#800080177FFF014A
(1791430715.974080) can0 020005FD#7E7E802A7FFF015E
(1791430715.974280) can1 0200FD08#0100000000000000
(1791430715.974409) can0 0200FD06#0100000000000000
(1791430715.974467) can1 020008FD#828F7FFC7FFF0140
(1791430715.974615) can0 020006FD#7FF97FF77FFF015E
(1791430715.974997) can0 0200FD07#0100000000000000
(1791430715.975250) can0 020007FD#7AF07FFC7FFF0140
(1791430715.975577) can0 0200FD08#0100000000000000
(1791430715.975719) can0 020008FD#7EBD80027FFF0136
(1791430716.135969) can1 0200FD01#0100000000000000
(1791430716.136157) can0 0200FD01#0100000000000000
(1791430716.136209) can1 020001FD#7FFE7FF77FFF0136
(1791430716.136464) can0 020001FD#7FAA7FAD7FFF0136
(1791430716.136586) can1 0200FD02#0100000000000000
(1791430716.136763) can1 020002FD#7FFE7FB87FFF014A
(1791430716.136798) can0 0200FD02#0100000000000000
(1791430716.137020) can0 020002FD#7FFB7FD67FFF014A
(1791430716.137160) can1 0200FD03#0100000000000000
(1791430716.137342) can0 0200FD03#0100000000000000
(1791430716.137470) can1 020003FD#7FFF803A7FFF0154
(1791430716.137573) can0 020003FD#7FFF7FC07FFF014A
(1791430716.137779) can1 0200FD04#0100000000000000
(1791430716.137963) can0 0200FD04#0100000000000000
(1791430716.138012) can1 020004FD#7FFF7FD87FFF0140
(1791430716.138206) can0 020004FD#7FF67F557FFF012C
(1791430716.138335) can1 0200FD05#0100000000000000
(1791430716.138562) can1 020005FD#88E17FFB7FFF0168
(1791430716.138597) can0 0200FD05#0100000000000000
(1791430716.138759) can0 020005FD#7E7D80057FFF015E
(1791430716.138959) can1 0200FD06#0100000000000000
(1791430716.139139) can1 020006FD#7FFF7FED7FFF0168
(1791430716.139171) can0 0200FD06#0100000000000000
(1791430716.139386) can0 020006FD#7FF980157FFF015E
(1791430716.139585) can1 0200FD07#0100000000000000
(1791430716.139762) can1 020007FD#7FFF7FD97FFF014A
(1791430716.139794) can0 0200FD07#0100000000000000
(1791430716.140013) can0 020007FD#7AEF7FF27FFF0140
(1791430716.140159) can1 0200FD08#0100000000000000
(1791430716.140326) can1 020008FD#828F7FF77FFF0140
(1791430716.140369) can0 0200FD08#0100000000000000
(1791430716.140525) can0 020008FD#7EBD7FDC7FFF0136
(1791430716.218652) can1 0200FD01#0100000000000000
(1791430716.218864) can1 020001FD#7FFE7FEB7FFF0136
(1791430716.219170) can0 0200FD01#0100000000000000
(1791430716.219213) can1 0200FD02#0100000000000000
(1791430716.219487) can0 020001FD#7FAA7F947FFF0136
(1791430716.219523) can1 020002FD#7FFE802D7FFF014A
(1791430716.219781) can0 0200FD02#0100000000000000
(1791430716.219862) can1 0200FD03#0100000000000000
(1791430716.220022) can0 020002FD#7FFC80447FFF014A
(1791430716.220080) can1 020003FD#7FFF80607FFF0154
(1791430716.220342) can0 0200FD03#0100000000000000
(1791430716.220408) can1 0200FD04#0100000000000000
(1791430716.220565) can0 020003FD#7FFE7FCD7FFF014A
(1791430716.220624) can1 020004FD#7FFF803B7FFF0140
(1791430716.220965) can0 0200FD04#0100000000000000
(1791430716.221015) can1 0200FD05#0100000000000000
(1791430716.221213) can0 020004FD#7FF77F497FFF012C
(1791430716.221251) can1 020005FD#88E180137FFF0168
(1791430716.221585) can0 0200FD05#0100000000000000
(1791430716.221651) can1 0200FD06#0100000000000000
(1791430716.221771) can0 020005FD#7E7D7FDB7FFF015E
(1791430716.221835) can1 020006FD#8000800C7FFF0168
(1791430716.222162) can0 0200FD06#0100000000000000
(1791430716.222216) can1 0200FD07#0100000000000000
(1791430716.222476) can0 020006FD#7FFA7FFC7FFF015E
(1791430716.222523) can1 020007FD#800080107FFF014A
(1791430716.222779) can0 0200FD07#0100000000000000
(1791430716.222875) can1 0200FD08#0100000000000000
(1791430716.222984) can1 020008FD#828F80157FFF0140
(1791430716.223019) can0 020007FD#7AF0800D7FFF0140
(1791430716.223400) can0 0200FD08#0100000000000000
(1791430716.223523) can0 020008FD#7EBD7FCB7FFF0136
(1791430716.301718) can1 0200FD01#0100000000000000
(1791430716.301898) can1 020001FD#7FFE7FEB7FFF0136
(1791430716.302102) can0 0200FD01#0100000000000000
(1791430716.302283) can1 0200FD02#0100000000000000
(1791430716.302347) can0 020001FD#7FAA801D7FFF0136
(1791430716.302582) can1 020002FD#7FFE80007FFF014A
(1791430716.302715) can0 0200FD02#0100000000000000
(1791430716.302896) can0 020002FD#7FFC805D7FFF014A
(1791430716.302930) can1 0200FD03#0100000000000000
(1791430716.303087) can1 020003FD#7FFF80357FFF0154
(1791430716.303286) can0 0200FD03#0100000000000000
(1791430716.303523) can1 0200FD04#0100000000000000
(1791430716.303557) can0 020003FD#7FFE805E7FFF014A
(1791430716.303716) can1 020004FD#7FFF80017FFF0140
(1791430716.303915) can0 0200FD04#0100000000000000
(1791430716.304103) can1 0200FD05#0100000000000000
(1791430716.304154) can0 020004FD#7FF780217FFF012C
(1791430716.304339) can1 020005FD#88E17FFE7FFF0168
(1791430716.304518) can0 0200FD05#0100000000000000
(1791430716.304688) can0 020005FD#7E7E80177FFF015E
(1791430716.304722) can1 0200FD06#0100000000000000
(1791430716.304897) can1 020006FD#7FFF7FF17FFF0168
(1791430716.305092) can0 0200FD06#0100000000000000
(1791430716.305272) can0 020006FD#7FF980187FFF015E
(1791430716.305306) can1 0200FD07#0100000000000000
(1791430716.305585) can1 020007FD#7FFF80117FFF014A
(1791430716.305712) can0 0200FD07#0100000000000000
(1791430716.305899) can0 020007FD#7AF080087FFF0140
(1791430716.305943) can1 0200FD08#0100000000000000
(1791430716.306084) can1 020008FD#828F80097FFF0140
(1791430716.306283) can0 0200FD08#0100000000000000
(1791430716.306468) can0 020008FD#7EBD7FB77FFF0136
(1791430716.373530) can1 0200FD01#0100000000000000
(1791430716.373720) can1 020001FD#7FFE80607FFF0136
(1791430716.373753) can0 0200FD01#0100000000000000
(1791430716.373971) can0 020001FD#7FAA7FE87FFF0136
(1791430716.374100) can1 0200FD02#0100000000000000
(1791430716.374285) can0 0200FD02#0100000000000000
(1791430716.374340) can1 020002FD#7FFD7FA07FFF014A
(1791430716.374585) can0 020002FD#7FFC808E7FFF014A
(1791430716.374725) can1 0200FD03#0100000000000000
(1791430716.374909) can1 020003FD#7FFF7F8D7FFF0154
(1791430716.374912) can0 0200FD03#0100000000000000
(1791430716.375093) can0 020003FD#7FFF7FE07FFF014A
(1791430716.375297) can1 0200FD04#0100000000000000
(1791430716.375528) can0 0200FD04#0100000000000000
(1791430716.375569) can1 020004FD#7FFF7F9A7FFF0140
(1791430716.375719) can0 020004FD#7FF780337FFF012C
(1791430716.375908) can1 0200FD05#0100000000000000
(1791430716.376089) can0 0200FD05#0100000000000000
(1791430716.376144) can1 020005FD#88E1801B7FFF0168
(1791430716.376340) can0 020005FD#7E7E7FE47FFF015E
(1791430716.376531) can1 0200FD06#0100000000000000
(1791430716.376723) can0 0200FD06#0100000000000000
(1791430716.376725) can1 020006FD#8000800F7FFF0168
(1791430716.376898) can0 020006FD#7FFA80287FFF015E
(1791430716.377105) can1 0200FD07#0100000000000000
(1791430716.377299) can0 0200FD07#0100000000000000
(1791430716.377353) can1 020007FD#8000801A7FFF014A
(1791430716.377594) can0 020007FD#7AF080447FFF0140
(1791430716.377722) can1 0200FD08#0100000000000000
(1791430716.377850) can1 020008FD#828F7FC07FFF0140
(1791430716.377882) can0 0200FD08#0100000000000000
(1791430716.378033) can0 020008FD#7EBD80047FFF0136
(1791430716.445408) can1 0200FD01#0100000000000000
(1791430716.445631) can1 020001FD#7FFE800B7FFF0136
(1791430716.445977) can0 0200FD01#0100000000000000
(1791430716.446073) can1 0200FD02#0100000000000000
(1791430716.446216) can0 020001FD#7FAA7FAA7FFF0136
(1791430716.446254) can1 020002FD#7FFE7FDE7FFF014A
(1791430716.446591) can0 0200FD02#0100000000000000
(1791430716.446655) can1 0200FD03#0100000000000000
(1791430716.446763) can0 020002FD#7FFB7FDE7FFF014A
(1791430716.446872) can1 020003FD#7FFF80077FFF0154
(1791430716.447156) can0 0200FD03#0100000000000000
(1791430716.447238) can1 0200FD04#0100000000000000
(1791430716.447403) can0 020003FD#7FFF805D7FFF014A
(1791430716.447475) can1 020004FD#7FFF7FBD7FFF0140
(1791430716.447790) can0 0200FD04#0100000000000000
(1791430716.447875) can1 0200FD05#0100000000000000
(1791430716.448032) can0 020004FD#7FF77FE47FFF012C
(1791430716.448091) can1 020005FD#88E1800E7FFF0168
(1791430716.448347) can0 0200FD05#0100000000000000
(1791430716.448409) can1 0200FD06#0100000000000000
(1791430716.448574) can0 020005FD#7E7E80067FFF015E
(1791430716.448634) can1 020006FD#7FFF7FC07FFF0168
(1791430716.448984) can0 0200FD06#0100000000000000
(1791430716.449020) can1 0200FD07#0100000000000000
(1791430716.449163) can0 020006FD#7FF980327FFF015E
(1791430716.449277) can1 020007FD#7FFF801B7FFF014A
(1791430716.449585) can0 0200FD07#0100000000000000
(1791430716.449655) can1 0200FD08#0100000000000000
(1791430716.449741) can1 020008FD#828F80367FFF0140
(1791430716.449776) can0 020007FD#7AF07FEF7FFF0140
(1791430716.450158) can0 0200FD08#0100000000000000
(1791430716.450311) can0 020008FD#7EBD7FD67FFF0136
(1791430716.526388) can1 0200FD01#0100000000000000
(1791430716.526640) can1 020001FD#7FFE80287FFF0136
(1791430716.526917) can0 0200FD01#0100000000000000
(1791430716.526969) can1 0200FD02#0100000000000000
(1791430716.527172) can0 020001FD#7FAA80357FFF0136
(1791430716.527225) can1 020002FD#7FFE7F817FFF014A
(1791430716.527535) can0 0200FD02#0100000000000000
(1791430716.527593) can1 0200FD03#0100000000000000
(1791430716.527708) can0 020002FD#7FFB80117FFF014A
(1791430716.527771) can1 020003FD#7FFF80127FFF0154
(1791430716.528104) can0 0200FD03#0100000000000000
(1791430716.528170) can1 0200FD04#0100000000000000
(1791430716.528277) can0 020003FD#7FFE7F9B7FFF014A
(1791430716.528487) can1 020004FD#7FFF80427FFF0140
(1791430716.528736) can0 0200FD04#0100000000000000
(1791430716.528801) can1 0200FD05#0100000000000000
(1791430716.528919) can0 020004FD#7FF780227FFF012C
(1791430716.529044) can1 020005FD#88E180297FFF0168
(1791430716.529298) can0 0200FD05#0100000000000000
(1791430716.529363) can1 0200FD06#0100000000000000
(1791430716.529581) can1 020006FD#7FFF80077FFF0168
(1791430716.529616) can0 020005FD#7E7E7FF97FFF015E
(1791430716.529919) can0 0200FD06#0100000000000000
(1791430716.529984) can1 0200FD07#0100000000000000
(1791430716.530100) can0 020006FD#7FF9802F7FFF015E
(1791430716.530226) can1 020007FD#80007FF27FFF014A
(1791430716.530535) can0 0200FD07#0100000000000000
(1791430716.530597) can1 0200FD08#0100000000000000
(1791430716.530717) can1 020008FD#828F800E7FFF0140
(1791430716.530753) can0 020007FD#7AF07FE47FFF0140
(1791430716.531105) can0 0200FD08#0100000000000000
(1791430716.531268) can0 020008FD#7EBD80347FFF0136
(1791430716.609357) can1 0200FD01#0100000000000000
(1791430716.609620) can1 020001FD#7FFE7FD37FFF0136
(1791430716.609978) can1 0200FD02#0100000000000000
(1791430716.610103) can0 0200FD01#0100000000000000
(1791430716.610223) can1 020002FD#7FFE80517FFF014A
(1791430716.610281) can0 020001FD#7FAA7FB67FFF0136
(1791430716.610600) can1 0200FD03#0100000000000000
(1791430716.610723) can0 0200FD02#0100000000000000
(1791430716.610781) can1 020003FD#7FFF80257FFF0154
(1791430716.610907) can0 020002FD#7FFB804B7FFF014A
(1791430716.611233) can1 0200FD04#0100000000000000
(1791430716.611293) can0 0200FD03#0100000000000000
(1791430716.611420) can1 020004FD#7FFF80407FFF0140
(1791430716.611596) can0 020003FD#7FFE7FB77FFF014A
(1791430716.611883) can1 0200FD05#0100000000000000
(1791430716.611920) can0 0200FD04#0100000000000000
(1791430716.612047) can1 020005FD#88E17FF87FFF0168
(1791430716.612101) can0 020004FD#7FF780787FFF012C
(1791430716.612428) can1 0200FD06#0100000000000000
(1791430716.612534) can0 0200FD05#0100000000000000
(1791430716.612647) can1 020006FD#7FFF7FE57FFF0168
(1791430716.612727) can0 020005FD#7E7E7FFA7FFF015E
(1791430716.613039) can1 0200FD07#0100000000000000
(1791430716.613113) can0 0200FD06#0100000000000000
(1791430716.613280) can1 020007FD#8000800B7FFF014A
(1791430716.613362) can0 020006FD#7FF97FE97FFF015E
(1791430716.613667) can1 0200FD08#0100000000000000
(1791430716.613725) can0 0200FD07#0100000000000000
(1791430716.613778) can1 020008FD#828F7FD97FFF0140
(1791430716.613906) can0 020007FD#7AEF7FFC7FFF0140
(1791430716.614301) can0 0200FD08#0100000000000000
(1791430716.614486) can0 020008FD#7EBD7FFE7FFF0136
(1791430716.685732) can1 0200FD01#0100000000000000
(1791430716.685909) can1 020001FD#7FFE80637FFF0136
(1791430716.685986) can0 0200FD01#0100000000000000
(1791430716.686233) can0 020001FD#7FAA7FD47FFF0136
(1791430716.686297) can1 0200FD02#0100000000000000
(1791430716.686586) can1 020002FD#7FFE80617FFF014A
(1791430716.686620) can0 0200FD02#0100000000000000
(1791430716.686791) can0 020002FD#7FFB80667FFF014A
(1791430716.686920) can1 0200FD03#0100000000000000
(1791430716.687170) can1 020003FD#7FFF805C7FFF0154
(1791430716.687204) can0 0200FD03#0100000000000000
(1791430716.687419) can0 020003FD#7FFE800C7FFF014A
(1791430716.687541) can1 0200FD04#0100000000000000
(1791430716.687735) can1 020004FD#7FFF80167FFF0140
(1791430716.687798) can0 0200FD04#0100000000000000
(1791430716.688046) can0 020004FD#7FF780217FFF012C
(1791430716.688111) can1 0200FD05#0100000000000000
(1791430716.688363) can1 020005FD#88E1800F7FFF0168
(1791430716.688368) can0 0200FD05#0100000000000000
(1791430716.688605) can0 020005FD#7E7E7FDF7FFF015E
(1791430716.688730) can1 0200FD06#0100000000000000
(1791430716.688912) can1 020006FD#7FFF80007FFF0168
(1791430716.688993) can0 0200FD06#0100000000000000
(1791430716.689235) can0 020006FD#7FF9801A7FFF015E
(1791430716.689298) can1 0200FD07#0100000000000000
(1791430716.689597) can1 020007FD#7FFF7F9F7FFF014A
(1791430716.689631) can0 0200FD07#0100000000000000
(1791430716.689785) can0 020007FD#7AF07FDC7FFF0140
(1791430716.689923) can1 0200FD08#0100000000000000
(1791430716.690075) can1 020008FD#828F7FEA7FFF0140
(1791430716.690172) can0 0200FD08#0100000000000000
(1791430716.690312) can0 020008FD#7EBD7FC97FFF0136
(1791430716.762074) can1 0200FD01#0100000000000000
(1791430716.762249) can1 020001FD#7FFE7F9E7FFF0136
(1791430716.762320) can0 0200FD01#0100000000000000
(1791430716.762592) can0 020001FD#7FAA80057FFF0136
(1791430716.762671) can1 0200FD02#0100000000000000
(1791430716.762889) can1 020002FD#7FFE80467FFF014A
(1791430716.762929) can0 0200FD02#0100000000000000
(1791430716.763112) can0 020002FD#7FFB7FD67FFF014A
(1791430716.763239) can1 0200FD03#0100000000000000
(1791430716.763545) can0 0200FD03#0100000000000000
(1791430716.763583) can1 020003FD#7FFF7F687FFF0154
(1791430716.763718) can0 020003FD#7FFF805C7FFF014A
(1791430716.763893) can1 0200FD04#0100000000000000
(1791430716.764113) can1 020004FD#7FFF80557FFF0140
(1791430716.764148) can0 0200FD04#0100000000000000
(1791430716.764359) can0 020004FD#7FF77FFD7FFF012C
(1791430716.764438) can1 0200FD05#0100000000000000
(1791430716.764657) can1 020005FD#88E180087FFF0168
(1791430716.764734) can0 0200FD05#0100000000000000
(1791430716.764918) can0 020005FD#7E7E7FFA7FFF015E
(1791430716.765036) can1 0200FD06#0100000000000000
(1791430716.765289) can1 020006FD#7FFF803B7FFF0168
(1791430716.765324) can0 0200FD06#0100000000000000
(1791430716.765591) can0 020006FD#7FF97FDA7FFF015E
(1791430716.765676) can1 0200FD07#0100000000000000
(1791430716.765861) can1 020007FD#7FFF7F987FFF014A
(1791430716.765928) can0 0200FD07#0100000000000000
(1791430716.766106) can0 020007FD#7AEF800D7FFF0140
(1791430716.766244) can1 0200FD08#0100000000000000
(1791430716.766418) can1 020008FD#828F7FE67FFF0140
(1791430716.766547) can0 0200FD08#0100000000000000
(1791430716.766656) can0 020008FD#7EBD7FE67FFF0136
(1791430716.842741) can1 0200FD01#0100000000000000
(1791430716.842920) can1 020001FD#7FFE7F727FFF0136
(1791430716.843249) can0 0200FD01#0100000000000000
(1791430716.843301) can1 0200FD02#0100000000000000
(1791430716.843496) can0 020001FD#7FAA80247FFF0136
(1791430716.843610) can1 020002FD#7FFD7FD17FFF014A
(1791430716.843867) can0 0200FD02#0100000000000000
(1791430716.843931) can1 0200FD03#0100000000000000
(1791430716.844108) can0 020002FD#7FFB7FB37FFF014A
(1791430716.844184) can1 020003FD#7FFF80017FFF0154
(1791430716.844430) can0 0200FD03#0100000000000000
(1791430716.844549) can1 0200FD04#0100000000000000
(1791430716.844648) can0 020003FD#7FFF7FC07FFF014A
(1791430716.844736) can1 020004FD#7FFF7F987FFF0140
(1791430716.845053) can0 0200FD04#0100000000000000
(1791430716.845121) can1 0200FD05#0100000000000000
(1791430716.845293) can0 020004FD#7FF780017FFF012C
(1791430716.845329) can1 020005FD#88E17FE87FFF0168
(1791430716.845676) can0 0200FD05#0100000000000000
(1791430716.845743) can1 0200FD06#0100000000000000
(1791430716.845890) can0 020005FD#7E7E803B7FFF015E
(1791430716.845925) can1 020006FD#7FFF7FF27FFF0168
(1791430716.846253) can0 0200FD06#0100000000000000
(1791430716.846311) can1 0200FD07#0100000000000000
(1791430716.846551) can0 020006FD#7FF97FD27FFF015E
(1791430716.846591) can1 020007FD#7FFF80377FFF014A
(1791430716.846902) can0 0200FD07#0100000000000000
(1791430716.846931) can1 0200FD08#0100000000000000
(1791430716.847077) can1 020008FD#828F7F9B7FFF0140
(1791430716.847113) can0 020007FD#7AF080547FFF0140
(1791430716.847421) can0 0200FD08#0100000000000000
(1791430716.847578) can0 020008FD#7EBD7FF67FFF0136
(1791430716.922067) can1 0200FD01#0100000000000000
(1791430716.922240) can1 020001FD#7FFE7FD67FFF0136
(1791430716.922274) can0 0200FD01#0100000000000000
(1791430716.922561) can0 020001FD#7FAA7FE47FFF0136
(1791430716.922679) can1 0200FD02#0100000000000000
(1791430716.922895) can0 0200FD02#0100000000000000
(1791430716.922897) can1 020002FD#7FFE802E7FFF014A
(1791430716.923121) can0 020002FD#7FFB7FC67FFF014A
(1791430716.923245) can1 0200FD03#0100000000000000
(1791430716.923432) can0 0200FD03#0100000000000000
(1791430716.923563) can1 020003FD#7FFF7F477FFF0154
(1791430716.923659) can0 020003FD#7FFF80277FFF014A
(1791430716.923892) can1 0200FD04#0100000000000000
(1791430716.924018) can0 0200FD04#0100000000000000
(1791430716.924118) can1 020004FD#7FFF80707FFF0140
(1791430716.924260) can0 020004FD#7FF780107FFF012C
(1791430716.924445) can1 0200FD05#0100000000000000
(1791430716.924614) can0 0200FD05#0100000000000000
(1791430716.924656) can1 020005FD#88E1800B7FFF0168
(1791430716.924793) can0 020005FD#7E7E803F7FFF015E
(1791430716.925034) can1 0200FD06#0100000000000000
(1791430716.925184) can0 0200FD06#0100000000000000
(1791430716.925289) can1 020006FD#7FFF80217FFF0168
(1791430716.925431) can0 020006FD#7FF980067FFF015E
(1791430716.925680) can1 0200FD07#0100000000000000
(1791430716.925808) can0 0200FD07#0100000000000000
(1791430716.925892) can1 020007FD#7FFF80257FFF014A
(1791430716.926055) can0 020007FD#7AF07FE47FFF0140
(1791430716.926248) can1 0200FD08#0100000000000000
(1791430716.926366) can0 0200FD08#0100000000000000
(1791430716.926410) can1 020008FD#828F80127FFF0140
(1791430716.926550) can0 020008FD#7EBD7FF57FFF0136
(1791430717.003830) can1 0200FD01#0100000000000000
(1791430717.004061) can1 020001FD#7FFE80117FFF0136
(1791430717.004260) can0 0200FD01#0100000000000000
(1791430717.004373) can1 0200FD02#0100000000000000
(1791430717.004557) can0 020001FD#7FAA7FF97FFF0136
(1791430717.004611) can1 020002FD#7FFE7FDC7FFF014A
(1791430717.004870) can0 0200FD02#0100000000000000
(1791430717.005001) can1 0200FD03#0100000000000000
(1791430717.005115) can0 020002FD#7FFC7FC97FFF014A
(1791430717.005176) can1 020003FD#7FFF7FAE7FFF0154
(1791430717.005435) can0 0200FD03#0100000000000000
(1791430717.005619) can1 0200FD04#0100000000000000
(1791430717.005659) can0 020003FD#7FFF7F917FFF014A
(1791430717.005793) can1 020004FD#7FFF80357FFF0140
(1791430717.006054) can0 0200FD04#0100000000000000
(1791430717.006192) can1 0200FD05#0100000000000000
(1791430717.006298) can0 020004FD#7FF7802B7FFF012C
(1791430717.006512) can1 020005FD#88E17FEB7FFF0168
(1791430717.006688) can0 0200FD05#0100000000000000
(1791430717.006812) can1 0200FD06#0100000000000000
(1791430717.006867) can0 020005FD#7E7E80067FFF015E
(1791430717.007056) can1 020006FD#7FFF7FD87FFF0168
(1791430717.007255) can0 0200FD06#0100000000000000
(1791430717.007377) can1 0200FD07#0100000000000000
(1791430717.007558) can0 020006FD#7FF97FD67FFF015E
(1791430717.007617) can1 020007FD#80007FFF7FFF014A
(1791430717.007901) can0 0200FD07#0100000000000000
(1791430717.008006) can1 0200FD08#0100000000000000
(1791430717.008122) can0 020007FD#7AF07FDC7FFF0140
(1791430717.008157) can1 020008FD#828F80257FFF0140
(1791430717.008558) can0 0200FD08#0100000000000000
(1791430717.008613) can0 020008FD#7EBD7FF97FFF0136
(1791430717.076623) can1 0200FD01#0100000000000000
(1791430717.076798) can1 020001FD#7FFE80687FFF0136
(1791430717.077191) can1 0200FD02#0100000000000000
(1791430717.077224) can0 0200FD01#0100000000000000
(1791430717.077428) can1 020002FD#7FFE80307FFF014A
(1791430717.077506) can0 020001FD#7FAA80547FFF0136
(1791430717.077819) can1 0200FD03#0100000000000000
(1791430717.077820) can0 0200FD02#0100000000000000
(1791430717.078058) can1 020003FD#7FFF7F1F7FFF0154
(1791430717.078091) can0 020002FD#7FFC7FCF7FFF014A
(1791430717.078395) can1 0200FD04#0100000000000000
(1791430717.078402) can0 0200FD03#0100000000000000
(1791430717.078605) can0 020003FD#7FFE80407FFF014A
(1791430717.078638) can1 020004FD#7FFF7F537FFF0140
(1791430717.079009) can1 0200FD05#0100000000000000
(1791430717.079012) can0 0200FD04#0100000000000000
(1791430717.079199) can1 020005FD#88E17FFB7FFF0168
(1791430717.079253) can0 020004FD#7FF780207FFF012C
(1791430717.079629) can0 0200FD05#0100000000000000
(1791430717.079631) can1 0200FD06#0100000000000000
(1791430717.079806) can0 020005FD#7E7E80067FFF015E
(1791430717.079837) can1 020006FD#7FFF7FCD7FFF0168
(1791430717.080211) can1 0200FD07#0100000000000000
(1791430717.080214) can0 0200FD06#0100000000000000
(1791430717.080504) can0 020006FD#7FF97FEF7FFF015E
(1791430717.080534) can1 020007FD#7FFF7FF37FFF014A
(1791430717.080815) can1 0200FD08#0100000000000000
(1791430717.080816) can0 0200FD07#0100000000000000
(1791430717.080964) can1 020008FD#828F7FE47FFF0140
(1791430717.081048) can0 020007FD#7AF0802D7FFF0140
(1791430717.081439) can0 0200FD08#0100000000000000
(1791430717.081559) can0 020008FD#7EBD80267FFF0136
(1791430717.153225) can1 0200FD01#0100000000000000
(1791430717.153514) can1 020001FD#7FFE80097FFF0136
(1791430717.153699) can0 0200FD01#0100000000000000
(1791430717.153825) can1 0200FD02#0100000000000000
(1791430717.153891) can0 020001FD#7FAA80557FFF0136
(1791430717.154065) can1 020002FD#7FFD801F7FFF014A
(1791430717.154265) can0 0200FD02#0100000000000000
(1791430717.154387) can1 0200FD03#0100000000000000
(1791430717.154568) can0 020002FD#7FFB80187FFF014A
(1791430717.154620) can1 020003FD#7FFF7FC77FFF0154
(1791430717.154904) can0 0200FD03#0100000000000000
(1791430717.155004) can1 0200FD04#0100000000000000
(1791430717.155128) can0 020003FD#7FFF800A7FFF014A
(1791430717.155252) can1 020004FD#7FFF80687FFF0140
(1791430717.155446) can0 0200FD04#0100000000000000
(1791430717.155626) can1 0200FD05#0100000000000000
(1791430717.155668) can0 020004FD#7FF77F4C7FFF012C
(1791430717.155809) can1 020005FD#88E17FEC7FFF0168
(1791430717.156043) can0 0200FD05#0100000000000000
(1791430717.156189) can1 0200FD06#0100000000000000
(1791430717.156299) can0 020005FD#7E7E7FCD7FFF015E
(1791430717.156434) can1 020006FD#7FFF80197FFF0168
(1791430717.156692) can0 0200FD06#0100000000000000
(1791430717.156808) can0 020006FD#7FF980277FFF015E
(1791430717.156843) can1 0200FD07#0100000000000000
(1791430717.157054) can1 020007FD#800080057FFF014A
(1791430717.157266) can0 0200FD07#0100000000000000
(1791430717.157387) can1 0200FD08#0100000000000000
(1791430717.157554) can0 020007FD#7AEF7FB57FFF0140
(1791430717.157588) can1 020008FD#828F801E7FFF0140
(1791430717.157876) can0 0200FD08#0100000000000000
(1791430717.158023) can0 020008FD#7EBD7FE17FFF0136
(1791430717.230225) can1 0200FD01#0100000000000000
(1791430717.230519) can1 020001FD#7FFE808D7FFF0136
(1791430717.230820) can1 0200FD02#0100000000000000
(1791430717.230911) can0 0200FD01#0100000000000000
(1791430717.231069) can1 020002FD#7FFE7FC17FFF014A
(1791430717.231140) can0 020001FD#7FAA80247FFF0136
(1791430717.231395) can1 0200FD03#0100000000000000
(1791430717.231458) can0 0200FD02#0100000000000000
(1791430717.231621) can1 020003FD#7FFF80397FFF0154
(1791430717.231665) can0 020002FD#7FFB7FE37FFF014A
(1791430717.232016) can1 0200FD04#0100000000000000
(1791430717.232071) can0 0200FD03#0100000000000000
(1791430717.232192) can1 020004FD#7FFF80957FFF0140
(1791430717.232313) can0 020003FD#7FFF80507FFF014A
(1791430717.232638) can1 0200FD05#0100000000000000
(1791430717.232689) can0 0200FD04#0100000000000000
(1791430717.232817) can1 020005FD#88E17FF07FFF0168
(1791430717.232907) can0 020004FD#7FF77FFA7FFF012C
(1791430717.233204) can1 0200FD06#0100000000000000
(1791430717.233257) can0 0200FD05#0100000000000000
(1791430717.233427) can0 020005FD#7E7E7FBE7FFF015E
(1791430717.233526) can1 020006FD#7FFF7FF57FFF0168
(1791430717.233825) can1 0200FD07#0100000000000000
(1791430717.233906) can0 0200FD06#0100000000000000
(1791430717.234061) can1 020007FD#7FFF7FD87FFF014A
(1791430717.234125) can0 020006FD#7FF980107FFF015E
(1791430717.234386) can1 0200FD08#0100000000000000
(1791430717.234451) can0 0200FD07#0100000000000000
(1791430717.234592) can1 020008FD#828F7FF17FFF0140
(1791430717.234667) can0 020007FD#7AEF7FFE7FFF0140
(1791430717.235094) can0 0200FD08#0100000000000000
(1791430717.235199) can0 020008FD#7EBD80307FFF0136
(1791430717.311696) can1 0200FD01#0100000000000000
(1791430717.311883) can1 020001FD#7FFF804F7FFF0136
(1791430717.312113) can0 0200FD01#0100000000000000
(1791430717.312259) can1 0200FD02#0100000000000000
(1791430717.312299) can0 020001FD#7FAA7FDD7FFF0136
(1791430717.312576) can1 020002FD#7FFD80607FFF014A
(1791430717.312778) can0 0200FD02#0100000000000000
(1791430717.312911) can0 020002FD#7FFC802A7FFF014A
(1791430717.312914) can1 0200FD03#0100000000000000
(1791430717.313138) can1 020003FD#7FFF803C7FFF0154
(1791430717.313338) can0 0200FD03#0100000000000000
(1791430717.313463) can1 0200FD04#0100000000000000
(1791430717.313632) can0 020003FD#7FFE7FF17FFF014A
(1791430717.313669) can1 020004FD#7FFF7FBC7FFF0140
(1791430717.314012) can0 0200FD04#0100000000000000
(1791430717.314060) can1 0200FD05#0100000000000000
(1791430717.314185) can0 020004FD#7FF77FB97FFF012C
(1791430717.314298) can1 020005FD#88E17FCB7FFF0168
(1791430717.314633) can0 0200FD05#0100000000000000
(1791430717.314693) can1 0200FD06#0100000000000000
(1791430717.314813) can0 020005FD#7E7E802C7FFF015E
(1791430717.314909) can1 020006FD#7FFF80027FFF0168
(1791430717.315209) can0 0200FD06#0100000000000000
(1791430717.315261) can1 0200FD07#0100000000000000
(1791430717.315381) can0 020006FD#7FF97FDF7FFF015E
(1791430717.315581) can1 020007FD#8000800B7FFF014A
(1791430717.315833) can0 0200FD07#0100000000000000
(1791430717.315908) can1 0200FD08#0100000000000000
(1791430717.316059) can1 020008FD#828F7FA87FFF0140
(1791430717.316094) can0 020007FD#7AF07FE47FFF0140
(1791430717.316387) can0 0200FD08#0100000000000000
(1791430717.316570) can0 020008FD#7EBD7FEB7FFF0136
(1791430717.387332) can1 0200FD01#0100000000000000
(1791430717.387574) can1 020001FD#7FFE808A7FFF0136
(1791430717.387703) can0 0200FD01#0100000000000000
(1791430717.387887) can0 020001FD#7FAA80347FFF0136
(1791430717.387959) can1 0200FD02#0100000000000000
(1791430717.388211) can1 020002FD#7FFE80077FFF014A
(1791430717.388274) can0 0200FD02#0100000000000000
(1791430717.388577) can1 0200FD03#0100000000000000
(1791430717.388578) can0 020002FD#7FFC80417FFF014A
(1791430717.388757) can1 020003FD#7FFF802A7FFF0154
(1791430717.388924) can0 0200FD03#0100000000000000
(1791430717.389132) can0 020003FD#7FFF7FC97FFF014A
(1791430717.389211) can1 0200FD04#0100000000000000
(1791430717.389389) can1 020004FD#7FFF7FFF7FFF0140
(1791430717.389456) can0 0200FD04#0100000000000000
(1791430717.389678) can0 020004FD#7FF780F07FFF012C
(1791430717.389832) can1 0200FD05#0100000000000000
(1791430717.390050) can0 0200FD05#0100000000000000
(1791430717.390085) can1 020005FD#88E180227FFF0168
(1791430717.390303) can0 020005FD#7E7E80307FFF015E
(1791430717.390386) can1 0200FD06#0100000000000000
(1791430717.390614) can1 020006FD#7FFF7FE97FFF0168
(1791430717.390696) can0 0200FD06#0100000000000000
(1791430717.390911) can0 020006FD#7FF9801B7FFF015E
(1791430717.391017) can1 0200FD07#0100000000000000
(1791430717.391259) can1 020007FD#800080247FFF014A
(1791430717.391294) can0 0200FD07#0100000000000000
(1791430717.391583) can0 020007FD#7AF07FE17FFF0140
(1791430717.391638) can1 0200FD08#0100000000000000
(1791430717.391775) can1 020008FD#828F7FF87FFF0140
(1791430717.391922) can0 0200FD08#0100000000000000
(1791430717.392056) can0 020008FD#7EBD7FFF7FFF0136
(1791430717.446261) can1 0200FD01#0100000000000000
(1791430717.446519) can1 020001FD#7FFE80297FFF0136
(1791430717.446827) can1 0200FD02#0100000000000000
(1791430717.446915) can0 0200FD01#0100000000000000
(1791430717.447070) can1 020002FD#7FFE80507FFF014A
(1791430717.447104) can0 020001FD#7FAA802B7FFF0136
(1791430717.447396) can1 0200FD03#0100000000000000
(1791430717.447462) can0 0200FD02#0100000000000000
(1791430717.447630) can1 020003FD#7FFF7F407FFF0154
(1791430717.447676) can0 020002FD#7FFB7FBB7FFF014A
(1791430717.448020) can1 0200FD04#0100000000000000
(1791430717.448073) can0 0200FD03#0100000000000000
(1791430717.448251) can0 020003FD#7FFF80207FFF014A
(1791430717.448287) can1 020004FD#7FFF7FE37FFF0140
(1791430717.448638) can1 0200FD05#0100000000000000
(1791430717.448703) can0 0200FD04#0100000000000000
(1791430717.448817) can1 020005FD#88E17FE47FFF0168
(1791430717.448913) can0 020004FD#7FF780087FFF012C
(1791430717.449207) can1 0200FD06#0100000000000000
(1791430717.449279) can0 0200FD05#0100000000000000
(1791430717.449447) can1 020006FD#7FFF7FE97FFF0168
(1791430717.449568) can0 020005FD#7E7E7FE07FFF015E
(1791430717.449827) can1 0200FD07#0100000000000000
(1791430717.449918) can0 0200FD06#0100000000000000
(1791430717.450060) can1 020007FD#7FFF80037FFF014A
(1791430717.450138) can0 020006FD#7FF980007FFF015E
(1791430717.450389) can1 0200FD08#0100000000000000
(1791430717.450460) can0 0200FD07#0100000000000000
(1791430717.450576) can1 020008FD#828F802E7FFF0140
(1791430717.450676) can0 020007FD#7AEF7FDD7FFF0140
(1791430717.451060) can0 0200FD08#0100000000000000
(1791430717.451208) can0 020008FD#7EBD7FCF7FFF0136
(1791430717.520019) can1 0200FD01#0100000000000000
(1791430717.520263) can1 020001FD#7FFE7FC87FFF0136
(1791430717.520296) can0 0200FD01#0100000000000000
(1791430717.520585) can0 020001FD#7FAA7FA87FFF0136
(1791430717.520638) can1 0200FD02#0100000000000000
(1791430717.520818) can1 020002FD#7FFE7F7C7FFF014A
(1791430717.520916) can0 0200FD02#0100000000000000
(1791430717.521137) can0 020002FD#7FFC808D7FFF014A
(1791430717.521209) can1 0200FD03#0100000000000000
(1791430717.521463) can0 0200FD03#0100000000000000
(1791430717.521526) can1 020003FD#7FFF80717FFF0154
(1791430717.521684) can0 020003FD#7FFE7F3D7FFF014A
(1791430717.521837) can1 0200FD04#0100000000000000
(1791430717.522052) can0 0200FD04#0100000000000000
(1791430717.522089) can1 020004FD#7FFF80F77FFF0140
(1791430717.522310) can0 020004FD#7FF77FDA7FFF012C
(1791430717.522393) can1 0200FD05#0100000000000000
(1791430717.522621) can1 020005FD#88E17FEF7FFF0168
(1791430717.522703) can0 0200FD05#0100000000000000
(1791430717.522919) can0 020005FD#7E7E7FF17FFF015E
(1791430717.523021) can1 0200FD06#0100000000000000
(1791430717.523267) can1 020006FD#7FFF80487FFF0168
(1791430717.523271) can0 0200FD06#0100000000000000
(1791430717.523579) can0 020006FD#7FF980167FFF015E
(1791430717.523645) can1 0200FD07#0100000000000000
(1791430717.523826) can1 020007FD#7FFF7F9A7FFF014A
(1791430717.523892) can0 0200FD07#0100000000000000
(1791430717.524139) can0 020007FD#7AEF7FFD7FFF0140
(1791430717.524211) can1 0200FD08#0100000000000000
(1791430717.524371) can1 020008FD#828F80067FFF0140
(1791430717.524460) can0 0200FD08#0100000000000000
(1791430717.524608) can0 020008FD#7EBD801B7FFF0136
(1791430717.595767) can1 0200FD01#0100000000000000
(1791430717.595946) can1 020001FD#7FFE7FF67FFF0136
(1791430717.596344) can1 0200FD02#0100000000000000
(1791430717.596407) can0 0200FD01#0100000000000000
(1791430717.596644) can1 020002FD#7FFE7FDA7FFF014A
(1791430717.596650) can0 020001FD#7FAA7FC27FFF0136
(1791430717.596960) can1 0200FD03#0100000000000000
(1791430717.597023) can0 0200FD02#0100000000000000
(1791430717.597194) can1 020003FD#7FFF80067FFF0154
(1791430717.597275) can0 020002FD#7FFB80317FFF014A
(1791430717.597570) can1 0200FD04#0100000000000000
(1791430717.597647) can0 0200FD03#0100000000000000
(1791430717.597744) can1 020004FD#7FFF7F697FFF0140
(1791430717.597814) can0 020003FD#7FFE7FE77FFF014A
(1791430717.598142) can1 0200FD05#0100000000000000
(1791430717.598209) can0 0200FD04#0100000000000000
(1791430717.598383) can1 020005FD#88E17FF07FFF0168
(1791430717.598457) can0 020004FD#7FF780777FFF012C
(1791430717.598770) can1 0200FD06#0100000000000000
(1791430717.598835) can0 0200FD05#0100000000000000
(1791430717.598948) can1 020006FD#7FFF80377FFF0168
(1791430717.599077) can0 020005FD#7E7E7FCD7FFF015E
(1791430717.599341) can1 0200FD07#0100000000000000
(1791430717.599407) can0 0200FD06#0100000000000000
(1791430717.599625) can1 020007FD#7FFF7FEA7FFF014A
(1791430717.599660) can0 020006FD#7FF980067FFF015E
(1791430717.599962) can1 0200FD08#0100000000000000
(1791430717.600020) can0 0200FD07#0100000000000000
(1791430717.600095) can1 020008FD#828F7FDD7FFF0140
(1791430717.600264) can0 020007FD#7AF07FCC7FFF0140
(1791430717.600702) can0 0200FD08#0100000000000000
(1791430717.600773) can0 020008FD#7EBD7FD57FFF0136
(1791430717.671473) can1 0200FD01#0100000000000000
(1791430717.671683) can1 020001FD#7FFE7FD47FFF0136
(1791430717.672060) can1 0200FD02#0100000000000000
(1791430717.672308) can1 020002FD#7FFD7FFC7FFF014A
(1791430717.672340) can0 0200FD01#0100000000000000
(1791430717.672645) can0 020001FD#7FAA7FF67FFF0136
(1791430717.672707) can1 0200FD03#0100000000000000
(1791430717.672813) can1 020003FD#7FFF804D7FFF0154
(1791430717.672963) can0 0200FD02#0100000000000000
(1791430717.673210) can0 020002FD#7FFB7FA67FFF014A
(1791430717.673276) can1 0200FD04#0100000000000000
(1791430717.673581) can0 0200FD03#0100000000000000
(1791430717.673615) can1 020004FD#7FFF80457FFF0140
(1791430717.673750) can0 020003FD#7FFE7F8E7FFF014A
(1791430717.673931) can1 0200FD05#0100000000000000
(1791430717.674147) can1 020005FD#88E17FEE7FFF0168
(1791430717.674151) can0 0200FD04#0100000000000000
(1791430717.674322) can0 020004FD#7FF780677FFF012C
(1791430717.674467) can1 0200FD06#0100000000000000
(1791430717.674691) can1 020006FD#7FFF7FF27FFF0168
(1791430717.674776) can0 0200FD05#0100000000000000
(1791430717.674950) can0 020005FD#7E7E7FE47FFF015E
(1791430717.675071) can1 0200FD07#0100000000000000
(1791430717.675329) can1 020007FD#7FFF80007FFF014A
(1791430717.675363) can0 0200FD06#0100000000000000
(1791430717.675627) can0 020006FD#7FF980337FFF015E
(1791430717.675707) can1 0200FD08#0100000000000000
(1791430717.675821) can1 020008FD#828F802A7FFF0140
(1791430717.675959) can0 0200FD07#0100000000000000
(1791430717.676198) can0 020007FD#7AEF7FEB7FFF0140
(1791430717.676585) can0 0200FD08#0100000000000000
(1791430717.676664) can0 020008FD#7EBD7FEC7FFF0136
(1791430717.753971) can1 0200FD01#0100000000000000
(1791430717.754206) can1 020001FD#7FFE7F857FFF0136
(1791430717.754367) can0 0200FD01#0100000000000000
(1791430717.754582) can1 0200FD02#0100000000000000
(1791430717.754640) can0 020001FD#7FAA801D7FFF0136
(1791430717.754771) can1 020002FD#7FFE80A07FFF014A
(1791430717.754968) can0 0200FD02#0100000000000000
(1791430717.755147) can1 0200FD03#0100000000000000
(1791430717.755181) can0 020002FD#7FFB80827FFF014A
(1791430717.755394) can1 020003FD#7FFF7FAD7FFF0154
(1791430717.755585) can0 0200FD03#0100000000000000
(1791430717.755775) can1 0200FD04#0100000000000000
(1791430717.755816) can0 020003FD#7FFF7EFD7FFF014A
(1791430717.755949) can1 020004FD#7FFF7FE67FFF0140
(1791430717.756163) can0 0200FD04#0100000000000000
(1791430717.756352) can1 0200FD05#0100000000000000
(1791430717.756403) can0 020004FD#7FF77F8A7FFF012C
(1791430717.756589) can1 020005FD#88E17FE97FFF0168
(1791430717.756782) can0 0200FD05#0100000000000000
(1791430717.756966) can0 020005FD#7E7E7FFC7FFF015E
(1791430717.757001) can1 0200FD06#0100000000000000
(1791430717.757223) can1 020006FD#7FFF801D7FFF0168
(1791430717.757348) can0 0200FD06#0100000000000000
(1791430717.757587) can1 0200FD07#0100000000000000
(1791430717.757644) can0 020006FD#7FFA80267FFF015E
(1791430717.757774) can1 020007FD#7FFF7FEE7FFF014A
(1791430717.757966) can0 0200FD07#0100000000000000
(1791430717.758147) can0 020007FD#7AF080547FFF0140
(1791430717.758179) can1 0200FD08#0100000000000000
(1791430717.758310) can1 020008FD#828F7FD77FFF0140
(1791430717.758588) can0 0200FD08#0100000000000000
(1791430717.758698) can0 020008FD#7EBD7FF47FFF0136
(1791430717.831581) can1 0200FD01#0100000000000000
(1791430717.831822) can1 020001FD#7FFE7FE17FFF0136
(1791430717.832151) can1 0200FD02#0100000000000000
(1791430717.832226) can0 0200FD01#0100000000000000
(1791430717.832324) can1 020002FD#7FFD7FBB7FFF014A
(1791430717.832414) can0 020001FD#7FAA803F7FFF0136
(1791430717.832777) can1 0200FD03#0100000000000000
(1791430717.832847) can0 0200FD02#0100000000000000
(1791430717.832958) can1 020003FD#7FFF806D7FFF0154
(1791430717.833021) can0 020002FD#7FFB80147FFF014A
(1791430717.833362) can1 0200FD04#0100000000000000
(1791430717.833426) can0 0200FD03#0100000000000000
(1791430717.833595) can1 020004FD#7FFF7FE67FFF0140
(1791430717.833648) can0 020003FD#7FFE7F657FFF014A
(1791430717.833978) can1 0200FD05#0100000000000000
(1791430717.834053) can0 0200FD04#0100000000000000
(1791430717.834217) can0 020004FD#7FF780567FFF012C
(1791430717.834251) can1 020005FD#88E27FF77FFF0168
(1791430717.834575) can1 0200FD06#0100000000000000
(1791430717.834647) can0 0200FD05#0100000000000000
(1791430717.834755) can1 020006FD#7FFF7FB27FFF0168
(1791430717.834826) can0 020005FD#7E7D7FF87FFF015E
(1791430717.835138) can1 0200FD07#0100000000000000
(1791430717.835218) can0 0200FD06#0100000000000000
(1791430717.835400) can1 020007FD#7FFF7FFC7FFF014A
(1791430717.835457) can0 020006FD#7FF980157FFF015E
(1791430717.835779) can1 0200FD08#0100000000000000
(1791430717.835847) can0 0200FD07#0100000000000000
(1791430717.835885) can1 020008FD#828F80137FFF0140
(1791430717.836082) can0 020007FD#7AF080247FFF0140
(1791430717.836410) can0 0200FD08#0100000000000000
(1791430717.836589) can0 020008FD#7EBD800F7FFF0136
(1791430717.921045) can1 0200FD01#0100000000000000
(1791430717.921234) can0 0200FD01#0100000000000000
(1791430717.921297) can1 020001FD#7FFE800C7FFF0136
(1791430717.921539) can0 020001FD#7FAA80447FFF0136
(1791430717.921656) can1 0200FD02#0100000000000000
(1791430717.921837) can1 020002FD#7FFD801B7FFF014A
(1791430717.921872) can0 0200FD02#0100000000000000
(1791430717.922101) can0 020002FD#7FFB7FC27FFF014A
(1791430717.922224) can1 0200FD03#0100000000000000
(1791430717.922418) can0 0200FD03#0100000000000000
(1791430717.922545) can1 020003FD#7FFF80687FFF0154
(1791430717.922651) can0 020003FD#7FFF80B67FFF014A
(1791430717.922853) can1 0200FD04#0100000000000000
(1791430717.923043) can0 0200FD04#0100000000000000
(1791430717.923095) can1 020004FD#7FFF80217FFF0140
(1791430717.923223) can0 020004FD#7FF7803D7FFF012C
(1791430717.923421) can1 0200FD05#0100000000000000
(1791430717.923639) can1 020005FD#88E17FCF7FFF0168
(1791430717.923672) can0 0200FD05#0100000000000000
(1791430717.923836) can0 020005FD#7E7E7FF37FFF015E
(1791430717.924053) can1 0200FD06#0100000000000000
(1791430717.924221) can0 0200FD06#0100000000000000
(1791430717.924222) can1 020006FD#7FFF80157FFF0168
(1791430717.924460) can0 020006FD#7FF9800B7FFF015E
(1791430717.924655) can1 0200FD07#0100000000000000
(1791430717.924832) can1 020007FD#800080437FFF014A
(1791430717.924867) can0 0200FD07#0100000000000000
(1791430717.925028) can0 020007FD#7AF0800D7FFF0140
(1791430717.925226) can1 0200FD08#0100000000000000
(1791430717.925406) can1 020008FD#828F7FDC7FFF0140
(1791430717.925410) can0 0200FD08#0100000000000000
(1791430717.925592) can0 020008FD#7EBD7FAE7FFF0136
(1791430717.998938) can1 0200FD01#0100000000000000
(1791430717.999049) can0 0200FD01#0100000000000000
(1791430717.999087) can1 020001FD#7FFE7FC37FFF0136
(1791430717.999302) can0 020001FD#7FAA7F9A7FFF0136
(1791430717.999479) can1 0200FD02#0100000000000000
(1791430717.999661) can0 0200FD02#0100000000000000
(1791430717.999697) can1 020002FD#7FFE7FC07FFF014A
(1791430717.999838) can0 020002FD#7FFC7FA37FFF014A
(1791430718.000092) can1 0200FD03#0100000000000000
(1791430718.000237) can0 0200FD03#0100000000000000
(1791430718.000336) can1 020003FD#7FFF7FF17FFF0154
(1791430718.000558) can0 020003FD#7FFE7FC67FFF014A
(1791430718.000726) can1 0200FD04#0100000000000000
(1791430718.000852) can0 0200FD04#0100000000000000
(1791430718.000937) can1 020004FD#7FFF7F647FFF0140
(1791430718.001087) can0 020004FD#7FF780137FFF012C
(1791430718.001291) can1 0200FD05#0100000000000000
(1791430718.001423) can0 0200FD05#0100000000000000
(1791430718.001598) can1 020005FD#88E17FDF7FFF0168
(1791430718.001649) can0 020005FD#7E7E801C7FFF015E
(1791430718.001948) can1 0200FD06#0100000000000000
(1791430718.002045) can0 0200FD06#0100000000000000
(1791430718.002158) can1 020006FD#7FFF80127FFF0168
(1791430718.002287) can0 020006FD#7FF97FBF7FFF015E
(1791430718.002489) can1 0200FD07#0100000000000000
(1791430718.002658) can0 0200FD07#0100000000000000
(1791430718.002696) can1 020007FD#7FFF7F947FFF014A
(1791430718.002837) can0 020007FD#7AF07FF27FFF0140
(1791430718.003104) can1 0200FD08#0100000000000000
(1791430718.003235) can0 0200FD08#0100000000000000
(1791430718.003270) can1 020008FD#828F80357FFF0140
(1791430718.003400) can0 020008FD#7EBD7FF67FFF0136
(1791430718.073737) can1 0200FD01#0100000000000000
(1791430718.073945) can1 020001FD#7FFE800F7FFF0136
(1791430718.074253) can0 0200FD01#0100000000000000
(1791430718.074310) can1 0200FD02#0100000000000000
(1791430718.074542) can0 020001FD#7FAA7FD37FFF0136
(1791430718.074593) can1 020002FD#7FFE7FDA7FFF014A
(1791430718.074856) can0 0200FD02#0100000000000000
(1791430718.074945) can1 0200FD03#0100000000000000
(1791430718.075099) can0 020002FD#7FFB7FBE7FFF014A
(1791430718.075134) can1 020003FD#7FFF7F767FFF0154
(1791430718.075425) can0 0200FD03#0100000000000000
(1791430718.075491) can1 0200FD04#0100000000000000
(1791430718.075657) can0 020003FD#7FFF80977FFF014A
(1791430718.075702) can1 020004FD#7FFF7F567FFF0140
(1791430718.076040) can0 0200FD04#0100000000000000
(1791430718.076086) can1 0200FD05#0100000000000000
(1791430718.076220) can0 020004FD#7FF7808B7FFF012C
(1791430718.076341) can1 020005FD#88E1801F7FFF0168
(1791430718.076668) can0 0200FD05#0100000000000000
(1791430718.076728) can1 0200FD06#0100000000000000
(1791430718.076845) can1 020006FD#7FFF7FFE7FFF0168
(1791430718.076879) can0 020005FD#7E7D7FDF7FFF015E
(1791430718.077241) can0 0200FD06#0100000000000000
(1791430718.077300) can1 0200FD07#0100000000000000
(1791430718.077544) can0 020006FD#7FF97FFF7FFF015E
(1791430718.077598) can1 020007FD#7FFF7FE87FFF014A
(1791430718.077856) can0 0200FD07#0100000000000000
(1791430718.077940) can1 0200FD08#0100000000000000
(1791430718.078061) can1 020008FD#828F7FF37FFF0140
(1791430718.078096) can0 020007FD#7AEF80037FFF0140
(1791430718.078411) can0 0200FD08#0100000000000000
(1791430718.078605) can0 020008FD#7EBD7FE37FFF0136
(1791430718.157162) can1 0200FD01#0100000000000000
(1791430718.157407) can1 020001FD#7FFE80047FFF0136
(1791430718.157518) can0 0200FD01#0100000000000000
(1791430718.157787) can0 020001FD#7FAA80037FFF0136
(1791430718.157789) can1 0200FD02#0100000000000000
(1791430718.157964) can1 020002FD#7FFE80467FFF014A
(1791430718.158166) can0 0200FD02#0100000000000000
(1791430718.158285) can0 020002FD#7FFB80007FFF014A
(1791430718.158353) can1 0200FD03#0100000000000000
(1791430718.158645) can1 020003FD#7FFF80517FFF0154
(1791430718.158792) can0 0200FD03#0100000000000000
(1791430718.158976) can0 020003FD#7FFE7F537FFF014A
(1791430718.159011) can1 0200FD04#0100000000000000
(1791430718.159234) can1 020004FD#7FFF7FF87FFF0140
(1791430718.159363) can0 0200FD04#0100000000000000
(1791430718.159608) can1 0200FD05#0100000000000000
(1791430718.159648) can0 020004FD#7FF780567FFF012C
(1791430718.159795) can1 020005FD#88E17FC67FFF0168
(1791430718.159983) can0 0200FD05#0100000000000000
(1791430718.160163) can0 020005FD#7E7D7FC37FFF015E
(1791430718.160197) can1 0200FD06#0100000000000000
(1791430718.160353) can1 020006FD#7FFF801E7FFF0168
(1791430718.160604) can0 0200FD06#0100000000000000
(1791430718.160795) can0 020006FD#7FF97FB97FFF015E
(1791430718.160831) can1 0200FD07#0100000000000000
(1791430718.160979) can1 020007FD#7FFF7FE27FFF014A
(1791430718.161172) can0 0200FD07#0100000000000000
(1791430718.161370) can1 0200FD08#0100000000000000
(1791430718.161411) can0 020007FD#7AF07FD97FFF0140
(1791430718.161544) can1 020008FD#828F801E7FFF0140
(1791430718.161796) can0 0200FD08#0100000000000000
(1791430718.161948) can0 020008FD#7EBD800B7FFF0136
(1791430718.242987) can1 0200FD01#0100000000000000
(1791430718.243224) can1 020001FD#7FFE7F827FFF0136
(1791430718.243385) can0 0200FD01#0100000000000000
(1791430718.243609) can1 0200FD02#0100000000000000
(1791430718.243660) can0 020001FD#7FAA7FE67FFF0136
(1791430718.243790) can1 020002FD#7FFD7FAB7FFF014A
(1791430718.243977) can0 0200FD02#0100000000000000
(1791430718.244180) can1 0200FD03#0100000000000000
(1791430718.244215) can0 020002FD#7FFB80047FFF014A
(1791430718.244429) can1 020003FD#7FFF7FCB7FFF0154
(1791430718.244607) can0 0200FD03#0100000000000000
(1791430718.244776) can0 020003FD#7FFF809E7FFF014A
(1791430718.244812) can1 0200FD04#0100000000000000
(1791430718.244973) can1 020004FD#7FFF80E77FFF0140
(1791430718.245175) can0 0200FD04#0100000000000000
(1791430718.245372) can1 0200FD05#0100000000000000
(1791430718.245415) can0 020004FD#7FF780917FFF012C
(1791430718.245665) can1 020005FD#88E180237FFF0168
(1791430718.245790) can0 0200FD05#0100000000000000
(1791430718.245966) can0 020005FD#7E7E7FFA7FFF015E
(1791430718.246003) can1 0200FD06#0100000000000000
(1791430718.246229) can1 020006FD#800080237FFF0168
(1791430718.246363) can0 0200FD06#0100000000000000
(1791430718.246608) can1 0200FD07#0100000000000000
(1791430718.246665) can0 020006FD#7FFA80497FFF015E
(1791430718.246793) can1 020007FD#7FFF7FD17FFF014A
(1791430718.246984) can0 0200FD07#0100000000000000
(1791430718.247183) can1 0200FD08#0100000000000000
(1791430718.247229) can0 020007FD#7AF0800C7FFF0140
(1791430718.247342) can1 020008FD#828F80137FFF0140
(1791430718.247606) can0 0200FD08#0100000000000000
(1791430718.247700) can0 020008FD#7EBD7FE77FFF0136
(1791430718.322870) can1 0200FD01#0100000000000000
(1791430718.323046) can1 020001FD#7FFE7FA67FFF0136
(1791430718.323264) can0 0200FD01#0100000000000000
(1791430718.323437) can1 0200FD02#0100000000000000
(1791430718.323556) can0 020001FD#7FAA7FEF7FFF0136
(1791430718.323668) can1 020002FD#7FFE801E7FFF014A
(1791430718.323961) can0 0200FD02#0100000000000000
(1791430718.324047) can1 0200FD03#0100000000000000
(1791430718.324109) can0 020002FD#7FFB802F7FFF014A
(1791430718.324293) can1 020003FD#7FFF80027FFF0154
(1791430718.324498) can0 0200FD03#0100000000000000
(1791430718.324669) can1 0200FD04#0100000000000000
(1791430718.324714) can0 020003FD#7FFE7FF37FFF014A
(1791430718.324843) can1 020004FD#7FFF7F777FFF0140
(1791430718.325168) can0 0200FD04#0100000000000000
(1791430718.325243) can1 0200FD05#0100000000000000
(1791430718.325346) can0 020004FD#7FF7802F7FFF012C
(1791430718.325566) can1 020005FD#88E1802B7FFF0168
(1791430718.325795) can0 0200FD05#0100000000000000
(1791430718.325863) can1 0200FD06#0100000000000000
(1791430718.325977) can0 020005FD#7E7E7FC97FFF015E
(1791430718.326098) can1 020006FD#7FFF7FDD7FFF0168
(1791430718.326367) can0 0200FD06#0100000000000000
(1791430718.326434) can1 0200FD07#0100000000000000
(1791430718.326667) can1 020007FD#800080177FFF014A
(1791430718.326701) can0 020006FD#7FF97FEC7FFF015E
(1791430718.326990) can0 0200FD07#0100000000000000
(1791430718.327064) can1 0200FD08#0100000000000000
(1791430718.327206) can1 020008FD#828F800B7FFF0140
(1791430718.327241) can0 020007FD#7AF07FB77FFF0140
(1791430718.327610) can0 0200FD08#0100000000000000
(1791430718.327704) can0 020008FD#7EBD804F7FFF0136
(1791430718.397058) can1 0200FD01#0100000000000000
(1791430718.397239) can1 020001FD#7FFE80397FFF0136
(1791430718.397381) can0 0200FD01#0100000000000000
(1791430718.397658) can0 020001FD#7FAA80987FFF0136
(1791430718.397691) can1 0200FD02#0100000000000000
(1791430718.397857) can1 020002FD#7FFE7FE57FFF014A
(1791430718.397979) can0 0200FD02#0100000000000000
(1791430718.398183) can0 020002FD#7FFC803C7FFF014A
(1791430718.398249) can1 0200FD03#0100000000000000
(1791430718.398572) can1 020003FD#7FFF80A87FFF0154
(1791430718.398606) can0 0200FD03#0100000000000000
(1791430718.398794) can0 020003FD#7FFE80587FFF014A
(1791430718.398872) can1 0200FD04#0100000000000000
(1791430718.399114) can1 020004FD#7FFF7F3A7FFF0140
(1791430718.399161) can0 0200FD04#0100000000000000
(1791430718.399418) can0 020004FD#7FF77F757FFF012C
(1791430718.399454) can1 0200FD05#0100000000000000
(1791430718.399653) can1 020005FD#88E180197FFF0168
(1791430718.399795) can0 0200FD05#0100000000000000
(1791430718.399976) can0 020005FD#7E7E80077FFF015E
(1791430718.400052) can1 0200FD06#0100000000000000
(1791430718.400291) can1 020006FD#7FFF800D7FFF0168
(1791430718.400360) can0 0200FD06#0100000000000000
(1791430718.400670) can1 0200FD07#0100000000000000
(1791430718.400671) can0 020006FD#7FF97FE27FFF015E
(1791430718.400844) can1 020007FD#7FFF800C7FFF014A
(1791430718.400984) can0 0200FD07#0100000000000000
(1791430718.401232) can0 020007FD#7AF0800E7FFF0140
(1791430718.401265) can1 0200FD08#0100000000000000
(1791430718.401401) can1 020008FD#828F7FF67FFF0140
(1791430718.401614) can0 0200FD08#0100000000000000
(1791430718.401695) can0 020008FD#7EBD7FA27FFF0136
(1791430718.475431) can1 0200FD01#0100000000000000
(1791430718.475678) can1 020001FD#7FFE7F237FFF0136
(1791430718.475932) can0 0200FD01#0100000000000000
(1791430718.476056) can1 0200FD02#0100000000000000
(1791430718.476177) can0 020001FD#7FAA7FA47FFF0136
(1791430718.476302) can1 020002FD#7FFD7FB27FFF014A
(1791430718.476498) can0 0200FD02#0100000000000000
(1791430718.476679) can1 0200FD03#0100000000000000
(1791430718.476716) can0 020002FD#7FFB80287FFF014A
(1791430718.476864) can1 020003FD#7FFF7F4A7FFF0154
(1791430718.477120) can0 0200FD03#0100000000000000
(1791430718.477257) can1 0200FD04#0100000000000000
(1791430718.477300) can0 020003FD#7FFF803C7FFF014A
(1791430718.477578) can1 020004FD#7FFF80077FFF0140
(1791430718.477743) can0 0200FD04#0100000000000000
(1791430718.477870) can1 0200FD05#0100000000000000
(1791430718.477955) can0 020004FD#7FF77FD97FFF012C
(1791430718.478117) can1 020005FD#88E17FDC7FFF0168
(1791430718.478312) can0 0200FD05#0100000000000000
(1791430718.478443) can1 0200FD06#0100000000000000
(1791430718.478619) can0 020005FD#7E7E80257FFF015E
(1791430718.478672) can1 020006FD#7FFF7FEC7FFF0168
(1791430718.478956) can0 0200FD06#0100000000000000
(1791430718.479067) can1 0200FD07#0100000000000000
(1791430718.479181) can0 020006FD#7FF97FC87FFF015E
(1791430718.479305) can1 020007FD#7FFF800B7FFF014A
(1791430718.479504) can0 0200FD07#0100000000000000
(1791430718.479682) can1 0200FD08#0100000000000000
(1791430718.479719) can0 020007FD#7AF07FFD7FFF0140
(1791430718.479800) can1 020008FD#828F80057FFF0140
(1791430718.480082) can0 0200FD08#0100000000000000
(1791430718.480245) can0 020008FD#7EBD7FB97FFF0136
(1791430718.554964) can1 0200FD01#0100000000000000
(1791430718.555121) can1 020001FD#7FFE80C27FFF0136
(1791430718.555182) can0 0200FD01#0100000000000000
(1791430718.555360) can0 020001FD#7FAA800B7FFF0136
(1791430718.555502) can1 0200FD02#0100000000000000
(1791430718.555727) can1 020002FD#7FFE806D7FFF014A
(1791430718.555813) can0 0200FD02#0100000000000000
(1791430718.555999) can0 020002FD#7FFB80227FFF014A
(1791430718.556128) can1 0200FD03#0100000000000000
(1791430718.556371) can1 020003FD#7FFF7EF97FFF0154
(1791430718.556405) can0 0200FD03#0100000000000000
(1791430718.556673) can0 020003FD#7FFE7F1D7FFF014A
(1791430718.556739) can1 0200FD04#0100000000000000
(1791430718.556962) can1 020004FD#7FFF807F7FFF0140
(1791430718.557000) can0 0200FD04#0100000000000000
(1791430718.557242) can0 020004FD#7FF77FF67FFF012C
(1791430718.557308) can1 0200FD05#0100000000000000
(1791430718.557611) can0 0200FD05#0100000000000000
(1791430718.557646) can1 020005FD#88E1803E7FFF0168
(1791430718.557784) can0 020005FD#7E7E7FEE7FFF015E
(1791430718.557959) can1 0200FD06#0100000000000000
(1791430718.558177) can1 020006FD#7FFF800D7FFF0168
(1791430718.558213) can0 0200FD06#0100000000000000
(1791430718.558362) can0 020006FD#7FFA80317FFF015E
(1791430718.558502) can1 0200FD07#0100000000000000
(1791430718.558723) can1 020007FD#7FFF7FCC7FFF014A
(1791430718.558811) can0 0200FD07#0100000000000000
(1791430718.558989) can0 020007FD#7AF07FCE7FFF0140
(1791430718.559128) can1 0200FD08#0100000000000000
(1791430718.559271) can1 020008FD#828F802A7FFF0140
(1791430718.559372) can0 0200FD08#0100000000000000
(1791430718.559565) can0 020008FD#7EBD7FE47FFF0136
(1791430718.633265) can1 0200FD01#0100000000000000
(1791430718.633566) can1 020001FD#7FFE809B7FFF0136
(1791430718.633688) can0 0200FD01#0100000000000000
(1791430718.633865) can0 020001FD#7FAA7FC77FFF0136
(1791430718.633899) can1 0200FD02#0100000000000000
(1791430718.634125) can1 020002FD#7FFE80017FFF014A
(1791430718.634258) can0 0200FD02#0100000000000000
(1791430718.634446) can1 0200FD03#0100000000000000
(1791430718.634564) can0 020002FD#7FFB7FE67FFF014A
(1791430718.634665) can1 020003FD#7FFF7F5E7FFF0154
(1791430718.634878) can0 0200FD03#0100000000000000
(1791430718.635071) can1 0200FD04#0100000000000000
(1791430718.635133) can0 020003FD#7FFE7F9F7FFF014A
(1791430718.635320) can1 020004FD#7FFF80157FFF0140
(1791430718.635447) can0 0200FD04#0100000000000000
(1791430718.635676) can0 020004FD#7FF77FF87FFF012C
(1791430718.635711) can1 0200FD05#0100000000000000
(1791430718.635857) can1 020005FD#88E17FE77FFF0168
(1791430718.636068) can0 0200FD05#0100000000000000
(1791430718.636254) can1 0200FD06#0100000000000000
(1791430718.636320) can0 020005FD#7E7E80117FFF015E
(1791430718.636581) can1 020006FD#7FFF80197FFF0168
(1791430718.636689) can0 0200FD06#0100000000000000
(1791430718.636872) can0 020006FD#7FF97FC77FFF015E
(1791430718.636875) can1 0200FD07#0100000000000000
(1791430718.637119) can1 020007FD#7FFF7FE67FFF014A
(1791430718.637257) can0 0200FD07#0100000000000000
(1791430718.637447) can1 0200FD08#0100000000000000
(1791430718.637581) can0 020007FD#7AF07FF37FFF0140
(1791430718.637625) can1 020008FD#828F800B7FFF0140
(1791430718.637940) can0 0200FD08#0100000000000000
(1791430718.638055) can0 020008FD#7EBD7FBA7FFF0136
(1791430718.709171) can1 0200FD01#0100000000000000
(1791430718.709362) can1 020001FD#7FFE80617FFF0136
(1791430718.709751) can1 0200FD02#0100000000000000
(1791430718.709971) can0 0200FD01#0100000000000000
(1791430718.710009) can1 020002FD#7FFD7F237FFF014A
(1791430718.710189) can0 020001FD#7FAA7FD07FFF0136
(1791430718.710319) can1 0200FD03#0100000000000000
(1791430718.710499) can1 020003FD#7FFF800F7FFF0154
(1791430718.710535) can0 0200FD02#0100000000000000
(1791430718.710731) can0 020002FD#7FFB7F867FFF014A
(1791430718.710965) can1 0200FD04#0100000000000000
(1791430718.711124) can0 0200FD03#0100000000000000
(1791430718.711181) can1 020004FD#7FFF800F7FFF0140
(1791430718.711369) can0 020003FD#7FFE80257FFF014A
(1791430718.711500) can1 0200FD05#0100000000000000
(1791430718.711729) can1 020005FD#88E17FF57FFF0168
(1791430718.711765) can0 0200FD04#0100000000000000
(1791430718.711967) can0 020004FD#7FF780207FFF012C
(1791430718.712137) can1 0200FD06#0100000000000000
(1791430718.712321) can1 020006FD#7FFF7FF57FFF0168
(1791430718.712324) can0 0200FD05#0100000000000000
(1791430718.712634) can0 020005FD#7E7D800F7FFF015E
(1791430718.712754) can1 0200FD07#0100000000000000
(1791430718.712967) can1 020007FD#7FFF80157FFF014A
(1791430718.712969) can0 0200FD06#0100000000000000
(1791430718.713184) can0 020006FD#7FF980337FFF015E
(1791430718.713326) can1 0200FD08#0100000000000000
(1791430718.713499) can1 020008FD#828F7FDC7FFF0140
(1791430718.713503) can0 0200FD07#0100000000000000
(1791430718.713731) can0 020007FD#7AF07FB57FFF0140
(1791430718.714125) can0 0200FD08#0100000000000000
(1791430718.714247) can0 020008FD#7EBD7FEF7FFF0136
(1791430718.788971) can1 0200FD01#0100000000000000
(1791430718.789194) can1 020001FD#7FFE80837FFF0136
(1791430718.789324) can0 0200FD01#0100000000000000
(1791430718.789502) can1 0200FD02#0100000000000000
(1791430718.789624) can0 020001FD#7FAA80087FFF0136
(1791430718.789736) can1 020002FD#7FFD80167FFF014A
(1791430718.789979) can0 0200FD02#0100000000000000
(1791430718.790116) can1 0200FD03#0100000000000000
(1791430718.790185) can0 020002FD#7FFB7F997FFF014A
(1791430718.790292) can1 020003FD#7FFF80737FFF0154
(1791430718.790505) can0 0200FD03#0100000000000000
(1791430718.790688) can1 0200FD04#0100000000000000
(1791430718.790729) can0 020003FD#7FFE80457FFF014A
(1791430718.790873) can1 020004FD#7FFF7FEA7FFF0140
(1791430718.791131) can0 0200FD04#0100000000000000
(1791430718.791266) can1 0200FD05#0100000000000000
(1791430718.791309) can0 020004FD#7FF7801B7FFF012C
(1791430718.791574) can1 020005FD#88E280157FFF0168
(1791430718.791765) can0 0200FD05#0100000000000000
(1791430718.791887) can1 0200FD06#0100000000000000
(1791430718.791974) can0 020005FD#7E7E7FE67FFF015E
(1791430718.792135) can1 020006FD#7FFF7FD47FFF0168
(1791430718.792329) can0 0200FD06#0100000000000000
(1791430718.792453) can1 0200FD07#0100000000000000
(1791430718.792625) can0 020006FD#7FF97FDF7FFF015E
(1791430718.792684) can1 020007FD#7FFF800D7FFF014A
(1791430718.792973) can0 0200FD07#0100000000000000
(1791430718.793071) can1 0200FD08#0100000000000000
(1791430718.793198) can0 020007FD#7AF080007FFF0140
(1791430718.793234) can1 020008FD#828F7FEE7FFF0140
(1791430718.793628) can0 0200FD08#0100000000000000
(1791430718.793690) can0 020008FD#7EBD7FF37FFF0136
(1791430718.868178) can1 0200FD01#0100000000000000
(1791430718.868429) can1 020001FD#7FFE7F827FFF0136
(1791430718.868463) can0 0200FD01#0100000000000000
(1791430718.868688) can0 020001FD#7FAA80487FFF0136
(1791430718.868750) can1 0200FD02#0100000000000000
(1791430718.869007) can1 020002FD#7FFE7FE37FFF014A
(1791430718.869073) can0 0200FD02#0100000000000000
(1791430718.869318) can0 020002FD#7FFC7FFF7FFF014A
(1791430718.869320) can1 0200FD03#0100000000000000
(1791430718.869635) can1 020003FD#7FFF7FAF7FFF0154
(1791430718.869694) can0 0200FD03#0100000000000000
(1791430718.869878) can0 020003FD#7FFE7FE57FFF014A
(1791430718.869971) can1 0200FD04#0100000000000000
(1791430718.870198) can1 020004FD#7FFF804F7FFF0140
(1791430718.870260) can0 0200FD04#0100000000000000
(1791430718.870508) can0 020004FD#7FF7800C7FFF012C
(1791430718.870538) can1 0200FD05#0100000000000000
(1791430718.870732) can1 020005FD#88E180087FFF0168
(1791430718.870888) can0 0200FD05#0100000000000000
(1791430718.871107) can1 0200FD06#0100000000000000
(1791430718.871143) can0 020005FD#7E7E80057FFF015E
(1791430718.871352) can1 020006FD#7FFF7FF57FFF0168
(1791430718.871454) can0 0200FD06#0100000000000000
(1791430718.871673) can0 020006FD#7FFA80147FFF015E
(1791430718.871708) can1 0200FD07#0100000000000000
(1791430718.871875) can1 020007FD#800080297FFF014A
(1791430718.872077) can0 0200FD07#0100000000000000
(1791430718.872256) can0 020007FD#7AF0801B7FFF0140
(1791430718.872294) can1 0200FD08#0100000000000000
(1791430718.872444) can1 020008FD#828F7FE57FFF0140
(1791430718.872696) can0 0200FD08#0100000000000000
(1791430718.872786) can0 020008FD#7EBD80227FFF0136
(1791430718.941025) can1 0200FD01#0100000000000000
(1791430718.941271) can1 020001FD#7FFE80337FFF0136
(1791430718.941416) can0 0200FD01#0100000000000000
(1791430718.941629) can1 0200FD02#0100000000000000
(1791430718.941695) can0 020001FD#7FAA7FEC7FFF0136
(1791430718.941822) can1 020002FD#7FFE7FCC7FFF014A
(1791430718.942010) can0 0200FD02#0100000000000000
(1791430718.942198) can1 0200FD03#0100000000000000
(1791430718.942259) can0 020002FD#7FFB80257FFF014A
(1791430718.942444) can1 020003FD#7FFF7FFE7FFF0154
(1791430718.942635) can0 0200FD03#0100000000000000
(1791430718.942819) can1 0200FD04#0100000000000000
(1791430718.942820) can0 020003FD#7FFF80357FFF014A
(1791430718.942997) can1 020004FD#7FFF7FEE7FFF0140
(1791430718.943205) can0 0200FD04#0100000000000000
(1791430718.943389) can1 0200FD05#0100000000000000
(1791430718.943448) can0 020004FD#7FF780817FFF012C
(1791430718.943690) can1 020005FD#88E2801F7FFF0168
(1791430718.943819) can0 0200FD05#0100000000000000
(1791430718.944003) can0 020005FD#7E7D80127FFF015E
(1791430718.944039) can1 0200FD06#0100000000000000
(1791430718.944255) can1 020006FD#7FFF7FC77FFF0168
(1791430718.944388) can0 0200FD06#0100000000000000
(1791430718.944634) can1 0200FD07#0100000000000000
(1791430718.944689) can0 020006FD#7FF980067FFF015E
(1791430718.944818) can1 020007FD#7FFF7FC67FFF014A
(1791430718.945009) can0 0200FD07#0100000000000000
(1791430718.945200) can1 0200FD08#0100000000000000
(1791430718.945255) can0 020007FD#7AF07FF77FFF0140
(1791430718.945348) can1 020008FD#828F80447FFF0140
(1791430718.945635) can0 0200FD08#0100000000000000
(1791430718.945736) can0 020008FD#7EBD80457FFF0136
(1791430719.018284) can1 0200FD01#0100000000000000
(1791430719.018585) can1 020001FD#7FFE7F807FFF0136
(1791430719.018781) can0 0200FD01#0100000000000000
(1791430719.018929) can1 0200FD02#0100000000000000
(1791430719.018974) can0 020001FD#7FAA80417FFF0136
(1791430719.019126) can1 020002FD#7FFE804D7FFF014A
(1791430719.019322) can0 0200FD02#0100000000000000
(1791430719.019512) can1 0200FD03#0100000000000000
(1791430719.019640) can0 020002FD#7FFB7FC37FFF014A
(1791430719.019680) can1 020003FD#7FFF80057FFF0154
(1791430719.019992) can0 0200FD03#0100000000000000
(1791430719.020149) can1 0200FD04#0100000000000000
(1791430719.020197) can0 020003FD#7FFE7FC97FFF014A
(1791430719.020390) can1 020004FD#7FFF80447FFF0140
(1791430719.020528) can0 0200FD04#0100000000000000
(1791430719.020744) can0 020004FD#7FF7803F7FFF012C
(1791430719.020780) can1 0200FD05#0100000000000000
(1791430719.020978) can1 020005FD#88E180207FFF0168
(1791430719.021141) can0 0200FD05#0100000000000000
(1791430719.021319) can0 020005FD#7E7E80127FFF015E
(1791430719.021354) can1 0200FD06#0100000000000000
(1791430719.021644) can1 020006FD#7FFF80047FFF0168
(1791430719.021769) can0 0200FD06#0100000000000000
(1791430719.021978) can0 020006FD#7FF980077FFF015E
(1791430719.021981) can1 0200FD07#0100000000000000
(1791430719.022206) can1 020007FD#800080567FFF014A
(1791430719.022338) can0 0200FD07#0100000000000000
(1791430719.022528) can1 0200FD08#0100000000000000
(1791430719.022646) can0 020007FD#7AEF7FDC7FFF0140
(1791430719.022699) can1 020008FD#828F803D7FFF0140
(1791430719.023021) can0 0200FD08#0100000000000000
(1791430719.023125) can0 020008FD#7EBD7FA07FFF0136
(1791430719.095841) can1 0200FD01#0100000000000000
(1791430719.095989) can1 020001FD#7FFE7F897FFF0136
(1791430719.096158) can0 0200FD01#0100000000000000
(1791430719.096405) can0 020001FD#7FAA7FA47FFF0136
(1791430719.096409) can1 0200FD02#0100000000000000
(1791430719.096699) can1 020002FD#7FFE7FCF7FFF014A
(1791430719.096766) can0 0200FD02#0100000000000000
(1791430719.096983) can0 020002FD#7FFB80367FFF014A
(1791430719.097023) can1 0200FD03#0100000000000000
(1791430719.097267) can1 020003FD#7FFF7FD67FFF0154
(1791430719.097332) can0 0200FD03#0100000000000000
(1791430719.097643) can1 0200FD04#0100000000000000
(1791430719.097645) can0 020003FD#7FFF80857FFF014A
(1791430719.097836) can1 020004FD#7FFF802E7FFF0140
(1791430719.097985) can0 0200FD04#0100000000000000
(1791430719.098207) can0 020004FD#7FF77FFB7FFF012C
(1791430719.098210) can1 0200FD05#0100000000000000
(1791430719.098450) can1 020005FD#88E1800C7FFF0168
(1791430719.098523) can0 0200FD05#0100000000000000
(1791430719.098746) can0 020005FD#7E7E7FF87FFF015E
(1791430719.098828) can1 0200FD06#0100000000000000
(1791430719.099012) can1 020006FD#800080087FFF0168
(1791430719.099121) can0 0200FD06#0100000000000000
(1791430719.099369) can0 020006FD#7FFA801B7FFF015E
(1791430719.099403) can1 0200FD07#0100000000000000
(1791430719.099686) can1 020007FD#7FFF803A7FFF014A
(1791430719.099765) can0 0200FD07#0100000000000000
(1791430719.099981) can0 020007FD#7AF07FE87FFF0140
(1791430719.100017) can1 0200FD08#0100000000000000
(1791430719.100159) can1 020008FD#828F7FC87FFF0140
(1791430719.100391) can0 0200FD08#0100000000000000
(1791430719.100479) can0 020008FD#7EBD80397FFF0136
(1791430719.170082) can1 0200FD01#0100000000000000
(1791430719.170325) can1 020001FD#7FFE7F337FFF0136
(1791430719.170644) can0 0200FD01#0100000000000000
(1791430719.170710) can1 0200FD02#0100000000000000
(1791430719.170828) can0 020001FD#7FAA80047FFF0136
(1791430719.170890) can1 020002FD#7FFE7FC17FFF014A
(1791430719.171228) can0 0200FD02#0100000000000000
(1791430719.171283) can1 0200FD03#0100000000000000
(1791430719.171403) can0 020002FD#7FFC804D7FFF014A
(1791430719.171592) can1 020003FD#7FFF804D7FFF0154
(1791430719.171829) can0 0200FD03#0100000000000000
(1791430719.171898) can1 0200FD04#0100000000000000
(1791430719.172014) can0 020003FD#7FFE805F7FFF014A
(1791430719.172145) can1 020004FD#7FFF7F417FFF0140
(1791430719.172399) can0 0200FD04#0100000000000000
(1791430719.172463) can1 0200FD05#0100000000000000
(1791430719.172691) can1 020005FD#88E17FE07FFF0168
(1791430719.172725) can0 020004FD#7FF77F6D7FFF012C
(1791430719.173023) can0 0200FD05#0100000000000000
(1791430719.173091) can1 0200FD06#0100000000000000
(1791430719.173212) can0 020005FD#7E7E80167FFF015E
(1791430719.173337) can1 020006FD#7FFF7FF87FFF0168
(1791430719.173635) can0 0200FD06#0100000000000000
(1791430719.173705) can1 0200FD07#0100000000000000
(1791430719.173809) can0 020006FD#7FF980067FFF015E
(1791430719.173886) can1 020007FD#7FFF7FDB7FFF014A
(1791430719.174207) can0 0200FD07#0100000000000000
(1791430719.174277) can1 0200FD08#0100000000000000
(1791430719.174439) can1 020008FD#828F80227FFF0140
(1791430719.174474) can0 020007FD#7AF07FB97FFF0140
(1791430719.174834) can0 0200FD08#0100000000000000
(1791430719.174920) can0 020008FD#7EBD80177FFF0136
(1791430719.242151) can1 0200FD01#0100000000000000
(1791430719.242388) can1 020001FD#7FFE7FD07FFF0136
(1791430719.242646) can0 0200FD01#0100000000000000
(1791430719.242776) can1 0200FD02#0100000000000000
(1791430719.242841) can0 020001FD#7FAA80517FFF0136
(1791430719.242894) can1 020002FD#7FFE807A7FFF014A
(1791430719.243218) can0 0200FD02#0100000000000000
(1791430719.243345) can1 0200FD03#0100000000000000
(1791430719.243472) can0 020002FD#7FFB805D7FFF014A
(1791430719.243644) can1 020003FD#7FFF7FB77FFF0154
(1791430719.243843) can0 0200FD03#0100000000000000
(1791430719.243961) can1 0200FD04#0100000000000000
(1791430719.244023) can0 020003FD#7FFE7FE77FFF014A
(1791430719.244212) can1 020004FD#7FFF7FB17FFF0140
(1791430719.244409) can0 0200FD04#0100000000000000
(1791430719.244530) can1 0200FD05#0100000000000000
(1791430719.244709) can0 020004FD#7FF77F777FFF012C
(1791430719.244746) can1 020005FD#88E17FFD7FFF0168
(1791430719.245092) can0 0200FD05#0100000000000000
(1791430719.245146) can1 0200FD06#0100000000000000
(1791430719.245211) can0 020005FD#7E7E802A7FFF015E
(1791430719.245391) can1 020006FD#7FFF7FDA7FFF0168
(1791430719.245711) can0 0200FD06#0100000000000000
(1791430719.245773) can1 0200FD07#0100000000000000
(1791430719.245896) can0 020006FD#7FFA7FF97FFF015E
(1791430719.245956) can1 020007FD#7FFF7FD97FFF014A
(1791430719.246285) can0 0200FD07#0100000000000000
(1791430719.246347) can1 0200FD08#0100000000000000
(1791430719.246489) can1 020008FD#828F7FB67FFF0140
(1791430719.246598) can0 020007FD#7AF080047FFF0140
(1791430719.246898) can0 0200FD08#0100000000000000
(1791430719.247060) can0 020008FD#7EBD802A7FFF0136
(1791430719.316483) can1 0200FD01#0100000000000000
(1791430719.316706) can1 020001FD#7FFE7FFB7FFF0136
(1791430719.317089) can1 0200FD02#0100000000000000
(1791430719.317163) can0 0200FD01#0100000000000000
(1791430719.317332) can1 020002FD#7FFE805C7FFF014A
(1791430719.317368) can0 020001FD#7FAA801C7FFF0136
(1791430719.317713) can1 0200FD03#0100000000000000
(1791430719.317775) can0 0200FD02#0100000000000000
(1791430719.317893) can1 020003FD#7FFF7FC57FFF0154
(1791430719.317992) can0 020002FD#7FFB7FBF7FFF014A
(1791430719.318290) can1 0200FD04#0100000000000000
(1791430719.318340) can0 0200FD03#0100000000000000
(1791430719.318607) can1 020004FD#7FFF7F1F7FFF0140
(1791430719.318644) can0 020003FD#7FFE7F817FFF014A
(1791430719.318916) can1 0200FD05#0100000000000000
(1791430719.318993) can0 0200FD04#0100000000000000
(1791430719.319156) can1 020005FD#88E17FF57FFF0168
(1791430719.319213) can0 020004FD#7FF780227FFF012C
(1791430719.319470) can1 0200FD06#0100000000000000
(1791430719.319536) can0 0200FD05#0100000000000000
(1791430719.319694) can1 020006FD#7FFF7FFF7FFF0168
(1791430719.319760) can0 020005FD#7E7E7FF17FFF015E
(1791430719.320095) can1 0200FD07#0100000000000000
(1791430719.320147) can0 0200FD06#0100000000000000
(1791430719.320337) can1 020007FD#7FFF801E7FFF014A
(1791430719.320394) can0 020006FD#7FF980047FFF015E
(1791430719.320716) can1 0200FD08#0100000000000000
(1791430719.320779) can0 0200FD07#0100000000000000
(1791430719.320838) can1 020008FD#828F7FA67FFF0140
(1791430719.320990) can0 020007FD#7AF07FDA7FFF0140
(1791430719.321356) can0 0200FD08#0100000000000000
(1791430719.321474) can0 020008FD#7EBD7FF57FFF0136
(1791430719.399215) can1 0200FD01#0100000000000000
(1791430719.399401) can1 020001FD#7FFE7F7D7FFF0136
(1791430719.399719) can0 0200FD01#0100000000000000
(1791430719.399837) can0 020001FD#7FAA80187FFF0136
(1791430719.399870) can1 0200FD02#0100000000000000
(1791430719.400032) can1 020002FD#7FFE80527FFF014A
(1791430719.400291) can0 0200FD02#0100000000000000
(1791430719.400414) can1 0200FD03#0100000000000000
(1791430719.400603) can0 020002FD#7FFC80227FFF014A
(1791430719.400710) can1 020003FD#7FFF80447FFF0154
(1791430719.400902) can0 0200FD03#0100000000000000
(1791430719.401032) can1 0200FD04#0100000000000000
(1791430719.401158) can0 020003FD#7FFE7FC37FFF014A
(1791430719.401220) can1 020004FD#7FFF7FCE7FFF0140
(1791430719.401475) can0 0200FD04#0100000000000000
(1791430719.401648) can1 0200FD05#0100000000000000
(1791430719.401710) can0 020004FD#7FF77F9E7FFF012C
(1791430719.401839) can1 020005FD#88E17FA57FFF0168
(1791430719.402104) can0 0200FD05#0100000000000000
(1791430719.402275) can1 0200FD06#0100000000000000
(1791430719.402339) can0 020005FD#7E7E7FCC7FFF015E
(1791430719.402458) can1 020006FD#7FFF7FDE7FFF0168
(1791430719.402711) can0 0200FD06#0100000000000000
(1791430719.402843) can1 0200FD07#0100000000000000
(1791430719.402889) can0 020006FD#7FFA80267FFF015E
(1791430719.403092) can1 020007FD#7FFF7FAB7FFF014A
(1791430719.403286) can0 0200FD07#0100000000000000
(1791430719.403416) can1 0200FD08#0100000000000000
(1791430719.403598) can1 020008FD#828F80347FFF0140
(1791430719.403602) can0 020007FD#7AF07FB37FFF0140
(1791430719.403936) can0 0200FD08#0100000000000000
(1791430719.404068) can0 020008FD#7EBD7FE87FFF0136
(1791430719.481414) can1 0200FD01#0100000000000000
(1791430719.481722) can1 020001FD#7FFE806E7FFF0136
(1791430719.481913) can0 0200FD01#0100000000000000
(1791430719.482045) can1 0200FD02#0100000000000000
(1791430719.482098) can0 020001FD#7FAA80567FFF0136
(1791430719.482273) can1 020002FD#7FFE80797FFF014A
(1791430719.482478) can0 0200FD02#0100000000000000
(1791430719.482642) can1 0200FD03#0100000000000000
(1791430719.482713) can0 020002FD#7FFC80567FFF014A
(1791430719.482818) can1 020003FD#7FFF7FF97FFF0154
(1791430719.483106) can0 0200FD03#0100000000000000
(1791430719.483194) can1 0200FD04#0100000000000000
(1791430719.483345) can0 020003FD#7FFE80047FFF014A
(1791430719.483458) can1 020004FD#7FFF804B7FFF0140
(1791430719.483718) can0 0200FD04#0100000000000000
(1791430719.483841) can1 0200FD05#0100000000000000
(1791430719.483892) can0 020004FD#7FF77F9F7FFF012C
(1791430719.483995) can1 020005FD#88E180187FFF0168
(1791430719.484290) can0 0200FD05#0100000000000000
(1791430719.484413) can1 0200FD06#0100000000000000
(1791430719.484600) can0 020005FD#7E7E7FCB7FFF015E
(1791430719.484717) can1 020006FD#7FFF7FE07FFF0168
(1791430719.485001) can0 0200FD06#0100000000000000
(1791430719.485042) can1 0200FD07#0100000000000000
(1791430719.485145) can0 020006FD#7FF980177FFF015E
(1791430719.485281) can1 020007FD#7FFF80037FFF014A
(1791430719.485543) can0 0200FD07#0100000000000000
(1791430719.485657) can1 0200FD08#0100000000000000
(1791430719.485758) can0 020007FD#7AEF7FC97FFF0140
(1791430719.485800) can1 020008FD#828F7FF27FFF0140
(1791430719.486191) can0 0200FD08#0100000000000000
(1791430719.486291) can0 020008FD#7EBD7FDE7FFF0136
(1791430719.559379) can1 0200FD01#0100000000000000
(1791430719.559672) can1 020001FD#7FFE80A47FFF0136
(1791430719.559977) can1 0200FD02#0100000000000000
(1791430719.560011) can0 0200FD01#0100000000000000
(1791430719.560223) can1 020002FD#7FFE802F7FFF014A
(1791430719.560228) can0 020001FD#7FAA7FB87FFF0136
(1791430719.560550) can1 0200FD03#0100000000000000
(1791430719.560592) can0 0200FD02#0100000000000000
(1791430719.560765) can0 020002FD#7FFC80227FFF014A
(1791430719.560800) can1 020003FD#7FFF80287FFF0154
(1791430719.561163) can1 0200FD04#0100000000000000
(1791430719.561203) can0 0200FD03#0100000000000000
(1791430719.561392) can0 020003FD#7FFF807B7FFF014A
(1791430719.561424) can1 020004FD#7FFF7FFA7FFF0140
(1791430719.561795) can1 0200FD05#0100000000000000
(1791430719.561852) can0 0200FD04#0100000000000000
(1791430719.561910) can1 020005FD#88E17FC57FFF0168
(1791430719.562037) can0 020004FD#7FF77F897FFF012C
(1791430719.562359) can1 0200FD06#0100000000000000
(1791430719.562410) can0 0200FD05#0100000000000000
(1791430719.562657) can1 020006FD#7FFF80037FFF0168
(1791430719.562701) can0 020005FD#7E7E80087FFF015E
(1791430719.563000) can1 0200FD07#0100000000000000
(1791430719.563038) can0 0200FD06#0100000000000000
(1791430719.563200) can0 020006FD#7FF97FDE7FFF015E
(1791430719.563236) can1 020007FD#7FFF7FE07FFF014A
(1791430719.563539) can1 0200FD08#0100000000000000
(1791430719.563647) can0 0200FD07#0100000000000000
(1791430719.563699) can1 020008FD#828F7FF57FFF0140
(1791430719.563828) can0 020007FD#7AF0801D7FFF0140
(1791430719.564197) can0 0200FD08#0100000000000000
(1791430719.564369) can0 020008FD#7EBD7FFE7FFF0136
(1791430719.643304) can1 0200FD01#0100000000000000
(1791430719.643611) can1 020001FD#7FFE7FDB7FFF0136
(1791430719.643782) can0 0200FD01#0100000000000000
(1791430719.643915) can1 0200FD02#0100000000000000
(1791430719.644003) can0 020001FD#7FAA801D7FFF0136
(1791430719.644162) can1 020002FD#7FFE7FED7FFF014A
(1791430719.644355) can0 0200FD02#0100000000000000
(1791430719.644485) can1 0200FD03#0100000000000000
(1791430719.644665) can0 020002FD#7FFB7FE47FFF014A
(1791430719.644718) can1 020003FD#7FFF811B7FFF0154
(1791430719.644976) can0 0200FD03#0100000000000000
(1791430719.645098) can1 0200FD04#0100000000000000
(1791430719.645223) can0 020003FD#7FFF7FCB7FFF014A
(1791430719.645345) can1 020004FD#7FFF802D7FFF0140
(1791430719.645541) can0 0200FD04#0100000000000000
(1791430719.645727) can1 0200FD05#0100000000000000
(1791430719.645768) can0 020004FD#7FF77FF67FFF012C
(1791430719.645907) can1 020005FD#88E180207FFF0168
(1791430719.646149) can0 0200FD05#0100000000000000
(1791430719.646300) can1 0200FD06#0100000000000000
(1791430719.646407) can0 020005FD#7E7E802F7FFF015E
(1791430719.646624) can1 020006FD#7FFF7FB97FFF0168
(1791430719.646785) can0 0200FD06#0100000000000000
(1791430719.646917) can1 0200FD07#0100000000000000
(1791430719.647003) can0 020006FD#7FF97FEF7FFF015E
(1791430719.647169) can1 020007FD#7FFF7FF87FFF014A
(1791430719.647354) can0 0200FD07#0100000000000000
(1791430719.647489) can1 0200FD08#0100000000000000
(1791430719.647672) can0 020007FD#7AF080017FFF0140
(1791430719.647703) can1 020008FD#828F80007FFF0140
(1791430719.648042) can0 0200FD08#0100000000000000
(1791430719.648137) can0 020008FD#7EBD801F7FFF0136
(1791430719.721558) can1 0200FD01#0100000000000000
(1791430719.721729) can1 020001FD#7FFE806B7FFF0136
(1791430719.721858) can0 0200FD01#0100000000000000
(1791430719.722046) can0 020001FD#7FAA80127FFF0136
(1791430719.722177) can1 0200FD02#0100000000000000
(1791430719.722423) can0 0200FD02#0100000000000000
(1791430719.722426) can1 020002FD#7FFD801A7FFF014A
(1791430719.722720) can0 020002FD#7FFC7FC17FFF014A
(1791430719.722793) can1 0200FD03#0100000000000000
(1791430719.723006) can1 020003FD#800080827FFF0154
(1791430719.723047) can0 0200FD03#0100000000000000
(1791430719.723228) can0 020003FD#7FFF808B7FFF014A
(1791430719.723356) can1 0200FD04#0100000000000000
(1791430719.723658) can0 0200FD04#0100000000000000
(1791430719.723662) can1 020004FD#7FFF7F6C7FFF0140
(1791430719.723851) can0 020004FD#7FF7809E7FFF012C
(1791430719.724008) can1 0200FD05#0100000000000000
(1791430719.724164) can1 020005FD#88E1801C7FFF0168
(1791430719.724234) can0 0200FD05#0100000000000000
(1791430719.724416) can0 020005FD#7E7D7FBA7FFF015E
(1791430719.724552) can1 0200FD06#0100000000000000
(1791430719.724771) can1 020006FD#7FFF80267FFF0168
(1791430719.724852) can0 0200FD06#0100000000000000
(1791430719.725038) can0 020006FD#7FF980127FFF015E
(1791430719.725161) can1 0200FD07#0100000000000000
(1791430719.725398) can1 020007FD#7FFF7FF97FFF014A
(1791430719.725433) can0 0200FD07#0100000000000000
(1791430719.725723) can1 0200FD08#0100000000000000
(1791430719.725725) can0 020007FD#7AF080057FFF0140
(1791430719.725880) can1 020008FD#828F802A7FFF0140
(1791430719.726013) can0 0200FD08#0100000000000000
(1791430719.726169) can0 020008FD#7EBD7FF27FFF0136
(1791430719.795727) can1 0200FD01#0100000000000000
(1791430719.795983) can1 020001FD#7FFE7F9F7FFF0136
(1791430719.796322) can0 0200FD01#0100000000000000
(1791430719.796356) can1 0200FD02#0100000000000000
(1791430719.796507) can0 020001FD#7FAA80687FFF0136
(1791430719.796541) can1 020002FD#7FFE80217FFF014A
(1791430719.796923) can1 0200FD03#0100000000000000
(1791430719.796924) can0 0200FD02#0100000000000000
(1791430719.797165) can1 020003FD#7FFF803C7FFF0154
(1791430719.797199) can0 020002FD#7FFB800F7FFF014A
(1791430719.797491) can0 0200FD03#0100000000000000
(1791430719.797491) can1 0200FD04#0100000000000000
(1791430719.797727) can1 020004FD#7FFF800E7FFF0140
(1791430719.797763) can0 020003FD#7FFF80467FFF014A
(1791430719.798116) can0 0200FD04#0100000000000000
(1791430719.798152) can1 0200FD05#0100000000000000
(1791430719.798285) can0 020004FD#7FF77F377FFF012C
(1791430719.798371) can1 020005FD#88E17FEA7FFF0168
(1791430719.798736) can0 0200FD05#0100000000000000
(1791430719.798737) can1 0200FD06#0100000000000000
(1791430719.798909) can0 020005FD#7E7E7FEF7FFF015E
(1791430719.798946) can1 020006FD#7FFF7FFA7FFF0168
(1791430719.799306) can0 0200FD06#0100000000000000
(1791430719.799341) can1 0200FD07#0100000000000000
(1791430719.799617) can0 020006FD#7FFA80237FFF015E
(1791430719.799623) can1 020007FD#7FFF7FF67FFF014A
(1791430719.799931) can1 0200FD08#0100000000000000
(1791430719.799934) can0 0200FD07#0100000000000000
(1791430719.800079) can1 020008FD#828F80017FFF0140
(1791430719.800160) can0 020007FD#7AEF7FDD7FFF0140
(1791430719.800494) can0 0200FD08#0100000000000000
(1791430719.800669) can0 020008FD#7EBD7FDD7FFF0136
(1791430719.877061) can1 0200FD01#0100000000000000
(1791430719.877249) can0 0200FD01#0100000000000000
(1791430719.877300) can1 020001FD#7FFE7FF27FFF0136
(1791430719.877495) can0 020001FD#7FAA7FF07FFF0136
(1791430719.877665) can1 0200FD02#0100000000000000
(1791430719.877859) can1 020002FD#7FFD7F927FFF014A
(1791430719.877892) can0 0200FD02#0100000000000000
(1791430719.878052) can0 020002FD#7FFB806D7FFF014A
(1791430719.878241) can1 0200FD03#0100000000000000
(1791430719.878408) can1 020003FD#7FFF80AC7FFF0154
(1791430719.878442) can0 0200FD03#0100000000000000
(1791430719.878722) can0 020003FD#7FFF7F6F7FFF014A
(1791430719.878867) can1 0200FD04#0100000000000000
(1791430719.879041) can1 020004FD#7FFF80077FFF0140
(1791430719.879073) can0 0200FD04#0100000000000000
(1791430719.879237) can0 020004FD#7FF77FEF7FFF012C
(1791430719.879443) can1 0200FD05#0100000000000000
(1791430719.879663) can0 0200FD05#0100000000000000
(1791430719.879696) can1 020005FD#88E180167FFF0168
(1791430719.879840) can0 020005FD#7E7E7FE77FFF015E
(1791430719.880065) can1 0200FD06#0100000000000000
(1791430719.880227) can0 0200FD06#0100000000000000
(1791430719.880310) can1 020006FD#7FFF7FAF7FFF0168
(1791430719.880467) can0 020006FD#7FF97FD27FFF015E
(1791430719.880680) can1 0200FD07#0100000000000000
(1791430719.880814) can0 0200FD07#0100000000000000
(1791430719.880870) can1 020007FD#7FFF7FF67FFF014A
(1791430719.881059) can0 020007FD#7AF080007FFF0140
(1791430719.881269) can1 0200FD08#0100000000000000
(1791430719.881358) can0 0200FD08#0100000000000000
(1791430719.881393) can1 020008FD#828F80227FFF0140
(1791430719.881523) can0 020008FD#7EBD7FDA7FFF0136
(1791430719.959020) can1 0200FD01#0100000000000000
(1791430719.959238) can1 020001FD#7FFE7FA77FFF0136
(1791430719.959555) can1 0200FD02#0100000000000000
(1791430719.959662) can0 0200FD01#0100000000000000
(1791430719.959779) can1 020002FD#7FFE7FD07FFF014A
(1791430719.959836) can0 020001FD#7FAA7FDA7FFF0136
(1791430719.960176) can1 0200FD03#0100000000000000
(1791430719.960219) can0 0200FD02#0100000000000000
(1791430719.960415) can1 020003FD#7FFF80707FFF0154
(1791430719.960472) can0 020002FD#7FFC80227FFF014A
(1791430719.960804) can0 0200FD03#0100000000000000
(1791430719.960805) can1 0200FD04#0100000000000000
(1791430719.961015) can1 020004FD#7FFF7F1C7FFF0140
(1791430719.961051) can0 020003FD#7FFE7F667FFF014A
(1791430719.961371) can0 0200FD04#0100000000000000
(1791430719.961371) can1 0200FD05#0100000000000000
(1791430719.961678) can1 020005FD#88E1801E7FFF0168
(1791430719.961713) can0 020004FD#7FF77FA17FFF012C
(1791430719.962020) can1 0200FD06#0100000000000000
(1791430719.962020) can0 0200FD05#0100000000000000
(1791430719.962244) can1 020006FD#7FFF80107FFF0168
(1791430719.962248) can0 020005FD#7E7E80267FFF015E
(1791430719.962560) can1 0200FD07#0100000000000000
(1791430719.962561) can0 0200FD06#0100000000000000
(1791430719.962776) can1 020007FD#7FFF800D7FFF014A
(1791430719.962812) can0 020006FD#7FF97FFB7FFF015E
(1791430719.963164) can0 0200FD07#0100000000000000
(1791430719.963200) can1 0200FD08#0100000000000000
(1791430719.963336) can1 020008FD#828F80427FFF0140
(1791430719.963408) can0 020007FD#7AF07FF77FFF0140
(1791430719.963792) can0 0200FD08#0100000000000000
(1791430719.963879) can0 020008FD#7EBD800E7FFF0136
(1791430720.054144) can1 0200FD01#0100000000000000
(1791430720.054377) can1 020001FD#7FFE80767FFF0136
(1791430720.054743) can1 0200FD02#0100000000000000
(1791430720.054918) can1 020002FD#7FFE80367FFF014A
(1791430720.055313) can1 0200FD03#0100000000000000
(1791430720.055557) can1 020003FD#7FFF80087FFF0154
(1791430720.055686) can0 0200FD01#0100000000000000
(1791430720.055852) can0 020001FD#7FAA80267FFF0136
(1791430720.055935) can1 0200FD04#0100000000000000
(1791430720.056184) can1 020004FD#7FFF7FAF7FFF0140
(1791430720.056239) can0 0200FD02#0100000000000000
(1791430720.056501) can0 020002FD#7FFB7FF77FFF014A
(1791430720.056505) can1 0200FD05#0100000000000000
(1791430720.056734) can1 020005FD#88E280217FFF0168
(1791430720.056869) can0 0200FD03#0100000000000000
(1791430720.057047) can0 020003FD#7FFF80427FFF014A
(1791430720.057134) can1 0200FD06#0100000000000000
(1791430720.057394) can1 020006FD#7FFF7FF17FFF0168
(1791430720.057439) can0 0200FD04#0100000000000000
(1791430720.057743) can1 0200FD07#0100000000000000
(1791430720.057746) can0 020004FD#7FF77FAA7FFF012C
(1791430720.057912) can1 020007FD#800080147FFF014A
(1791430720.058063) can0 0200FD05#0100000000000000
(1791430720.058244) can0 020005FD#7E7E7FFD7FFF015E
(1791430720.058306) can1 0200FD08#0100000000000000
(1791430720.058455) can1 020008FD#828F800D7FFF0140
(1791430720.058736) can0 0200FD06#0100000000000000
(1791430720.058851) can0 020006FD#7FF980287FFF015E
(1791430720.059348) can0 0200FD07#0100000000000000
(1791430720.059526) can0 020007FD#7AF080097FFF0140
(1791430720.059939) can0 0200FD08#0100000000000000
(1791430720.060064) can0 020008FD#7EBD7FC77FFF0136
(1791430720.138058) can1 0200FD01#0100000000000000
(1791430720.138294) can1 020001FD#7FFE80037FFF0136
(1791430720.138747) can1 0200FD02#0100000000000000
(1791430720.138843) can1 020002FD#7FFE80B87FFF014A
(1791430720.138948) can0 0200FD01#0100000000000000
(1791430720.139123) can0 020001FD#7FAA80137FFF0136
(1791430720.139303) can1 0200FD03#0100000000000000
(1791430720.139487) can1 020003FD#7FFF7F857FFF0154
(1791430720.139521) can0 0200FD02#0100000000000000
(1791430720.139745) can0 020002FD#7FFB7FBE7FFF014A
(1791430720.139943) can1 0200FD04#0100000000000000
(1791430720.140135) can0 0200FD03#0100000000000000
(1791430720.140180) can1 020004FD#7FFF80327FFF0140
(1791430720.140314) can0 020003FD#7FFE7F1C7FFF014A
(1791430720.140508) can1 0200FD05#0100000000000000
(1791430720.140738) can1 020005FD#88E1800A7FFF0168
(1791430720.140772) can0 0200FD04#0100000000000000
(1791430720.140934) can0 020004FD#7FF780057FFF012C
(1791430720.141120) can1 0200FD06#0100000000000000
(1791430720.141322) can0 0200FD05#0100000000000000
(1791430720.141364) can1 020006FD#7FFF7FFD7FFF0168
(1791430720.141644) can0 020005FD#7E7E802D7FFF015E
(1791430720.141757) can1 0200FD07#0100000000000000
(1791430720.141935) can1 020007FD#80007FF37FFF014A
(1791430720.141969) can0 0200FD06#0100000000000000
(1791430720.142188) can0 020006FD#7FF97FD77FFF015E
(1791430720.142322) can1 0200FD08#0100000000000000
(1791430720.142484) can1 020008FD#828F7FFD7FFF0140
(1791430720.142517) can0 0200FD07#0100000000000000
(1791430720.142744) can0 020007FD#7AF07FE57FFF0140
(1791430720.143118) can0 0200FD08#0100000000000000
(1791430720.143260) can0 020008FD#7EBD80467FFF0136
(1791430720.218883) can1 0200FD01#0100000000000000
(1791430720.219060) can1 020001FD#7FFE802A7FFF0136
(1791430720.219139) can0 0200FD01#0100000000000000
(1791430720.219384) can0 020001FD#7FAA80537FFF0136
(1791430720.219449) can1 0200FD02#0100000000000000
(1791430720.219686) can1 020002FD#7FFE80357FFF014A
(1791430720.219746) can0 0200FD02#0100000000000000
(1791430720.219928) can0 020002FD#7FFB80237FFF014A
(1791430720.220066) can1 0200FD03#0100000000000000
(1791430720.220313) can1 020003FD#7FFF80027FFF0154
(1791430720.220351) can0 0200FD03#0100000000000000
(1791430720.220562) can0 020003FD#7FFF7F987FFF014A
(1791430720.220686) can1 0200FD04#0100000000000000
(1791430720.220876) can1 020004FD#7FFF7FA87FFF0140
(1791430720.220944) can0 0200FD04#0100000000000000
(1791430720.221126) can0 020004FD#7FF77FDA7FFF012C
(1791430720.221259) can1 0200FD05#0100000000000000
(1791430720.221499) can1 020005FD#88E2802D7FFF0168
(1791430720.221571) can0 0200FD05#0100000000000000
(1791430720.221732) can0 020005FD#7E7E7FF97FFF015E
(1791430720.221876) can1 0200FD06#0100000000000000
(1791430720.222055) can1 020006FD#7FFF7FB07FFF0168
(1791430720.222208) can0 0200FD06#0100000000000000
(1791430720.222435) can0 020006FD#7FFA800F7FFF015E
(1791430720.222438) can1 0200FD07#0100000000000000
(1791430720.222740) can1 020007FD#7FFF7FDA7FFF014A
(1791430720.222810) can0 0200FD07#0100000000000000
(1791430720.223039) can0 020007FD#7AF0801A7FFF0140
(1791430720.223065) can1 0200FD08#0100000000000000
(1791430720.223221) can1 020008FD#828F7FE27FFF0140
(1791430720.223366) can0 0200FD08#0100000000000000
(1791430720.223525) can0 020008FD#7EBD80267FFF0136
(1791430720.294025) can1 0200FD01#0100000000000000
(1791430720.294252) can1 020001FD#7FFE7F3D7FFF0136
(1791430720.294324) can0 0200FD01#0100000000000000
(1791430720.294573) can1 0200FD02#0100000000000000
(1791430720.294632) can0 020001FD#7FAA7FED7FFF0136
(1791430720.294791) can1 020002FD#7FFE7FB57FFF014A
(1791430720.294945) can0 0200FD02#0100000000000000
(1791430720.295182) can0 020002FD#7FFB7FD67FFF014A
(1791430720.295186) can1 0200FD03#0100000000000000
(1791430720.295437) can1 020003FD#7FFF80637FFF0154
(1791430720.295507) can0 0200FD03#0100000000000000
(1791430720.295733) can0 020003FD#7FFF803F7FFF014A
(1791430720.295813) can1 0200FD04#0100000000000000
(1791430720.296029) can1 020004FD#7FFF7FA67FFF0140
(1791430720.296132) can0 0200FD04#0100000000000000
(1791430720.296312) can0 020004FD#7FF7803C7FFF012C
(1791430720.296379) can1 0200FD05#0100000000000000
(1791430720.296699) can1 020005FD#88E180327FFF0168
(1791430720.296750) can0 0200FD05#0100000000000000
(1791430720.296931) can0 020005FD#7E7E80017FFF015E
(1791430720.297028) can1 0200FD06#0100000000000000
(1791430720.297252) can1 020006FD#7FFF7FFB7FFF0168
(1791430720.297313) can0 0200FD06#0100000000000000
(1791430720.297561) can0 020006FD#7FF97FDB7FFF015E
(1791430720.297591) can1 0200FD07#0100000000000000
(1791430720.297795) can1 020007FD#7FFF7FFE7FFF014A
(1791430720.297949) can0 0200FD07#0100000000000000
(1791430720.298121) can0 020007FD#7AF080107FFF0140
(1791430720.298170) can1 0200FD08#0100000000000000
(1791430720.298333) can1 020008FD#828F80097FFF0140
(1791430720.298507) can0 0200FD08#0100000000000000
(1791430720.298686) can0 020008FD#7EBD801F7FFF0136
(1791430720.374077) can1 0200FD01#0100000000000000
(1791430720.374324) can1 020001FD#7FFE80A87FFF0136
(1791430720.374690) can1 0200FD02#0100000000000000
(1791430720.374859) can1 020002FD#7FFE807B7FFF014A
(1791430720.375149) can0 0200FD01#0100000000000000
(1791430720.375234) can1 0200FD03#0100000000000000
(1791430720.375390) can0 020001FD#7FAA801B7FFF0136
(1791430720.375487) can1 020003FD#7FFF80827FFF0154
(1791430720.375762) can0 0200FD02#0100000000000000
(1791430720.375878) can1 0200FD04#0100000000000000
(1791430720.375941) can0 020002FD#7FFB80157FFF014A
(1791430720.376061) can1 020004FD#7FFF7FDE7FFF0140
(1791430720.376333) can0 0200FD03#0100000000000000
(1791430720.376452) can1 0200FD05#0100000000000000
(1791430720.376646) can0 020003FD#7FFF7FC67FFF014A
(1791430720.376750) can1 020005FD#88E2802E7FFF0168
(1791430720.376949) can0 0200FD04#0100000000000000
(1791430720.377069) can1 0200FD06#0100000000000000
(1791430720.377192) can0 020004FD#7FF77FE57FFF012C
(1791430720.377319) can1 020006FD#7FFF80077FFF0168
(1791430720.377515) can0 0200FD05#0100000000000000
(1791430720.377689) can1 0200FD07#0100000000000000
(1791430720.377752) can0 020005FD#7E7D804C7FFF015E
(1791430720.377880) can1 020007FD#800080087FFF014A
(1791430720.378136) can0 0200FD06#0100000000000000
(1791430720.378259) can1 0200FD08#0100000000000000
(1791430720.378378) can0 020006FD#7FF97FF47FFF015E
(1791430720.378414) can1 020008FD#828F7FF37FFF0140
(1791430720.378822) can0 0200FD07#0100000000000000
(1791430720.378929) can0 020007FD#7AF080057FFF0140
(1791430720.379400) can0 0200FD08#0100000000000000
(1791430720.379516) can0 020008FD#7EBD801F7FFF0136
(1791430720.458689) can1 0200FD01#0100000000000000
(1791430720.458863) can1 020001FD#7FFE80317FFF0136
(1791430720.459240) can1 0200FD02#0100000000000000
(1791430720.459380) can0 0200FD01#0100000000000000
(1791430720.459419) can1 020002FD#7FFE800E7FFF014A
(1791430720.459554) can0 020001FD#7FAA7FA47FFF0136
(1791430720.459825) can1 0200FD03#0100000000000000
(1791430720.460039) can1 020003FD#7FFF7FDA7FFF0154
(1791430720.460042) can0 0200FD02#0100000000000000
(1791430720.460256) can0 020002FD#7FFB7FA97FFF014A
(1791430720.460392) can1 0200FD04#0100000000000000
(1791430720.460580) can0 0200FD03#0100000000000000
(1791430720.460700) can1 020004FD#7FFF7F787FFF0140
(1791430720.460799) can0 020003FD#7FFE80007FFF014A
(1791430720.461038) can1 0200FD05#0100000000000000
(1791430720.461182) can0 0200FD04#0100000000000000
(1791430720.461255) can1 020005FD#88E17FBD7FFF0168
(1791430720.461446) can0 020004FD#7FF77FE97FFF012C
(1791430720.461587) can1 0200FD06#0100000000000000
(1791430720.461818) can1 020006FD#7FFF7FE77FFF0168
(1791430720.461852) can0 0200FD05#0100000000000000
(1791430720.461940) can0 020005FD#7E7E800F7FFF015E
(1791430720.462200) can1 0200FD07#0100000000000000
(1791430720.462389) can1 020007FD#7FFF7FD97FFF014A
(1791430720.462420) can0 0200FD06#0100000000000000
(1791430720.462702) can0 020006FD#7FF97FE97FFF015E
(1791430720.462821) can1 0200FD08#0100000000000000
(1791430720.462929) can1 020008FD#828F7FC07FFF0140
(1791430720.463012) can0 0200FD07#0100000000000000
(1791430720.463261) can0 020007FD#7AF080057FFF0140
(1791430720.463692) can0 0200FD08#0100000000000000
(1791430720.463755) can0 020008FD#7EBD801C7FFF0136
(1791430720.539145) can1 0200FD01#0100000000000000
(1791430720.539383) can1 020001FD#7FFE80667FFF0136
(1791430720.539764) can1 0200FD02#0100000000000000
(1791430720.539827) can0 0200FD01#0100000000000000
(1791430720.539939) can1 020002FD#7FFE80197FFF014A
(1791430720.540012) can0 020001FD#7FAA7F877FFF0136
(1791430720.540332) can1 0200FD03#0100000000000000
(1791430720.540393) can0 0200FD02#0100000000000000
(1791430720.540504) can1 020003FD#7FFF80A87FFF0154
(1791430720.540711) can0 020002FD#7FFC80997FFF014A
(1791430720.540957) can1 0200FD04#0100000000000000
(1791430720.541041) can0 0200FD03#0100000000000000
(1791430720.541206) can1 020004FD#7FFF80227FFF0140
(1791430720.541259) can0 020003FD#7FFE7FEF7FFF014A
(1791430720.541526) can1 0200FD05#0100000000000000
(1791430720.541585) can0 0200FD04#0100000000000000
(1791430720.541764) can1 020005FD#88E17FDD7FFF0168
(1791430720.541812) can0 020004FD#7FF77F697FFF012C
(1791430720.542149) can1 0200FD06#0100000000000000
(1791430720.542200) can0 0200FD05#0100000000000000
(1791430720.542332) can1 020006FD#7FFF7FF47FFF0168
(1791430720.542440) can0 020005FD#7E7E7FF57FFF015E
(1791430720.542825) can1 0200FD07#0100000000000000
(1791430720.542827) can0 0200FD06#0100000000000000
(1791430720.542936) can1 020007FD#7FFF7FEB7FFF014A
(1791430720.543058) can0 020006FD#7FF97FFD7FFF015E
(1791430720.543395) can1 0200FD08#0100000000000000
(1791430720.543461) can0 0200FD07#0100000000000000
(1791430720.543525) can1 020008FD#828F7FE27FFF0140
(1791430720.543657) can0 020007FD#7AF0803B7FFF0140
(1791430720.544024) can0 0200FD08#0100000000000000
(1791430720.544158) can0 020008FD#7EBD7FF67FFF0136
(1791430720.619414) can1 0200FD01#0100000000000000
(1791430720.619706) can1 020001FD#7FFE7FCC7FFF0136
(1791430720.620025) can1 0200FD02#0100000000000000
(1791430720.620260) can1 020002FD#7FFE800E7FFF014A
(1791430720.620299) can0 0200FD01#0100000000000000
(1791430720.620534) can0 020001FD#7FAA7FE97FFF0136
(1791430720.620586) can1 0200FD03#0100000000000000
(1791430720.620807) can1 020003FD#7FFF7FE67FFF0154
(1791430720.620891) can0 0200FD02#0100000000000000
(1791430720.621065) can0 020002FD#7FFB80217FFF014A
(1791430720.621205) can1 0200FD04#0100000000000000
(1791430720.621390) can1 020004FD#7FFF7FDF7FFF0140
(1791430720.621461) can0 0200FD03#0100000000000000
(1791430720.621713) can0 020003FD#7FFE7FCF7FFF014A
(1791430720.621829) can1 0200FD05#0100000000000000
(1791430720.622028) can1 020005FD#88E17FE97FFF0168
(1791430720.622087) can0 0200FD04#0100000000000000
(1791430720.622333) can0 020004FD#7FF77FB27FFF012C
(1791430720.622401) can1 0200FD06#0100000000000000
(1791430720.622705) can0 0200FD05#0100000000000000
(1791430720.622706) can1 020006FD#7FFF80157FFF0168
(1791430720.622893) can0 020005FD#7E7E7FF87FFF015E
(1791430720.623048) can1 0200FD07#0100000000000000
(1791430720.623291) can1 020007FD#7FFF7FE37FFF014A
(1791430720.623298) can0 0200FD06#0100000000000000
(1791430720.623540) can0 020006FD#7FF97FF37FFF015E
(1791430720.623606) can1 0200FD08#0100000000000000
(1791430720.623771) can1 020008FD#828F7FF87FFF0140
(1791430720.623895) can0 0200FD07#0100000000000000
(1791430720.624070) can0 020007FD#7AF080087FFF0140
(1791430720.624454) can0 0200FD08#0100000000000000
(1791430720.624652) can0 020008FD#7EBD7FDC7FFF0136
(1791430720.698263) can1 0200FD01#0100000000000000
(1791430720.698523) can1 020001FD#7FFE7FEC7FFF0136
(1791430720.698912) can1 0200FD02#0100000000000000
(1791430720.698915) can0 0200FD01#0100000000000000
(1791430720.699082) can1 020002FD#7FFE7F757FFF014A
(1791430720.699086) can0 020001FD#7FAA804F7FFF0136
(1791430720.699468) can1 0200FD03#0100000000000000
(1791430720.699510) can0 0200FD02#0100000000000000
(1791430720.699770) can1 020003FD#7FFF7FDD7FFF0154
(1791430720.699776) can0 020002FD#7FFB7FAC7FFF014A
(1791430720.700083) can1 0200FD04#0100000000000000
(1791430720.700117) can0 0200FD03#0100000000000000
(1791430720.700337) can1 020004FD#7FFF7F9B7FFF0140
(1791430720.700342) can0 020003FD#7FFE800F7FFF014A
(1791430720.700711) can1 0200FD05#0100000000000000
(1791430720.700713) can0 0200FD04#0100000000000000
(1791430720.700876) can1 020005FD#88E17FFE7FFF0168
(1791430720.700911) can0 020004FD#7FF7803C7FFF012C
(1791430720.701275) can0 0200FD05#0100000000000000
(1791430720.701311) can1 0200FD06#0100000000000000
(1791430720.701468) can1 020006FD#7FFF7FAD7FFF0168
(1791430720.701517) can0 020005FD#7E7E7FF37FFF015E
(1791430720.701894) can1 0200FD07#0100000000000000
(1791430720.701929) can0 0200FD06#0100000000000000
(1791430720.702070) can1 020007FD#7FFF7FF77FFF014A
(1791430720.702106) can0 020006FD#7FF97FF77FFF015E
(1791430720.702464) can1 0200FD08#0100000000000000
(1791430720.702504) can0 0200FD07#0100000000000000
(1791430720.702650) can1 020008FD#828F80337FFF0140
(1791430720.702759) can0 020007FD#7AF080267FFF0140
(1791430720.703140) can0 0200FD08#0100000000000000
(1791430720.703216) can0 020008FD#7EBD7FC07FFF0136
(1791430720.783166) can1 0200FD01#0100000000000000
(1791430720.783410) can1 020001FD#7FFE80307FFF0136
(1791430720.783769) can1 0200FD02#0100000000000000
(1791430720.783904) can0 0200FD01#0100000000000000
(1791430720.783946) can1 020002FD#7FFD7F277FFF014A
(1791430720.784085) can0 020001FD#7FAA80017FFF0136
(1791430720.784343) can1 0200FD03#0100000000000000
(1791430720.784471) can0 0200FD02#0100000000000000
