(1791429324.652550) can1 0200FD01#0100000000000000
(1791429324.652738) can1 020001FD#7FFD7F8C7FFF0136
(1791429324.652860) can0 0200FD01#0100000000000000
(1791429324.653135) can0 020001FD#7FAE7F247FFF0136
(1791429324.653167) can1 0200FD02#0100000000000000
(1791429324.653328) can1 020002FD#7FFE801E7FFF0140
(1791429324.653468) can0 0200FD02#0100000000000000
(1791429324.653708) can0 020002FD#7FFE7FC47FFF014A
(1791429324.653742) can1 0200FD03#0100000000000000
(1791429324.653902) can1 020003FD#7FFF7FF37FFF014A
(1791429324.654081) can0 0200FD03#0100000000000000
(1791429324.654277) can0 020003FD#7FFF7FC47FFF014A
(1791429324.654342) can1 0200FD04#0100000000000000
(1791429324.654522) can1 020004FD#7FFF80877FFF014A
(1791429324.654659) can0 0200FD04#0100000000000000
(1791429324.654836) can0 020004FD#7FF780147FFF0136
(1791429324.654912) can1 0200FD05#0100000000000000
(1791429324.655143) can1 020005FD#88E180107FFF015E
(1791429324.655279) can0 0200FD05#0100000000000000
(1791429324.655454) can0 020005FD#7E7C80107FFF015E
(1791429324.655534) can1 0200FD06#0100000000000000
(1791429324.655715) can1 020006FD#7FF77FDF7FFF015E
(1791429324.655847) can0 0200FD06#0100000000000000
(1791429324.656144) can0 020006FD#800A80207FFF015E
(1791429324.656178) can1 0200FD07#0100000000000000
(1791429324.656339) can1 020007FD#800280177FFF014A
(1791429324.656466) can0 0200FD07#0100000000000000
(1791429324.656650) can0 020007FD#7AE380087FFF0154
(1791429324.656720) can1 0200FD08#0100000000000000
(1791429324.656876) can1 020008FD#82907FD27FFF0140
(1791429324.657092) can0 0200FD08#0100000000000000
(1791429324.657186) can0 020008FD#7EBE800E7FFF0140
(1791429324.729343) can1 0200FD01#0100000000000000
(1791429324.729577) can1 020001FD#7FFD7F4D7FFF0136
(1791429324.729912) can1 0200FD02#0100000000000000
(1791429324.730145) can1 020002FD#7FFD7F457FFF0140
(1791429324.730538) can1 0200FD03#0100000000000000
(1791429324.730673) can0 0200FD01#0100000000000000
(1791429324.730779) can1 020003FD#800080937FFF0154
(1791429324.730913) can0 020001FD#7FAE7F9C7FFF0136
(1791429324.731147) can1 0200FD04#0100000000000000
(1791429324.731278) can0 0200FD02#0100000000000000
(1791429324.731328) can1 020004FD#7FFF80167FFF014A
(1791429324.731453) can0 020002FD#7FFE80537FFF014A
(1791429324.731724) can1 0200FD05#0100000000000000
(1791429324.731859) can0 0200FD03#0100000000000000
(1791429324.731902) can1 020005FD#88E17FD67FFF015E
(1791429324.732146) can0 020003FD#7FFF803C7FFF014A
(1791429324.732346) can1 0200FD06#0100000000000000
(1791429324.732467) can0 0200FD04#0100000000000000
(1791429324.732612) can1 020006FD#7FF780167FFF015E
(1791429324.732715) can0 020004FD#7FF77FD47FFF0136
(1791429324.732916) can1 0200FD07#0100000000000000
(1791429324.733085) can0 0200FD05#0100000000000000
(1791429324.733148) can1 020007FD#8002800E7FFF014A
(1791429324.733275) can0 020005FD#7E7B7FF37FFF015E
(1791429324.733538) can1 0200FD08#0100000000000000
(1791429324.733657) can0 0200FD06#0100000000000000
(1791429324.733693) can1 020008FD#829180197FFF0140
(1791429324.733900) can0 020006FD#800A7FF57FFF015E
(1791429324.734276) can0 0200FD07#0100000000000000
(1791429324.734450) can0 020007FD#7AE37FD77FFF0154
(1791429324.734851) can0 0200FD08#0100000000000000
(1791429324.735040) can0 020008FD#7EBE7FF57FFF0140
(1791429324.794225) can1 0200FD01#0100000000000000
(1791429324.794444) can1 020001FD#7FFD7FCB7FFF0136
(1791429324.794784) can1 0200FD02#0100000000000000
(1791429324.795099) can1 020002FD#7FFE80197FFF0140
(1791429324.795409) can1 0200FD03#0100000000000000
(1791429324.795649) can1 020003FD#7FFF80487FFF0154
(1791429324.795980) can1 0200FD04#0100000000000000
(1791429324.796156) can0 0200FD01#0100000000000000
(1791429324.796195) can1 020004FD#7FFF7FF07FFF014A
(1791429324.796282) can0 020001FD#7FAF7FDC7FFF0136
(1791429324.796640) can1 0200FD05#0100000000000000
(1791429324.796823) can1 020005FD#88E180007FFF015E
(1791429324.797284) can1 0200FD06#0100000000000000
(1791429324.797316) can0 0200FD02#0100000000000000
(1791429324.797407) can1 020006FD#7FF880157FFF015E
(1791429324.797472) can0 020002FD#7FFE80057FFF014A
(1791429324.797868) can0 0200FD03#0100000000000000
(1791429324.797871) can1 0200FD07#0100000000000000
(1791429324.798144) can1 020007FD#800280027FFF014A
(1791429324.798173) can0 020003FD#7FFF80347FFF014A
(1791429324.798475) can1 0200FD08#0100000000000000
(1791429324.798517) can0 0200FD04#0100000000000000
(1791429324.798621) can1 020008FD#829180097FFF0140
(1791429324.798694) can0 020004FD#7FF7809E7FFF0136
(1791429324.799155) can0 0200FD05#0100000000000000
(1791429324.799313) can0 020005FD#7E7C7FD27FFF015E
(1791429324.799768) can0 0200FD06#0100000000000000
(1791429324.799944) can0 020006FD#800A7FF97FFF015E
(1791429324.800347) can0 0200FD07#0100000000000000
(1791429324.800585) can0 020007FD#7AE380017FFF0154
(1791429324.800917) can0 0200FD08#0100000000000000
(1791429324.801093) can0 020008FD#7EBE7FAC7FFF0140
(1791429324.846603) can1 0200FD01#0100000000000000
(1791429324.846783) can1 020001FD#7FFD7FE27FFF0136
(1791429324.847288) can1 0200FD02#0100000000000000
(1791429324.847409) can1 020002FD#7FFE80517FFF0140
(1791429324.847854) can1 0200FD03#0100000000000000
(1791429324.848138) can1 020003FD#7FFF7F7C7FFF014A
(1791429324.848479) can1 0200FD04#0100000000000000
(1791429324.848544) can0 0200FD01#0100000000000000
(1791429324.848729) can1 020004FD#7FFF80D47FFF014A
(1791429324.848790) can0 020001FD#7FAF7FF87FFF0136
(1791429324.849098) can1 0200FD05#0100000000000000
(1791429324.849152) can0 0200FD02#0100000000000000
(1791429324.849289) can1 020005FD#88E17FEA7FFF015E
(1791429324.849332) can0 020002FD#7FFE7FE17FFF014A
(1791429324.849673) can1 0200FD06#0100000000000000
(1791429324.849725) can0 0200FD03#0100000000000000
(1791429324.849919) can1 020006FD#7FF77FFF7FFF015E
(1791429324.849965) can0 020003FD#7FFF80337FFF014A
(1791429324.850282) can1 0200FD07#0100000000000000
(1791429324.850347) can0 0200FD04#0100000000000000
(1791429324.850466) can1 020007FD#800280097FFF014A
(1791429324.850585) can0 020004FD#7FF77F827FFF0136
(1791429324.850859) can1 0200FD08#0100000000000000
(1791429324.850915) can0 0200FD05#0100000000000000
(1791429324.851044) can1 020008FD#8291800C7FFF0140
(1791429324.851153) can0 020005FD#7E7C804B7FFF015E
(1791429324.851531) can0 0200FD06#0100000000000000
(1791429324.851703) can0 020006FD#800A802B7FFF015E
(1791429324.852164) can0 0200FD07#0100000000000000
(1791429324.852336) can0 020007FD#7AE37FCB7FFF0154
(1791429324.852733) can0 0200FD08#0100000000000000
(1791429324.852882) can0 020008FD#7EBE80417FFF0140
(1791429324.901570) can1 0200FD01#0100000000000000
(1791429324.901821) can1 020001FD#7FFD80AC7FFF0136
(1791429324.902164) can1 0200FD02#0100000000000000
(1791429324.902351) can1 020002FD#7FFE80457FFF0140
(1791429324.902759) can1 0200FD03#0100000000000000
(1791429324.902938) can1 020003FD#7FFF80A77FFF0154
(1791429324.903302) can0 0200FD01#0100000000000000
(1791429324.903352) can1 0200FD04#0100000000000000
(1791429324.903483) can0 020001FD#7FAF80267FFF0136
(1791429324.903594) can1 020004FD#7FFF7FA17FFF014A
(1791429324.903860) can0 0200FD02#0100000000000000
(1791429324.903927) can1 0200FD05#0100000000000000
(1791429324.904088) can0 020002FD#7FFE803B7FFF014A
(1791429324.904139) can1 020005FD#88E1803D7FFF015E
(1791429324.904476) can0 0200FD03#0100000000000000
(1791429324.904541) can1 0200FD06#0100000000000000
(1791429324.904724) can0 020003FD#7FFF7FBF7FFF014A
(1791429324.904780) can1 020006FD#7FF780207FFF015E
(1791429324.905096) can0 0200FD04#0100000000000000
(1791429324.905157) can1 0200FD07#0100000000000000
(1791429324.905285) can0 020004FD#7FF77F587FFF0136
(1791429324.905334) can1 020007FD#800280237FFF014A
(1791429324.905675) can0 0200FD05#0100000000000000
(1791429324.905728) can1 0200FD08#0100000000000000
(1791429324.905862) can0 020005FD#7E7C80087FFF015E
(1791429324.905896) can1 020008FD#82917FEC7FFF0140
(1791429324.906286) can0 0200FD06#0100000000000000
(1791429324.906465) can0 020006FD#800A7FEA7FFF015E
(1791429324.906858) can0 0200FD07#0100000000000000
(1791429324.907156) can0 020007FD#7AE37FD37FFF014A
(1791429324.907532) can0 0200FD08#0100000000000000
(1791429324.907625) can0 020008FD#7EBE80097FFF0140
(1791429325.003298) can1 0200FD01#0100000000000000
(1791429325.003467) can1 020001FD#7FFD80077FFF0136
(1791429325.003861) can1 0200FD02#0100000000000000
(1791429325.004102) can1 020002FD#7FFE80327FFF0140
(1791429325.004477) can1 0200FD03#0100000000000000
(1791429325.004719) can1 020003FD#7FFF7F217FFF0154
(1791429325.004819) can0 0200FD01#0100000000000000
(1791429325.005087) can1 0200FD04#0100000000000000
(1791429325.005123) can0 020001FD#7FAF80917FFF0136
(1791429325.005289) can1 020004FD#7FFF7F697FFF014A
(1791429325.005454) can0 0200FD02#0100000000000000
(1791429325.005661) can0 020002FD#7FFE80417FFF014A
(1791429325.005666) can1 0200FD05#0100000000000000
(1791429325.005835) can1 020005FD#88E17FA07FFF015E
(1791429325.005974) can0 0200FD03#0100000000000000
(1791429325.006205) can0 020003FD#7FFF80217FFF014A
(1791429325.006292) can1 0200FD06#0100000000000000
(1791429325.006479) can1 020006FD#7FF77FCB7FFF015E
(1791429325.006598) can0 0200FD04#0100000000000000
(1791429325.006844) can0 020004FD#7FF77FEE7FFF0136
(1791429325.006874) can1 0200FD07#0100000000000000
(1791429325.007160) can1 020007FD#80027FD97FFF014A
(1791429325.007224) can0 0200FD05#0100000000000000
(1791429325.007442) can0 020005FD#7E7C802D7FFF015E
(1791429325.007477) can1 0200FD08#0100000000000000
(1791429325.007635) can1 020008FD#829180047FFF0140
(1791429325.007794) can0 0200FD06#0100000000000000
(1791429325.008108) can0 020006FD#800A7FE67FFF015E
(1791429325.008445) can0 0200FD07#0100000000000000
(1791429325.008661) can0 020007FD#7AE3801B7FFF0154
(1791429325.008981) can0 0200FD08#0100000000000000
(1791429325.009127) can0 020008FD#7EBE80367FFF0140
(1791429325.099364) can1 0200FD01#0100000000000000
(1791429325.099607) can1 020001FD#7FFD7FCD7FFF0136
(1791429325.099922) can1 0200FD02#0100000000000000
(1791429325.100160) can1 020002FD#7FFE804B7FFF0140
(1791429325.100579) can1 0200FD03#0100000000000000
(1791429325.100753) can0 0200FD01#0100000000000000
(1791429325.100789) can1 020003FD#7FFF7FAE7FFF0154
(1791429325.101048) can0 020001FD#7FAF807A7FFF0136
(1791429325.101170) can1 0200FD04#0100000000000000
(1791429325.101354) can1 020004FD#7FFF7FF57FFF014A
(1791429325.101388) can0 0200FD02#0100000000000000
(1791429325.101611) can0 020002FD#7FFE7FD07FFF014A
(1791429325.101741) can1 0200FD05#0100000000000000
(1791429325.101930) can0 0200FD03#0100000000000000
(1791429325.102052) can1 020005FD#88E1801A7FFF015E
(1791429325.102156) can0 020003FD#7FFF7F6A7FFF014A
(1791429325.102357) can1 0200FD06#0100000000000000
(1791429325.102538) can0 0200FD04#0100000000000000
(1791429325.102599) can1 020006FD#7FF77FE77FFF015E
(1791429325.102786) can0 020004FD#7FF77F987FFF0136
(1791429325.102926) can1 0200FD07#0100000000000000
(1791429325.103155) can1 020007FD#80027FE47FFF014A
(1791429325.103189) can0 0200FD05#0100000000000000
(1791429325.103336) can0 020005FD#7E7B800C7FFF015E
(1791429325.103547) can1 0200FD08#0100000000000000
(1791429325.103683) can1 020008FD#82917FEB7FFF0140
(1791429325.103731) can0 0200FD06#0100000000000000
(1791429325.103973) can0 020006FD#800A80477FFF015E
(1791429325.104354) can0 0200FD07#0100000000000000
(1791429325.104592) can0 020007FD#7AE480327FFF0154
(1791429325.104924) can0 0200FD08#0100000000000000
(1791429325.105105) can0 020008FD#7EBE80037FFF0140
(1791429325.194943) can1 0200FD01#0100000000000000
(1791429325.195161) can1 020001FD#7FFE802F7FFF0136
(1791429325.195540) can1 0200FD02#0100000000000000
(1791429325.195790) can1 020002FD#7FFE80087FFF0140
(1791429325.196230) can1 0200FD03#0100000000000000
(1791429325.196345) can1 020003FD#7FFF80397FFF014A
(1791429325.196446) can0 0200FD01#0100000000000000
(1791429325.196675) can0 020001FD#7FAF803E7FFF0136
(1791429325.196807) can1 0200FD04#0100000000000000
(1791429325.196997) can0 0200FD02#0100000000000000
(1791429325.197106) can1 020004FD#7FFF804D7FFF014A
(1791429325.197207) can0 020002FD#7FFE7F967FFF014A
(1791429325.197445) can1 0200FD05#0100000000000000
(1791429325.197578) can0 0200FD03#0100000000000000
(1791429325.197663) can1 020005FD#88E17FE67FFF015E
(1791429325.197818) can0 020003FD#7FFF80A27FFF014A
(1791429325.197998) can1 0200FD06#0100000000000000
(1791429325.198203) can1 020006FD#7FF77FF77FFF015E
(1791429325.198238) can0 0200FD04#0100000000000000
(1791429325.198340) can0 020004FD#7FF77F787FFF0136
(1791429325.198599) can1 0200FD07#0100000000000000
(1791429325.198795) can1 020007FD#80027FEA7FFF014A
(1791429325.198829) can0 0200FD05#0100000000000000
(1791429325.199107) can0 020005FD#7E7B80207FFF015E
(1791429325.199235) can1 0200FD08#0100000000000000
(1791429325.199337) can1 020008FD#8291800A7FFF0140
(1791429325.199419) can0 0200FD06#0100000000000000
(1791429325.199672) can0 020006FD#800A80027FFF015E
(1791429325.199984) can0 0200FD07#0100000000000000
(1791429325.200210) can0 020007FD#7AE380077FFF0154
(1791429325.200606) can0 0200FD08#0100000000000000
(1791429325.200768) can0 020008FD#7EBE80137FFF0140
(1791429325.248295) can1 0200FD01#0100000000000000
(1791429325.248475) can1 020001FD#7FFD80247FFF0136
(1791429325.248872) can1 0200FD02#0100000000000000
(1791429325.249168) can1 020002FD#7FFE7F137FFF0140
(1791429325.249174) can0 0200FD01#0100000000000000
(1791429325.249348) can0 020001FD#7FAF80797FFF0136
(1791429325.249488) can1 0200FD03#0100000000000000
(1791429325.249734) can0 0200FD02#0100000000000000
(1791429325.249737) can1 020003FD#7FFF7F8C7FFF0154
(1791429325.249974) can0 020002FD#7FFE802A7FFF014A
(1791429325.250093) can1 0200FD04#0100000000000000
(1791429325.250280) can1 020004FD#7FFF7F9F7FFF014A
(1791429325.250362) can0 0200FD03#0100000000000000
(1791429325.250610) can0 020003FD#7FFF80047FFF014A
(1791429325.250646) can1 0200FD05#0100000000000000
(1791429325.250894) can1 020005FD#88E17FEB7FFF015E
(1791429325.250930) can0 0200FD04#0100000000000000
(1791429325.251150) can0 020004FD#7FF77F5E7FFF0136
(1791429325.251229) can1 0200FD06#0100000000000000
(1791429325.251472) can1 020006FD#7FF77FDE7FFF015E
(1791429325.251542) can0 0200FD05#0100000000000000
(1791429325.251798) can0 020005FD#7E7B7FFF7FFF015E
(1791429325.251830) can1 0200FD07#0100000000000000
(1791429325.251977) can1 020007FD#80027FE47FFF014A
(1791429325.252173) can0 0200FD06#0100000000000000
(1791429325.252360) can0 020006FD#800A7FFC7FFF015E
(1791429325.252447) can1 0200FD08#0100000000000000
(1791429325.252598) can1 020008FD#82917FED7FFF0140
(1791429325.252798) can0 0200FD07#0100000000000000
(1791429325.252974) can0 020007FD#7AE37FEC7FFF0154
(1791429325.253454) can0 0200FD08#0100000000000000
(1791429325.253570) can0 020008FD#7EBE7FE47FFF0140
(1791429325.306608) can1 0200FD01#0100000000000000
(1791429325.306838) can1 020001FD#7FFD7FC47FFF0136
(1791429325.307233) can1 0200FD02#0100000000000000
(1791429325.307295) can0 0200FD01#0100000000000000
(1791429325.307448) can1 020002FD#7FFE810D7FFF0140
(1791429325.307540) can0 020001FD#7FAF7FF47FFF0136
(1791429325.307802) can1 0200FD03#0100000000000000
(1791429325.307868) can0 0200FD02#0100000000000000
(1791429325.307978) can1 020003FD#7FFF803B7FFF014A
(1791429325.308151) can0 020002FD#7FFE7FEA7FFF014A
(1791429325.308448) can1 0200FD04#0100000000000000
(1791429325.308487) can0 0200FD03#0100000000000000
(1791429325.308673) can0 020003FD#7FFF80097FFF014A
(1791429325.308708) can1 020004FD#7FFF7EF67FFF014A
(1791429325.308996) can1 0200FD05#0100000000000000
(1791429325.309104) can0 0200FD04#0100000000000000
(1791429325.309216) can1 020005FD#88E17FE97FFF015E
(1791429325.309301) can0 020004FD#7FF780167FFF0136
(1791429325.309606) can1 0200FD06#0100000000000000
(1791429325.309682) can0 0200FD05#0100000000000000
(1791429325.309861) can1 020006FD#7FF780047FFF015E
(1791429325.309924) can0 020005FD#7E7C80387FFF015E
(1791429325.310233) can1 0200FD07#0100000000000000
(1791429325.310295) can0 0200FD06#0100000000000000
(1791429325.310435) can1 020007FD#800280047FFF014A
(1791429325.310479) can0 020006FD#800A80227FFF015E
(1791429325.310796) can1 0200FD08#0100000000000000
(1791429325.310862) can0 0200FD07#0100000000000000
(1791429325.310966) can1 020008FD#829180187FFF0140
(1791429325.311169) can0 020007FD#7AE3801D7FFF0154
(1791429325.311543) can0 0200FD08#0100000000000000
(1791429325.311634) can0 020008FD#7EBE7FAE7FFF0140
(1791429325.400991) can1 0200FD01#0100000000000000
(1791429325.401211) can1 020001FD#7FFD808D7FFF0136
(1791429325.401629) can0 0200FD01#0100000000000000
(1791429325.401665) can1 0200FD02#0100000000000000
(1791429325.401841) can1 020002FD#7FFE80037FFF0140
(1791429325.401881) can0 020001FD#7FAF807D7FFF0136
(1791429325.402246) can1 0200FD03#0100000000000000
(1791429325.402246) can0 0200FD02#0100000000000000
(1791429325.402453) can0 020002FD#7FFE800E7FFF014A
(1791429325.402457) can1 020003FD#7FFF802D7FFF014A
(1791429325.402810) can1 0200FD04#0100000000000000
(1791429325.402853) can0 0200FD03#0100000000000000
(1791429325.403105) can1 020004FD#7FFF80087FFF014A
(1791429325.403141) can0 020003FD#7FFF80757FFF014A
(1791429325.403456) can1 0200FD05#0100000000000000
(1791429325.403457) can0 0200FD04#0100000000000000
(1791429325.403673) can1 020005FD#88E17FE57FFF015E
(1791429325.403680) can0 020004FD#7FF780EA7FFF0136
(1791429325.404000) can1 0200FD06#0100000000000000
(1791429325.404001) can0 0200FD05#0100000000000000
(1791429325.404221) can1 020006FD#7FF77FCB7FFF015E
(1791429325.404225) can0 020005FD#7E7B7FF57FFF015E
(1791429325.404612) can1 0200FD07#0100000000000000
(1791429325.404655) can0 0200FD06#0100000000000000
(1791429325.404794) can1 020007FD#80027FF67FFF014A
(1791429325.404829) can0 020006FD#800A7FDB7FFF015E
(1791429325.405240) can0 0200FD07#0100000000000000
(1791429325.405241) can1 0200FD08#0100000000000000
(1791429325.405342) can1 020008FD#82917FE87FFF0140
(1791429325.405428) can0 020007FD#7AE37FEF7FFF0154
(1791429325.405803) can0 0200FD08#0100000000000000
(1791429325.405958) can0 020008FD#7EBE80047FFF0140
(1791429325.501772) can1 0200FD01#0100000000000000
(1791429325.502061) can1 020001FD#7FFD7FC77FFF0136
(1791429325.502402) can1 0200FD02#0100000000000000
(1791429325.502600) can1 020002FD#7FFE80507FFF0140
(1791429325.502935) can1 0200FD03#0100000000000000
(1791429325.502984) can0 0200FD01#0100000000000000
(1791429325.503171) can1 020003FD#7FFF7F4B7FFF014A
(1791429325.503218) can0 020001FD#7FAF800E7FFF0136
(1791429325.503567) can1 0200FD04#0100000000000000
(1791429325.503600) can0 0200FD02#0100000000000000
(1791429325.503809) can1 020004FD#7FFF80577FFF014A
(1791429325.503843) can0 020002FD#7FFE80177FFF014A
(1791429325.504179) can0 0200FD03#0100000000000000
(1791429325.504180) can1 0200FD05#0100000000000000
(1791429325.504354) can1 020005FD#88E180127FFF015E
(1791429325.504389) can0 020003FD#7FFF81037FFF014A
(1791429325.504754) can0 0200FD04#0100000000000000
(1791429325.504756) can1 0200FD06#0100000000000000
(1791429325.505070) can1 020006FD#7FF7800A7FFF015E
(1791429325.505074) can0 020004FD#7FF77FD17FFF0136
(1791429325.505373) can0 0200FD05#0100000000000000
(1791429325.505375) can1 0200FD07#0100000000000000
(1791429325.505605) can0 020005FD#7E7B7FD17FFF015E
(1791429325.505640) can1 020007FD#800280167FFF014A
(1791429325.505942) can0 0200FD06#0100000000000000
(1791429325.505945) can1 0200FD08#0100000000000000
(1791429325.506133) can1 020008FD#82917FF57FFF0140
(1791429325.506173) can0 020006FD#800A7FCE7FFF015E
(1791429325.506555) can0 0200FD07#0100000000000000
(1791429325.506801) can0 020007FD#7AE37FD67FFF0154
(1791429325.507184) can0 0200FD08#0100000000000000
(1791429325.507279) can0 020008FD#7EBE7FD17FFF0140
(1791429325.559243) can1 0200FD01#0100000000000000
(1791429325.559466) can1 020001FD#7FFD80777FFF0136
(1791429325.559810) can1 0200FD02#0100000000000000
(1791429325.560125) can1 020002FD#7FFE7FCC7FFF0140
(1791429325.560429) can1 0200FD03#0100000000000000
(1791429325.560675) can1 020003FD#7FFF7F4D7FFF0154
(1791429325.561006) can1 0200FD04#0100000000000000
(1791429325.561221) can1 020004FD#7FFF80147FFF014A
(1791429325.561602) can1 0200FD05#0100000000000000
(1791429325.561637) can0 0200FD01#0100000000000000
(1791429325.561849) can1 020005FD#88E180017FFF015E
(1791429325.561884) can0 020001FD#7FAE805A7FFF0136
(1791429325.562250) can1 0200FD06#0100000000000000
(1791429325.562251) can0 0200FD02#0100000000000000
(1791429325.562458) can1 020006FD#7FF77FF57FFF015E
(1791429325.562461) can0 020002FD#7FFE804F7FFF014A
(1791429325.562819) can1 0200FD07#0100000000000000
(1791429325.562853) can0 0200FD03#0100000000000000
(1791429325.563124) can1 020007FD#80027FF87FFF014A
(1791429325.563161) can0 020003FD#7FFF80847FFF014A
(1791429325.563461) can0 0200FD04#0100000000000000
(1791429325.563462) can1 0200FD08#0100000000000000
(1791429325.563598) can1 020008FD#82917FF97FFF0140
(1791429325.563676) can0 020004FD#7FF77F097FFF0136
(1791429325.564004) can0 0200FD05#0100000000000000
(1791429325.564224) can0 020005FD#7E7B7FE37FFF015E
(1791429325.564616) can0 0200FD06#0100000000000000
(1791429325.564796) can0 020006FD#800A7FFE7FFF015E
(1791429325.565182) can0 0200FD07#0100000000000000
(1791429325.565357) can0 020007FD#7AE380097FFF014A
(1791429325.565754) can0 0200FD08#0100000000000000
(1791429325.565865) can0 020008FD#7EBE80167FFF0140
(1791429325.610824) can1 0200FD01#0100000000000000
(1791429325.611114) can1 020001FD#7FFD802F7FFF0136
(1791429325.611430) can1 0200FD02#0100000000000000
(1791429325.611680) can1 020002FD#7FFE80277FFF0140
(1791429325.611993) can1 0200FD03#0100000000000000
(1791429325.612119) can0 0200FD01#0100000000000000
(1791429325.612224) can1 020003FD#7FFF7F067FFF0154
(1791429325.612308) can0 020001FD#7FAF804C7FFF0136
(1791429325.612622) can1 0200FD04#0100000000000000
(1791429325.612692) can0 0200FD02#0100000000000000
(1791429325.612854) can1 020004FD#7FFF7FFB7FFF014A
(1791429325.612889) can0 020002FD#7FFE7FD17FFF014A
(1791429325.613251) can1 0200FD05#0100000000000000
(1791429325.613312) can0 0200FD03#0100000000000000
(1791429325.613459) can1 020005FD#88E180007FFF015E
(1791429325.613495) can0 020003FD#7FFF7F8B7FFF014A
(1791429325.613815) can1 0200FD06#0100000000000000
(1791429325.613880) can0 0200FD04#0100000000000000
(1791429325.614117) can1 020006FD#7FF880327FFF015E
(1791429325.614172) can0 020004FD#7FF780D27FFF0136
(1791429325.614458) can1 0200FD07#0100000000000000
(1791429325.614499) can0 0200FD05#0100000000000000
(1791429325.614678) can1 020007FD#800280147FFF014A
(1791429325.614713) can0 020005FD#7E7B80187FFF015E
(1791429325.615011) can1 0200FD08#0100000000000000
(1791429325.615120) can0 0200FD06#0100000000000000
(1791429325.615159) can1 020008FD#8291803B7FFF0140
(1791429325.615306) can0 020006FD#800A7FD17FFF015E
(1791429325.615687) can0 0200FD07#0100000000000000
(1791429325.615859) can0 020007FD#7AE37FDF7FFF0154
(1791429325.616309) can0 0200FD08#0100000000000000
(1791429325.616460) can0 020008FD#7EBE7FEE7FFF0140
(1791429325.699633) can1 0200FD01#0100000000000000
(1791429325.699810) can1 020001FD#7FFD80017FFF0136
(1791429325.700247) can1 0200FD02#0100000000000000
(1791429325.700375) can0 0200FD01#0100000000000000
(1791429325.700461) can1 020002FD#7FFE800B7FFF0140
(1791429325.700614) can0 020001FD#7FAE7FCB7FFF0136
(1791429325.700824) can1 0200FD03#0100000000000000
(1791429325.700947) can0 0200FD02#0100000000000000
(1791429325.701130) can1 020003FD#7FFF80687FFF014A
(1791429325.701174) can0 020002FD#7FFE7FC87FFF014A
(1791429325.701460) can1 0200FD04#0100000000000000
(1791429325.701558) can0 0200FD03#0100000000000000
(1791429325.701681) can1 020004FD#7FFF7FC97FFF014A
(1791429325.701741) can0 020003FD#7FFF804B7FFF014A
(1791429325.702121) can1 0200FD05#0100000000000000
(1791429325.702187) can0 0200FD04#0100000000000000
(1791429325.702227) can1 020005FD#88E1800A7FFF015E
(1791429325.702367) can0 020004FD#7FF780097FFF0136
(1791429325.702686) can1 0200FD06#0100000000000000
(1791429325.702759) can0 0200FD05#0100000000000000
(1791429325.702931) can1 020006FD#7FF77FDA7FFF015E
(1791429325.703075) can0 020005FD#7E7B80147FFF015E
(1791429325.703306) can1 0200FD07#0100000000000000
(1791429325.703375) can0 0200FD06#0100000000000000
(1791429325.703488) can1 020007FD#80027FD67FFF014A
(1791429325.703623) can0 020006FD#800A7FD97FFF015E
(1791429325.703880) can1 0200FD08#0100000000000000
(1791429325.703941) can0 0200FD07#0100000000000000
(1791429325.704060) can1 020008FD#829180377FFF0140
(1791429325.704178) can0 020007FD#7AE37FBB7FFF0154
(1791429325.704555) can0 0200FD08#0100000000000000
(1791429325.704694) can0 020008FD#7EBE80257FFF0140
(1791429325.787969) can1 0200FD01#0100000000000000
(1791429325.788225) can1 020001FD#7FFD7F527FFF0136
(1791429325.788532) can1 0200FD02#0100000000000000
(1791429325.788773) can1 020002FD#7FFE80237FFF0140
(1791429325.789123) can1 0200FD03#0100000000000000
(1791429325.789313) can1 020003FD#7FFF80457FFF014A
(1791429325.789317) can0 0200FD01#0100000000000000
(1791429325.789466) can0 020001FD#7FAF803B7FFF0136
(1791429325.789699) can1 0200FD04#0100000000000000
(1791429325.789895) can0 0200FD02#0100000000000000
(1791429325.789950) can1 020004FD#7FFF80217FFF014A
(1791429325.790168) can0 020002FD#7FFE80557FFF014A
(1791429325.790309) can1 0200FD05#0100000000000000
(1791429325.790485) can1 020005FD#88E17FEC7FFF015E
(1791429325.790519) can0 0200FD03#0100000000000000
(1791429325.790691) can0 020003FD#800080497FFF014A
(1791429325.790882) can1 0200FD06#0100000000000000
(1791429325.791129) can0 0200FD04#0100000000000000
(1791429325.791169) can1 020006FD#7FF780457FFF015E
(1791429325.791313) can0 020004FD#7FF77F7D7FFF0136
(1791429325.791498) can1 0200FD07#0100000000000000
(1791429325.791689) can1 020007FD#8002801D7FFF014A
(1791429325.791723) can0 0200FD05#0100000000000000
(1791429325.791951) can0 020005FD#7E7C80147FFF015E
(1791429325.792123) can1 0200FD08#0100000000000000
(1791429325.792246) can1 020008FD#829180187FFF0140
(1791429325.792309) can0 0200FD06#0100000000000000
(1791429325.792491) can0 020006FD#800A800A7FFF015E
(1791429325.792876) can0 0200FD07#0100000000000000
(1791429325.793181) can0 020007FD#7AE3801B7FFF0154
(1791429325.793555) can0 0200FD08#0100000000000000
(1791429325.793665) can0 020008FD#7EBE7FF77FFF0140
(1791429325.887779) can1 0200FD01#0100000000000000
(1791429325.887951) can1 020001FD#7FFD804A7FFF0136
(1791429325.888375) can1 0200FD02#0100000000000000
(1791429325.888619) can1 020002FD#7FFE80247FFF0140
(1791429325.888955) can1 0200FD03#0100000000000000
(1791429325.889188) can1 020003FD#7FFF7FF87FFF014A
(1791429325.889382) can0 0200FD01#0100000000000000
(1791429325.889575) can1 0200FD04#0100000000000000
(1791429325.889617) can0 020001FD#7FAF80187FFF0136
(1791429325.889814) can1 020004FD#7FFF7FD87FFF014A
(1791429325.889947) can0 0200FD02#0100000000000000
(1791429325.890182) can0 020002FD#7FFE7F877FFF014A
(1791429325.890217) can1 0200FD05#0100000000000000
(1791429325.890362) can1 020005FD#88E17F977FFF015E
(1791429325.890570) can0 0200FD03#0100000000000000
(1791429325.890760) can1 0200FD06#0100000000000000
(1791429325.890819) can0 020003FD#7FFF7FE87FFF014A
(1791429325.891074) can1 020006FD#7FF7801D7FFF015E
(1791429325.891186) can0 0200FD04#0100000000000000
(1791429325.891366) can0 020004FD#7FF7800A7FFF0136
(1791429325.891401) can1 0200FD07#0100000000000000
(1791429325.891622) can1 020007FD#800280067FFF014A
(1791429325.891753) can0 0200FD05#0100000000000000
(1791429325.891934) can0 020005FD#7E7B80307FFF015E
(1791429325.891968) can1 0200FD08#0100000000000000
(1791429325.892153) can1 020008FD#829180207FFF0140
(1791429325.892387) can0 0200FD06#0100000000000000
(1791429325.892627) can0 020006FD#800A80077FFF015E
(1791429325.892952) can0 0200FD07#0100000000000000
(1791429325.893185) can0 020007FD#7AE37FCE7FFF014A
(1791429325.893560) can0 0200FD08#0100000000000000
(1791429325.893702) can0 020008FD#7EBE7FE77FFF0140
(1791429325.983265) can1 0200FD01#0100000000000000
(1791429325.983471) can1 020001FD#7FFD80107FFF0136
(1791429325.983827) can1 0200FD02#0100000000000000
(1791429325.984123) can1 020002FD#7FFE80937FFF0140
(1791429325.984447) can1 0200FD03#0100000000000000
(1791429325.984687) can1 020003FD#7FFF7FBD7FFF014A
(1791429325.985005) can1 0200FD04#0100000000000000
(1791429325.985234) can1 020004FD#7FFF7FDC7FFF014A
(1791429325.985622) can1 0200FD05#0100000000000000
(1791429325.985875) can1 020005FD#88E1802D7FFF015E
(1791429325.985939) can0 0200FD01#0100000000000000
(1791429325.986194) can0 020001FD#7FAF80027FFF0136
(1791429325.986264) can1 0200FD06#0100000000000000
(1791429325.986366) can1 020006FD#7FF77FB57FFF015E
(1791429325.986567) can0 0200FD02#0100000000000000
(1791429325.986814) can0 020002FD#7FFE7FCF7FFF014A
(1791429325.986847) can1 0200FD07#0100000000000000
(1791429325.987136) can1 020007FD#800280317FFF014A
(1791429325.987191) can0 0200FD03#0100000000000000
(1791429325.987379) can0 020003FD#7FFF80C67FFF014A
(1791429325.987482) can1 0200FD08#0100000000000000
(1791429325.987598) can1 020008FD#82917FDF7FFF0140
(1791429325.987827) can0 0200FD04#0100000000000000
(1791429325.988009) can0 020004FD#7FF77F697FFF0136
(1791429325.988458) can0 0200FD05#0100000000000000
(1791429325.988698) can0 020005FD#7E7B7FF17FFF015E
(1791429325.989008) can0 0200FD06#0100000000000000
(1791429325.989234) can0 020006FD#800A802F7FFF015E
(1791429325.989629) can0 0200FD07#0100000000000000
(1791429325.989870) can0 020007FD#7AE380087FFF0154
(1791429325.990259) can0 0200FD08#0100000000000000
(1791429325.990361) can0 020008FD#7EBE80047FFF0140
(1791429326.034317) can1 0200FD01#0100000000000000
(1791429326.034495) can1 020001FD#7FFD80547FFF0136
(1791429326.034886) can1 0200FD02#0100000000000000
(1791429326.035038) can0 0200FD01#0100000000000000
(1791429326.035175) can0 020001FD#7FAF805C7FFF0136
(1791429326.035209) can1 020002FD#7FFE7F887FFF0140
(1791429326.035511) can1 0200FD03#0100000000000000
(1791429326.035636) can0 0200FD02#0100000000000000
(1791429326.035686) can1 020003FD#7FFF80427FFF0154
(1791429326.035876) can0 020002FD#7FFE7FD37FFF014A
(1791429326.036129) can1 0200FD04#0100000000000000
(1791429326.036256) can0 0200FD03#0100000000000000
(1791429326.036317) can1 020004FD#7FFF80957FFF014A
(1791429326.036470) can0 020003FD#7FFF7FF77FFF014A
(1791429326.036704) can1 0200FD05#0100000000000000
(1791429326.036827) can0 0200FD04#0100000000000000
(1791429326.036946) can1 020005FD#88E180087FFF015E
(1791429326.037140) can0 020004FD#7FF7809B7FFF0136
(1791429326.037325) can1 0200FD06#0100000000000000
(1791429326.037482) can0 0200FD05#0100000000000000
(1791429326.037511) can1 020006FD#7FF77FE47FFF015E
(1791429326.037690) can0 020005FD#7E7B80357FFF015E
(1791429326.037896) can1 0200FD07#0100000000000000
(1791429326.038020) can0 0200FD06#0100000000000000
(1791429326.038188) can1 020007FD#80027FCA7FFF014A
(1791429326.038234) can0 020006FD#800A802E7FFF015E
(1791429326.038514) can1 0200FD08#0100000000000000
(1791429326.038627) can0 0200FD07#0100000000000000
(1791429326.038663) can1 020008FD#829180137FFF0140
(1791429326.038865) can0 020007FD#7AE37FE17FFF0154
(1791429326.039263) can0 0200FD08#0100000000000000
(1791429326.039354) can0 020008FD#7EBE80077FFF0140
(1791429326.105257) can1 0200FD01#0100000000000000
(1791429326.105477) can1 020001FD#7FFD800C7FFF0136
(1791429326.105829) can1 0200FD02#0100000000000000
(1791429326.106135) can1 020002FD#7FFE80727FFF0140
(1791429326.106475) can1 0200FD03#0100000000000000
(1791429326.106582) can0 0200FD01#0100000000000000
(1791429326.106704) can1 020003FD#7FFF80BD7FFF0154
(1791429326.106838) can0 020001FD#7FAF7FA67FFF0136
(1791429326.107024) can1 0200FD04#0100000000000000
(1791429326.107204) can0 0200FD02#0100000000000000
(1791429326.107239) can1 020004FD#7FFF80687FFF014A
(1791429326.107379) can0 020002FD#7FFE800C7FFF014A
(1791429326.107647) can1 0200FD05#0100000000000000
(1791429326.107781) can0 0200FD03#0100000000000000
(1791429326.107824) can1 020005FD#88E180167FFF015E
(1791429326.108076) can0 020003FD#7FFF804A7FFF014A
(1791429326.108260) can1 0200FD06#0100000000000000
(1791429326.108388) can0 0200FD04#0100000000000000
(1791429326.108474) can1 020006FD#7FF7801C7FFF015E
(1791429326.108624) can0 020004FD#7FF8809D7FFF0136
(1791429326.108829) can1 0200FD07#0100000000000000
(1791429326.108957) can0 0200FD05#0100000000000000
(1791429326.109074) can1 020007FD#80027FBF7FFF014A
(1791429326.109195) can0 020005FD#7E7C80297FFF015E
(1791429326.109480) can1 0200FD08#0100000000000000
(1791429326.109584) can0 0200FD06#0100000000000000
(1791429326.109620) can1 020008FD#8291802F7FFF0140
(1791429326.109820) can0 020006FD#800A7FFA7FFF015E
(1791429326.110200) can0 0200FD07#0100000000000000
(1791429326.110375) can0 020007FD#7AE380237FFF0154
(1791429326.110770) can0 0200FD08#0100000000000000
(1791429326.110906) can0 020008FD#7EBE7FE37FFF0140
(1791429326.196326) can1 0200FD01#0100000000000000
(1791429326.196504) can1 020001FD#7FFD7FB37FFF0136
(1791429326.196769) can0 0200FD01#0100000000000000
(1791429326.196912) can1 0200FD02#0100000000000000
(1791429326.197016) can0 020001FD#7FAE7F027FFF0136
(1791429326.197154) can1 020002FD#7FFE7FE67FFF0140
(1791429326.197399) can0 0200FD02#0100000000000000
(1791429326.197525) can1 0200FD03#0100000000000000
(1791429326.197642) can0 020002FD#7FFE80337FFF014A
(1791429326.197767) can1 020003FD#7FFF7FC77FFF014A
(1791429326.197955) can0 0200FD03#0100000000000000
(1791429326.198124) can1 0200FD04#0100000000000000
(1791429326.198180) can0 020003FD#7FFF802D7FFF014A
(1791429326.198305) can1 020004FD#7FFF7FBF7FFF014A
(1791429326.198575) can0 0200FD04#0100000000000000
(1791429326.198696) can1 0200FD05#0100000000000000
(1791429326.198814) can0 020004FD#7FF7800B7FFF0136
(1791429326.198877) can1 020005FD#88E1800F7FFF015E
(1791429326.199190) can0 0200FD05#0100000000000000
(1791429326.199322) can1 0200FD06#0100000000000000
(1791429326.199374) can0 020005FD#7E7B7FFF7FFF015E
(1791429326.199497) can1 020006FD#7FF780017FFF015E
(1791429326.199818) can0 0200FD06#0100000000000000
(1791429326.199893) can1 0200FD07#0100000000000000
(1791429326.199989) can0 020006FD#800A7FEC7FFF015E
(1791429326.200177) can1 020007FD#800280147FFF014A
(1791429326.200395) can0 0200FD07#0100000000000000
(1791429326.200516) can1 0200FD08#0100000000000000
(1791429326.200569) can0 020007FD#7AE37FFF7FFF0154
(1791429326.200655) can1 020008FD#82917FF77FFF0140
(1791429326.200956) can0 0200FD08#0100000000000000
(1791429326.201135) can0 020008FD#7EBE80177FFF0140
(1791429326.245861) can1 0200FD01#0100000000000000
(1791429326.246144) can1 020001FD#7FFD80107FFF0136
(1791429326.246405) can0 0200FD01#0100000000000000
(1791429326.246477) can1 0200FD02#0100000000000000
(1791429326.246571) can0 020001FD#7FAE7F947FFF0136
(1791429326.246700) can1 020002FD#7FFE7F647FFF0140
(1791429326.247024) can1 0200FD03#0100000000000000
(1791429326.247236) can1 020003FD#7FFF80427FFF014A
(1791429326.247639) can1 0200FD04#0100000000000000
(1791429326.247693) can0 0200FD02#0100000000000000
(1791429326.247884) can1 020004FD#7FFF80477FFF014A
(1791429326.247950) can0 020002FD#7FFE7F887FFF014A
(1791429326.248263) can1 0200FD05#0100000000000000
(1791429326.248323) can0 0200FD03#0100000000000000
(1791429326.248451) can1 020005FD#88E1801D7FFF015E
(1791429326.248512) can0 020003FD#7FFF7F667FFF014A
(1791429326.248829) can1 0200FD06#0100000000000000
(1791429326.248894) can0 0200FD04#0100000000000000
(1791429326.249134) can1 020006FD#7FF77FCD7FFF015E
(1791429326.249194) can0 020004FD#7FF780D27FFF0136
(1791429326.249482) can1 0200FD07#0100000000000000
(1791429326.249521) can0 0200FD05#0100000000000000
(1791429326.249704) can1 020007FD#8002800A7FFF014A
(1791429326.249763) can0 020005FD#7E7B80087FFF015E
(1791429326.250031) can1 0200FD08#0100000000000000
(1791429326.250141) can0 0200FD06#0100000000000000
(1791429326.250180) can1 020008FD#82917FAE7FFF0140
(1791429326.250330) can0 020006FD#800A7FDB7FFF015E
(1791429326.250697) can0 0200FD07#0100000000000000
(1791429326.250954) can0 020007FD#7AE4801C7FFF014A
(1791429326.251327) can0 0200FD08#0100000000000000
(1791429326.251418) can0 020008FD#7EBE7FD77FFF0140
(1791429326.338661) can1 0200FD01#0100000000000000
(1791429326.338897) can1 020001FD#7FFD7FE67FFF0136
(1791429326.339265) can1 0200FD02#0100000000000000
(1791429326.339480) can1 020002FD#7FFE800A7FFF0140
(1791429326.339838) can1 0200FD03#0100000000000000
(1791429326.340138) can1 020003FD#7FFF80637FFF0154
(1791429326.340267) can0 0200FD01#0100000000000000
(1791429326.340489) can0 020001FD#7FAE7F7A7FFF0136
(1791429326.340491) can1 0200FD04#0100000000000000
(1791429326.340705) can1 020004FD#7FFF7F727FFF014A
(1791429326.340833) can0 0200FD02#0100000000000000
(1791429326.341019) can1 0200FD05#0100000000000000
(1791429326.341153) can0 020002FD#7FFD7F937FFF014A
(1791429326.341240) can1 020005FD#88E17FCC7FFF015E
(1791429326.341482) can0 0200FD03#0100000000000000
(1791429326.341637) can1 0200FD06#0100000000000000
(1791429326.341698) can0 020003FD#7FFF7F767FFF014A
(1791429326.341823) can1 020006FD#7FF77FE57FFF015E
(1791429326.342024) can0 0200FD04#0100000000000000
(1791429326.342246) can0 020004FD#7FF77FC27FFF0136
(1791429326.342279) can1 0200FD07#0100000000000000
(1791429326.342461) can1 020007FD#8002803E7FFF014A
(1791429326.342634) can0 0200FD05#0100000000000000
(1791429326.342810) can0 020005FD#7E7B7FCA7FFF015E
(1791429326.342901) can1 0200FD08#0100000000000000
(1791429326.342998) can1 020008FD#82907FA87FFF0140
(1791429326.343264) can0 0200FD06#0100000000000000
(1791429326.343480) can0 020006FD#800A7FF87FFF015E
(1791429326.343841) can0 0200FD07#0100000000000000
(1791429326.344080) can0 020007FD#7AE37FE17FFF0154
(1791429326.344457) can0 0200FD08#0100000000000000
(1791429326.344646) can0 020008FD#7EBE7FFE7FFF0140
(1791429326.405267) can1 0200FD01#0100000000000000
(1791429326.405486) can1 020001FD#7FFD7F8A7FFF0136
(1791429326.405789) can0 0200FD01#0100000000000000
(1791429326.405839) can1 0200FD02#0100000000000000
(1791429326.406086) can0 020001FD#7FAF80057FFF0136
(1791429326.406135) can1 020002FD#7FFE80177FFF0140
(1791429326.406397) can0 0200FD02#0100000000000000
(1791429326.406487) can1 0200FD03#0100000000000000
(1791429326.406629) can0 020002FD#7FFE80257FFF014A
(1791429326.406664) can1 020003FD#7FFF805A7FFF014A
(1791429326.406966) can0 0200FD03#0100000000000000
(1791429326.407032) can1 0200FD04#0100000000000000
(1791429326.407196) can0 020003FD#7FFF7FD37FFF014A
(1791429326.407246) can1 020004FD#7FFF7F487FFF014A
(1791429326.407577) can0 0200FD04#0100000000000000
(1791429326.407630) can1 0200FD05#0100000000000000
(1791429326.407753) can0 020004FD#7FF77FB97FFF0136
(1791429326.407804) can1 020005FD#88E1800D7FFF015E
(1791429326.408208) can0 0200FD05#0100000000000000
(1791429326.408209) can1 0200FD06#0100000000000000
(1791429326.408389) can0 020005FD#7E7B7FE37FFF015E
(1791429326.408482) can1 020006FD#7FF77FB97FFF015E
(1791429326.408779) can0 0200FD06#0100000000000000
(1791429326.408780) can1 0200FD07#0100000000000000
(1791429326.409080) can0 020006FD#800A7FDE7FFF015E
(1791429326.409115) can1 020007FD#80027FE57FFF014A
(1791429326.409401) can0 0200FD07#0100000000000000
(1791429326.409484) can1 0200FD08#0100000000000000
(1791429326.409569) can1 020008FD#82917FF77FFF0140
(1791429326.409645) can0 020007FD#7AE3804B7FFF0154
(1791429326.409968) can0 0200FD08#0100000000000000
(1791429326.410140) can0 020008FD#7EBE80457FFF0140
(1791429326.502926) can1 0200FD01#0100000000000000
(1791429326.503188) can1 020001FD#7FFD80227FFF0136
(1791429326.503578) can1 0200FD02#0100000000000000
(1791429326.503758) can1 020002FD#7FFE7FC27FFF0140
(1791429326.504215) can1 0200FD03#0100000000000000
(1791429326.504277) can0 0200FD01#0100000000000000
(1791429326.504395) can1 020003FD#7FFF7F9F7FFF014A
(1791429326.504492) can0 020001FD#7FAF7FD57FFF0136
(1791429326.504791) can1 0200FD04#0100000000000000
(1791429326.504841) can0 0200FD02#0100000000000000
(1791429326.505109) can1 020004FD#7FFF80107FFF014A
(1791429326.505144) can0 020002FD#7FFE80667FFF014A
(1791429326.505394) can1 0200FD05#0100000000000000
(1791429326.505485) can0 0200FD03#0100000000000000
(1791429326.505630) can1 020005FD#88E17FFB7FFF015E
(1791429326.505714) can0 020003FD#7FFF80B97FFF014A
(1791429326.505959) can1 0200FD06#0100000000000000
(1791429326.506027) can0 0200FD04#0100000000000000
(1791429326.506199) can1 020006FD#7FF780197FFF015E
(1791429326.506245) can0 020004FD#7FF77FDA7FFF0136
(1791429326.506589) can1 0200FD07#0100000000000000
(1791429326.506642) can0 0200FD05#0100000000000000
(1791429326.506769) can1 020007FD#80027FD07FFF014A
(1791429326.506831) can0 020005FD#7E7B7FE77FFF015E
(1791429326.507209) can1 0200FD08#0100000000000000
(1791429326.507269) can0 0200FD06#0100000000000000
(1791429326.507332) can1 020008FD#82917FEE7FFF0140
(1791429326.507493) can0 020006FD#800A800A7FFF015E
(1791429326.507841) can0 0200FD07#0100000000000000
(1791429326.508149) can0 020007FD#7AE480107FFF0154
(1791429326.508520) can0 0200FD08#0100000000000000
(1791429326.508623) can0 020008FD#7EBE7FEE7FFF0140
(1791429326.592212) can1 0200FD01#0100000000000000
(1791429326.592394) can1 020001FD#7FFD80377FFF0136
(1791429326.592626) can0 0200FD01#0100000000000000
(1791429326.592776) can1 0200FD02#0100000000000000
(1791429326.592876) can0 020001FD#7FAF7FB57FFF0136
(1791429326.593016) can1 020002FD#7FFE80347FFF0140
(1791429326.593276) can0 0200FD02#0100000000000000
(1791429326.593403) can0 020002FD#7FFE80C57FFF014A
(1791429326.593426) can1 0200FD03#0100000000000000
(1791429326.593647) can1 020003FD#7FFF7FA67FFF0154
(1791429326.593847) can0 0200FD03#0100000000000000
(1791429326.593971) can1 0200FD04#0100000000000000
(1791429326.594156) can0 020003FD#7FFF80197FFF014A
(1791429326.594201) can1 020004FD#7FFF80087FFF014A
(1791429326.594491) can0 0200FD04#0100000000000000
(1791429326.594596) can1 0200FD05#0100000000000000
(1791429326.594721) can0 020004FD#7FF77FE17FFF0136
(1791429326.594773) can1 020005FD#88E17FEB7FFF015E
(1791429326.595039) can0 0200FD05#0100000000000000
(1791429326.595209) can1 0200FD06#0100000000000000
(1791429326.595245) can0 020005FD#7E7C80237FFF015E
(1791429326.595393) can1 020006FD#7FF780107FFF015E
(1791429326.595648) can0 0200FD06#0100000000000000
(1791429326.595791) can1 0200FD07#0100000000000000
(1791429326.595884) can0 020006FD#800A7FFF7FFF015E
(1791429326.596108) can1 020007FD#80027FF97FFF014A
(1791429326.596274) can0 0200FD07#0100000000000000
(1791429326.596402) can1 0200FD08#0100000000000000
(1791429326.596488) can0 020007FD#7AE380067FFF014A
(1791429326.596581) can1 020008FD#829180187FFF0140
(1791429326.596898) can0 0200FD08#0100000000000000
(1791429326.596992) can0 020008FD#7EBE7FD77FFF0140
(1791429326.678671) can1 0200FD01#0100000000000000
(1791429326.678909) can1 020001FD#7FFD803C7FFF0136
(1791429326.679281) can1 0200FD02#0100000000000000
(1791429326.679462) can1 020002FD#7FFE802C7FFF0140
(1791429326.679669) can0 0200FD01#0100000000000000
(1791429326.679851) can1 0200FD03#0100000000000000
(1791429326.679919) can0 020001FD#7FAF80D87FFF0136
(1791429326.680147) can1 020003FD#7FFF805C7FFF0154
(1791429326.680277) can0 0200FD02#0100000000000000
(1791429326.680495) can0 020002FD#7FFE7FCC7FFF014A
(1791429326.680502) can1 0200FD04#0100000000000000
(1791429326.680724) can1 020004FD#7FFF7FE07FFF014A
(1791429326.680844) can0 0200FD03#0100000000000000
(1791429326.681044) can1 0200FD05#0100000000000000
(1791429326.681163) can0 020003FD#7FFF80A37FFF014A
(1791429326.681250) can1 020005FD#88E180067FFF015E
(1791429326.681493) can0 0200FD04#0100000000000000
(1791429326.681627) can1 0200FD06#0100000000000000
(1791429326.681715) can0 020004FD#7FF77FA47FFF0136
(1791429326.681883) can1 020006FD#7FF77FC47FFF015E
(1791429326.682040) can0 0200FD05#0100000000000000
(1791429326.682206) can1 0200FD07#0100000000000000
(1791429326.682257) can0 020005FD#7E7C80467FFF015E
(1791429326.682498) can1 020007FD#80027FF87FFF014A
(1791429326.682654) can0 0200FD06#0100000000000000
(1791429326.682773) can1 0200FD08#0100000000000000
(1791429326.682904) can0 020006FD#800A801A7FFF015E
(1791429326.682940) can1 020008FD#82917FCE7FFF0140
(1791429326.683281) can0 0200FD07#0100000000000000
(1791429326.683492) can0 020007FD#7AE37FE37FFF014A
(1791429326.683844) can0 0200FD08#0100000000000000
(1791429326.683986) can0 020008FD#7EBE7FCE7FFF0140
(1791429326.766043) can1 0200FD01#0100000000000000
(1791429326.766210) can1 020001FD#7FFD7F507FFF0136
(1791429326.766408) can0 0200FD01#0100000000000000
(1791429326.766652) can0 020001FD#7FAF800A7FFF0136
(1791429326.766685) can1 0200FD02#0100000000000000
(1791429326.766914) can1 020002FD#7FFE7F7D7FFF0140
(1791429326.766976) can0 0200FD02#0100000000000000
(1791429326.767215) can0 020002FD#7FFE7FCA7FFF014A
(1791429326.767280) can1 0200FD03#0100000000000000
(1791429326.767470) can1 020003FD#7FFF80447FFF014A
(1791429326.767604) can0 0200FD03#0100000000000000
(1791429326.767850) can1 0200FD04#0100000000000000
(1791429326.767854) can0 020003FD#7FFF80307FFF014A
(1791429326.768030) can1 020004FD#7FFF800E7FFF014A
(1791429326.768215) can0 0200FD04#0100000000000000
(1791429326.768396) can0 020004FD#7FF77FCF7FFF0136
(1791429326.768494) can1 0200FD05#0100000000000000
(1791429326.768719) can1 020005FD#88E17FED7FFF015E
(1791429326.768790) can0 0200FD05#0100000000000000
(1791429326.768972) can0 020005FD#7E7C7FFB7FFF015E
(1791429326.769048) can1 0200FD06#0100000000000000
(1791429326.769252) can1 020006FD#7FF77FF87FFF015E
(1791429326.769413) can0 0200FD06#0100000000000000
(1791429326.769632) can1 0200FD07#0100000000000000
(1791429326.769668) can0 020006FD#800A7FE17FFF015E
(1791429326.769889) can1 020007FD#800280097FFF014A
(1791429326.769980) can0 0200FD07#0100000000000000
(1791429326.770209) can0 020007FD#7AE37FE97FFF0154
(1791429326.770275) can1 0200FD08#0100000000000000
(1791429326.770371) can1 020008FD#829180247FFF0140
(1791429326.770633) can0 0200FD08#0100000000000000
(1791429326.770738) can0 020008FD#7EBE800F7FFF0140
(1791429326.825970) can1 0200FD01#0100000000000000
(1791429326.826215) can1 020001FD#7FFD804B7FFF0136
(1791429326.826599) can1 0200FD02#0100000000000000
(1791429326.826835) can1 020002FD#7FFE80347FFF0140
(1791429326.827153) can0 0200FD01#0100000000000000
(1791429326.827284) can1 0200FD03#0100000000000000
(1791429326.827348) can0 020001FD#7FAF801D7FFF0136
(1791429326.827397) can1 020003FD#7FFF80087FFF0154
(1791429326.827732) can0 0200FD02#0100000000000000
(1791429326.827866) can1 0200FD04#0100000000000000
(1791429326.827983) can0 020002FD#7FFE7FB37FFF014A
(1791429326.828156) can1 020004FD#7FFF7F567FFF014A
(1791429326.828346) can0 0200FD03#0100000000000000
(1791429326.828502) can1 0200FD05#0100000000000000
(1791429326.828538) can0 020003FD#7FFF80047FFF014A
(1791429326.828663) can1 020005FD#88E180247FFF015E
(1791429326.828919) can0 0200FD04#0100000000000000
(1791429326.829046) can1 0200FD06#0100000000000000
(1791429326.829160) can0 020004FD#7FF780B87FFF0136
(1791429326.829263) can1 020006FD#7FF77FF87FFF015E
(1791429326.829546) can0 0200FD05#0100000000000000
(1791429326.829631) can1 0200FD07#0100000000000000
(1791429326.829821) can0 020005FD#7E7B7FDB7FFF015E
(1791429326.829878) can1 020007FD#800280067FFF014A
(1791429326.830152) can0 0200FD06#0100000000000000
(1791429326.830281) can1 0200FD08#0100000000000000
(1791429326.830343) can0 020006FD#800A7FE57FFF015E
(1791429326.830396) can1 020008FD#82917FEC7FFF0140
(1791429326.830725) can0 0200FD07#0100000000000000
(1791429326.830969) can0 020007FD#7AE380297FFF0154
(1791429326.831345) can0 0200FD08#0100000000000000
(1791429326.831436) can0 020008FD#7EBE7FE87FFF0140
(1791429326.881799) can1 0200FD01#0100000000000000
(1791429326.882110) can1 020001FD#7FFD7FF57FFF0136
(1791429326.882403) can1 0200FD02#0100000000000000
(1791429326.882648) can1 020002FD#7FFE7FA37FFF0140
(1791429326.882971) can1 0200FD03#0100000000000000
(1791429326.883210) can1 020003FD#7FFF7FE47FFF014A
(1791429326.883575) can1 0200FD04#0100000000000000
(1791429326.883823) can1 020004FD#7FFF80307FFF014A
(1791429326.883935) can0 0200FD01#0100000000000000
(1791429326.884157) can1 0200FD05#0100000000000000
(1791429326.884216) can0 020001FD#7FAF80117FFF0136
(1791429326.884396) can1 020005FD#88E1800F7FFF015E
(1791429326.884535) can0 0200FD02#0100000000000000
(1791429326.884727) can1 0200FD06#0100000000000000
(1791429326.884787) can0 020002FD#7FFE803F7FFF014A
(1791429326.884963) can1 020006FD#7FF77FAE7FFF015E
(1791429326.885148) can0 0200FD03#0100000000000000
(1791429326.885349) can0 020003FD#7FFF807F7FFF014A
(1791429326.885354) can1 0200FD07#0100000000000000
(1791429326.885525) can1 020007FD#80027FF27FFF014A
(1791429326.885717) can0 0200FD04#0100000000000000
(1791429326.885890) can0 020004FD#7FF77ED77FFF0136
(1791429326.885925) can1 0200FD08#0100000000000000
(1791429326.886099) can1 020008FD#8291800F7FFF0140
(1791429326.886342) can0 0200FD05#0100000000000000
(1791429326.886520) can0 020005FD#7E7B80097FFF015E
(1791429326.886903) can0 0200FD06#0100000000000000
(1791429326.887200) can0 020006FD#800A800E7FFF015E
(1791429326.887556) can0 0200FD07#0100000000000000
(1791429326.887738) can0 020007FD#7AE480477FFF0154
(1791429326.888220) can0 0200FD08#0100000000000000
(1791429326.888285) can0 020008FD#7EBE7FDB7FFF0140
(1791429326.934665) can1 0200FD01#0100000000000000
(1791429326.934905) can1 020001FD#7FFD81207FFF0136
(1791429326.935220) can0 0200FD01#0100000000000000
(1791429326.935281) can1 0200FD02#0100000000000000
(1791429326.935498) can0 020001FD#7FAF7FB27FFF0136
(1791429326.935501) can1 020002FD#7FFE7FB87FFF0140
(1791429326.935794) can0 0200FD02#0100000000000000
(1791429326.935850) can1 0200FD03#0100000000000000
(1791429326.936112) can0 020002FD#7FFE7FDD7FFF014A
(1791429326.936158) can1 020003FD#7FFF80047FFF0154
(1791429326.936415) can0 0200FD03#0100000000000000
(1791429326.936501) can1 0200FD04#0100000000000000
(1791429326.936650) can0 020003FD#7FFF7F857FFF014A
(1791429326.936685) can1 020004FD#7FFF80577FFF014A
(1791429326.936984) can0 0200FD04#0100000000000000
(1791429326.937049) can1 0200FD05#0100000000000000
(1791429326.937211) can0 020004FD#7FF780217FFF0136
(1791429326.937262) can1 020005FD#88E1801E7FFF015E
(1791429326.937604) can0 0200FD05#0100000000000000
(1791429326.937661) can1 0200FD06#0100000000000000
(1791429326.937838) can1 020006FD#7FF77FCB7FFF015E
(1791429326.937871) can0 020005FD#7E7B7FEB7FFF015E
(1791429326.938219) can0 0200FD06#0100000000000000
(1791429326.938285) can1 0200FD07#0100000000000000
(1791429326.938399) can0 020006FD#800A7FF27FFF015E
(1791429326.938508) can1 020007FD#80027FF77FFF014A
(1791429326.938789) can0 0200FD07#0100000000000000
(1791429326.938865) can1 0200FD08#0100000000000000
(1791429326.939026) can1 020008FD#82917FD67FFF0140
(1791429326.939029) can0 020007FD#7AE4800B7FFF0154
(1791429326.939410) can0 0200FD08#0100000000000000
(1791429326.939572) can0 020008FD#7EBE801F7FFF0140
(1791429326.984048) can1 0200FD01#0100000000000000
(1791429326.984266) can1 020001FD#7FFD7FFD7FFF0136
(1791429326.984345) can0 0200FD01#0100000000000000
(1791429326.984520) can0 020001FD#7FAF7FB17FFF0136
(1791429326.984639) can1 0200FD02#0100000000000000
(1791429326.984894) can1 020002FD#7FFE7FB27FFF0140
(1791429326.984928) can0 0200FD02#0100000000000000
(1791429326.985218) can0 020002FD#7FFD7F557FFF014A
(1791429326.985279) can1 0200FD03#0100000000000000
(1791429326.985454) can1 020003FD#7FFF807E7FFF014A
(1791429326.985532) can0 0200FD03#0100000000000000
(1791429326.985766) can0 020003FD#7FFF809B7FFF014A
(1791429326.985850) can1 0200FD04#0100000000000000
(1791429326.986164) can0 0200FD04#0100000000000000
(1791429326.986167) can1 020004FD#7FFF7FE97FFF014A
(1791429326.986354) can0 020004FD#7FF7808E7FFF0136
(1791429326.986513) can1 0200FD05#0100000000000000
(1791429326.986721) can1 020005FD#88E17FFC7FFF015E
(1791429326.986758) can0 0200FD05#0100000000000000
(1791429326.986916) can0 020005FD#7E7C802C7FFF015E
(1791429326.987046) can1 0200FD06#0100000000000000
(1791429326.987263) can1 020006FD#7FF780007FFF015E
(1791429326.987350) can0 0200FD06#0100000000000000
(1791429326.987523) can0 020006FD#800A800A7FFF015E
(1791429326.987660) can1 0200FD07#0100000000000000
(1791429326.987838) can1 020007FD#800280487FFF014A
(1791429326.987914) can0 0200FD07#0100000000000000
(1791429326.988215) can0 020007FD#7AE3801B7FFF0154
(1791429326.988284) can1 0200FD08#0100000000000000
(1791429326.988388) can1 020008FD#82917FE07FFF0140
(1791429326.988538) can0 0200FD08#0100000000000000
(1791429326.988665) can0 020008FD#7EBE80227FFF0140
(1791429327.041672) can1 0200FD01#0100000000000000
(1791429327.041849) can1 020001FD#7FFD7FBB7FFF0136
(1791429327.042282) can1 0200FD02#0100000000000000
(1791429327.042503) can1 020002FD#7FFE7F5B7FFF0140
(1791429327.042738) can0 0200FD01#0100000000000000
(1791429327.042860) can1 0200FD03#0100000000000000
(1791429327.042983) can0 020001FD#7FAF80397FFF0136
(1791429327.043166) can1 020003FD#7FFF7FBB7FFF0154
(1791429327.043353) can0 0200FD02#0100000000000000
(1791429327.043515) can1 0200FD04#0100000000000000
(1791429327.043543) can0 020002FD#7FFE7FA57FFF014A
(1791429327.043728) can1 020004FD#7FFF802E7FFF014A
(1791429327.043923) can0 0200FD03#0100000000000000
(1791429327.044053) can1 0200FD05#0100000000000000
(1791429327.044221) can0 020003FD#7FFF809A7FFF014A
(1791429327.044273) can1 020005FD#88E17FD97FFF015E
(1791429327.044545) can0 0200FD04#0100000000000000
(1791429327.044664) can1 0200FD06#0100000000000000
(1791429327.044792) can0 020004FD#7FF77FD07FFF0136
(1791429327.044845) can1 020006FD#7FF7800A7FFF015E
(1791429327.045166) can0 0200FD05#0100000000000000
(1791429327.045296) can1 0200FD07#0100000000000000
(1791429327.045354) can0 020005FD#7E7C80217FFF015E
(1791429327.045505) can1 020007FD#800280157FFF014A
(1791429327.045743) can0 0200FD06#0100000000000000
(1791429327.045865) can1 0200FD08#0100000000000000
(1791429327.045991) can0 020006FD#800A7FE47FFF015E
(1791429327.046026) can1 020008FD#8291800F7FFF0140
(1791429327.046355) can0 0200FD07#0100000000000000
(1791429327.046537) can0 020007FD#7AE480107FFF0154
(1791429327.046924) can0 0200FD08#0100000000000000
(1791429327.047107) can0 020008FD#7EBE80157FFF0140
(1791429327.135515) can1 0200FD01#0100000000000000
(1791429327.135735) can1 020001FD#7FFD7FE87FFF0136
(1791429327.136032) can1 0200FD02#0100000000000000
(1791429327.136272) can1 020002FD#7FFE800A7FFF0140
(1791429327.136722) can1 0200FD03#0100000000000000
(1791429327.136757) can0 0200FD01#0100000000000000
(1791429327.136906) can1 020003FD#7FFF80277FFF014A
(1791429327.136985) can0 020001FD#7FAF7FCD7FFF0136
(1791429327.137347) can0 0200FD02#0100000000000000
(1791429327.137383) can1 0200FD04#0100000000000000
(1791429327.137529) can0 020002FD#7FFE7FE17FFF014A
(1791429327.137565) can1 020004FD#7FFF7F927FFF014A
(1791429327.137931) can0 0200FD03#0100000000000000
(1791429327.137932) can1 0200FD05#0100000000000000
(1791429327.138207) can0 020003FD#7FFF7F977FFF014A
(1791429327.138242) can1 020005FD#88E180187FFF015E
(1791429327.138543) can0 0200FD04#0100000000000000
(1791429327.138544) can1 0200FD06#0100000000000000
(1791429327.138781) can0 020004FD#7FF780867FFF0136
(1791429327.138816) can1 020006FD#7FF7801E7FFF015E
(1791429327.139164) can1 0200FD07#0100000000000000
(1791429327.139165) can0 0200FD05#0100000000000000
(1791429327.139355) can1 020007FD#800280007FFF014A
(1791429327.139390) can0 020005FD#7E7B801D7FFF015E
(1791429327.139745) can1 0200FD08#0100000000000000
(1791429327.139746) can0 0200FD06#0100000000000000
(1791429327.139886) can1 020008FD#82917FD77FFF0140
(1791429327.139984) can0 020006FD#800A800D7FFF015E
(1791429327.140357) can0 0200FD07#0100000000000000
(1791429327.140534) can0 020007FD#7AE37FE87FFF0154
(1791429327.140927) can0 0200FD08#0100000000000000
(1791429327.141103) can0 020008FD#7EBE7FFA7FFF0140
(1791429327.232544) can1 0200FD01#0100000000000000
(1791429327.232784) can1 020001FD#7FFD803A7FFF0136
(1791429327.233169) can1 0200FD02#0100000000000000
(1791429327.233359) can1 020002FD#7FFE803D7FFF0140
(1791429327.233743) can1 0200FD03#0100000000000000
(1791429327.234011) can1 020003FD#7FFF7FC17FFF014A
(1791429327.234075) can0 0200FD01#0100000000000000
(1791429327.234274) can0 020001FD#7FAF806C7FFF0136
(1791429327.234360) can1 0200FD04#0100000000000000
(1791429327.234539) can1 020004FD#7FFF80647FFF014A
(1791429327.234670) can0 0200FD02#0100000000000000
(1791429327.234907) can0 020002FD#7FFE80547FFF014A
(1791429327.234940) can1 0200FD05#0100000000000000
(1791429327.235225) can1 020005FD#88E180197FFF015E
(1791429327.235299) can0 0200FD03#0100000000000000
(1791429327.235509) can0 020003FD#7FFF800F7FFF014A
(1791429327.235545) can1 0200FD06#0100000000000000
(1791429327.235783) can1 020006FD#7FF7802C7FFF015E
(1791429327.235871) can0 0200FD04#0100000000000000
(1791429327.236165) can1 0200FD07#0100000000000000
(1791429327.236201) can0 020004FD#7FF880127FFF0136
(1791429327.236356) can1 020007FD#80027FF07FFF014A
(1791429327.236512) can0 0200FD05#0100000000000000
(1791429327.236728) can0 020005FD#7E7B800C7FFF015E
(1791429327.236759) can1 0200FD08#0100000000000000
(1791429327.236911) can1 020008FD#82917FFF7FFF0140
(1791429327.237155) can0 0200FD06#0100000000000000
(1791429327.237266) can0 020006FD#800A80117FFF015E
(1791429327.237713) can0 0200FD07#0100000000000000
(1791429327.237954) can0 020007FD#7AE37FD27FFF0154
(1791429327.238353) can0 0200FD08#0100000000000000
(1791429327.238423) can0 020008FD#7EBF80077FFF0140
(1791429327.334552) can1 0200FD01#0100000000000000
(1791429327.334784) can1 020001FD#7FFD7F837FFF0136
(1791429327.335160) can1 0200FD02#0100000000000000
(1791429327.335336) can1 020002FD#7FFE802E7FFF0140
(1791429327.335706) can1 0200FD03#0100000000000000
(1791429327.335868) can0 0200FD01#0100000000000000
(1791429327.335958) can1 020003FD#7FFF7FED7FFF0154
(1791429327.336174) can0 020001FD#7FAF80197FFF0136
(1791429327.336295) can1 0200FD04#0100000000000000
(1791429327.336510) can0 0200FD02#0100000000000000
(1791429327.336546) can1 020004FD#7FFF80AC7FFF014A
(1791429327.336731) can0 020002FD#7FFE7FCE7FFF014A
(1791429327.336861) can1 0200FD05#0100000000000000
(1791429327.337045) can1 020005FD#88E1802E7FFF015E
(1791429327.337076) can0 0200FD03#0100000000000000
(1791429327.337280) can0 020003FD#7FFF80E47FFF014A
(1791429327.337511) can1 0200FD06#0100000000000000
(1791429327.337731) can0 0200FD04#0100000000000000
(1791429327.337767) can1 020006FD#7FF780047FFF015E
(1791429327.337917) can0 020004FD#7FF77F907FFF0136
(1791429327.338067) can1 0200FD07#0100000000000000
(1791429327.338277) can1 020007FD#80027FE57FFF014A
(1791429327.338358) can0 0200FD05#0100000000000000
(1791429327.338538) can0 020005FD#7E7B7FF47FFF015E
(1791429327.338738) can1 0200FD08#0100000000000000
(1791429327.338818) can1 020008FD#829180427FFF0140
(1791429327.338952) can0 0200FD06#0100000000000000
(1791429327.339229) can0 020006FD#800A7FE27FFF015E
(1791429327.339549) can0 0200FD07#0100000000000000
(1791429327.339787) can0 020007FD#7AE37FC47FFF0154
(1791429327.340170) can0 0200FD08#0100000000000000
(1791429327.340267) can0 020008FD#7EBE7FE37FFF0140
(1791429327.390683) can1 0200FD01#0100000000000000
(1791429327.390930) can1 020001FD#7FFD80447FFF0136
(1791429327.391298) can1 0200FD02#0100000000000000
(1791429327.391513) can1 020002FD#7FFE800E7FFF0140
(1791429327.391863) can1 0200FD03#0100000000000000
(1791429327.392007) can0 0200FD01#0100000000000000
(1791429327.392164) can1 020003FD#7FFF80037FFF0154
(1791429327.392226) can0 020001FD#7FAF80377FFF0136
(1791429327.392519) can1 0200FD04#0100000000000000
(1791429327.392605) can0 0200FD02#0100000000000000
(1791429327.392733) can1 020004FD#7FFF7F8F7FFF014A
(1791429327.392853) can0 020002FD#7FFE7FDA7FFF014A
(1791429327.393050) can1 0200FD05#0100000000000000
(1791429327.393235) can0 0200FD03#0100000000000000
(1791429327.393272) can1 020005FD#88E17FE57FFF015E
(1791429327.393419) can0 020003FD#7FFF804B7FFF014A
(1791429327.393651) can1 0200FD06#0100000000000000
(1791429327.393804) can0 0200FD04#0100000000000000
(1791429327.393893) can1 020006FD#7FF780427FFF015E
(1791429327.394123) can0 020004FD#7FF77F767FFF0136
(1791429327.394304) can1 0200FD07#0100000000000000
(1791429327.394430) can0 0200FD05#0100000000000000
(1791429327.394512) can1 020007FD#80027FFB7FFF014A
(1791429327.394679) can0 020005FD#7E7C7FF37FFF015E
(1791429327.394878) can1 0200FD08#0100000000000000
(1791429327.394992) can0 0200FD06#0100000000000000
(1791429327.395027) can1 020008FD#8291802F7FFF0140
(1791429327.395231) can0 020006FD#800A7FE97FFF015E
(1791429327.395602) can0 0200FD07#0100000000000000
(1791429327.395851) can0 020007FD#7AE37FCE7FFF0154
(1791429327.396232) can0 0200FD08#0100000000000000
(1791429327.396322) can0 020008FD#7EBE7FDB7FFF0140
(1791429327.485519) can1 0200FD01#0100000000000000
(1791429327.485678) can1 020001FD#7FFD7F967FFF0136
(1791429327.486058) can1 0200FD02#0100000000000000
(1791429327.486284) can1 020002FD#7FFE7F3C7FFF0140
(1791429327.486427) can0 0200FD01#0100000000000000
(1791429327.486682) can0 020001FD#7FAF801C7FFF0136
(1791429327.486713) can1 0200FD03#0100000000000000
(1791429327.486871) can1 020003FD#7FFF80487FFF0154
(1791429327.486993) can0 0200FD02#0100000000000000
(1791429327.487225) can0 020002FD#7FFE80067FFF014A
(1791429327.487295) can1 0200FD04#0100000000000000
(1791429327.487516) can1 020004FD#7FFF7F787FFF014A
(1791429327.487608) can0 0200FD03#0100000000000000
(1791429327.487867) can0 020003FD#7FFF80FF7FFF014A
(1791429327.487873) can1 0200FD05#0100000000000000
(1791429327.488042) can1 020005FD#88E17FFA7FFF015E
(1791429327.488237) can0 0200FD04#0100000000000000
(1791429327.488412) can0 020004FD#7FF780757FFF0136
(1791429327.488446) can1 0200FD06#0100000000000000
(1791429327.488673) can1 020006FD#7FF780557FFF015E
(1791429327.488795) can0 0200FD05#0100000000000000
(1791429327.488999) can1 0200FD07#0100000000000000
(1791429327.489042) can0 020005FD#7E7B80137FFF015E
(1791429327.489234) can1 020007FD#800280207FFF014A
(1791429327.489367) can0 0200FD06#0100000000000000
(1791429327.489546) can0 020006FD#800A7FF17FFF015E
(1791429327.489615) can1 0200FD08#0100000000000000
(1791429327.489765) can1 020008FD#8291802D7FFF0140
(1791429327.489988) can0 0200FD07#0100000000000000
(1791429327.490232) can0 020007FD#7AE3804F7FFF014A
(1791429327.490610) can0 0200FD08#0100000000000000
(1791429327.490761) can0 020008FD#7EBE80007FFF0140
(1791429327.586967) can1 0200FD01#0100000000000000
(1791429327.587241) can1 020001FD#7FFD80427FFF0136
(1791429327.587529) can1 0200FD02#0100000000000000
(1791429327.587780) can1 020002FD#7FFE801E7FFF0140
(1791429327.588089) can1 0200FD03#0100000000000000
(1791429327.588363) can1 020003FD#7FFF80607FFF014A
(1791429327.588561) can0 0200FD01#0100000000000000
(1791429327.588727) can1 0200FD04#0100000000000000
(1791429327.588802) can0 020001FD#7FAF80187FFF0136
(1791429327.588916) can1 020004FD#7FFF80B37FFF014A
(1791429327.589167) can0 0200FD02#0100000000000000
(1791429327.589344) can0 020002FD#7FFE80CC7FFF014A
(1791429327.589377) can1 0200FD05#0100000000000000
(1791429327.589519) can1 020005FD#88E180007FFF015E
(1791429327.589737) can0 0200FD03#0100000000000000
(1791429327.589939) can1 0200FD06#0100000000000000
(1791429327.589989) can0 020003FD#7FFF7F997FFF014A
(1791429327.590233) can1 020006FD#7FF7800E7FFF015E
(1791429327.590367) can0 0200FD04#0100000000000000
(1791429327.590518) can0 020004FD#7FF77F9D7FFF0136
(1791429327.590558) can1 0200FD07#0100000000000000
(1791429327.590735) can1 020007FD#800280177FFF014A
(1791429327.590943) can0 0200FD05#0100000000000000
(1791429327.591168) can1 0200FD08#0100000000000000
(1791429327.591222) can0 020005FD#7E7C7FEE7FFF015E
(1791429327.591330) can1 020008FD#82917FD27FFF0140
(1791429327.591526) can0 0200FD06#0100000000000000
(1791429327.591772) can0 020006FD#800A7FF97FFF015E
(1791429327.592089) can0 0200FD07#0100000000000000
(1791429327.592342) can0 020007FD#7AE380187FFF014A
(1791429327.592657) can0 0200FD08#0100000000000000
(1791429327.592813) can0 020008FD#7EBE7FEB7FFF0140
(1791429327.686017) can1 0200FD01#0100000000000000
(1791429327.686227) can1 020001FD#7FFD7F917FFF0136
(1791429327.686625) can1 0200FD02#0100000000000000
(1791429327.686803) can1 020002FD#7FFE7FBB7FFF0140
(1791429327.686945) can0 0200FD01#0100000000000000
(1791429327.687226) can0 020001FD#7FAF808F7FFF0136
(1791429327.687259) can1 0200FD03#0100000000000000
(1791429327.687414) can1 020003FD#7FFF7FC87FFF014A
(1791429327.687564) can0 0200FD02#0100000000000000
(1791429327.687840) can0 020002FD#7FFE80267FFF014A
(1791429327.687864) can1 0200FD04#0100000000000000
(1791429327.688064) can1 020004FD#7FFF809F7FFF014A
(1791429327.688176) can0 0200FD03#0100000000000000
(1791429327.688352) can0 020003FD#7FFF7FB37FFF014A
(1791429327.688456) can1 0200FD05#0100000000000000
(1791429327.688629) can1 020005FD#88E180287FFF015E
(1791429327.688728) can0 0200FD04#0100000000000000
(1791429327.689000) can0 020004FD#7FF780577FFF0136
(1791429327.689025) can1 0200FD06#0100000000000000
(1791429327.689240) can1 020006FD#7FF77FED7FFF015E
(1791429327.689371) can0 0200FD05#0100000000000000
(1791429327.689549) can0 020005FD#7E7C80477FFF015E
(1791429327.689624) can1 0200FD07#0100000000000000
(1791429327.689866) can1 020007FD#800280057FFF014A
(1791429327.689941) can0 0200FD06#0100000000000000
(1791429327.690236) can1 0200FD08#0100000000000000
(1791429327.690237) can0 020006FD#800A800A7FFF015E
(1791429327.690364) can1 020008FD#829180017FFF0140
(1791429327.690553) can0 0200FD07#0100000000000000
(1791429327.690793) can0 020007FD#7AE380257FFF014A
(1791429327.691163) can0 0200FD08#0100000000000000
(1791429327.691259) can0 020008FD#7EBE80027FFF0140
(1791429327.736703) can1 0200FD01#0100000000000000
(1791429327.736948) can1 020001FD#7FFD80897FFF0136
(1791429327.737312) can1 0200FD02#0100000000000000
(1791429327.737368) can0 0200FD01#0100000000000000
(1791429327.737499) can1 020002FD#7FFE7F517FFF0140
(1791429327.737551) can0 020001FD#7FAF80017FFF0136
(1791429327.737879) can1 0200FD03#0100000000000000
(1791429327.737944) can0 0200FD02#0100000000000000
(1791429327.738182) can1 020003FD#7FFF80727FFF014A
(1791429327.738227) can0 020002FD#7FFE7FEC7FFF014A
(1791429327.738500) can1 0200FD04#0100000000000000
(1791429327.738565) can0 0200FD03#0100000000000000
(1791429327.738747) can1 020004FD#7FFF80087FFF014A
(1791429327.738815) can0 020003FD#7FFF80697FFF014A
(1791429327.739071) can1 0200FD05#0100000000000000
(1791429327.739170) can0 0200FD04#0100000000000000
(1791429327.739296) can1 020005FD#88E180097FFF015E
(1791429327.739345) can0 020004FD#7FF87FDE7FFF0136
(1791429327.739689) can1 0200FD06#0100000000000000
(1791429327.739750) can0 0200FD05#0100000000000000
(1791429327.739931) can1 020006FD#7FF77FDF7FFF015E
(1791429327.739993) can0 020005FD#7E7C803A7FFF015E
(1791429327.740339) can1 0200FD07#0100000000000000
(1791429327.740374) can0 0200FD06#0100000000000000
(1791429327.740534) can1 020007FD#80027FDA7FFF014A
(1791429327.740567) can0 020006FD#800A7FD57FFF015E
(1791429327.740888) can1 0200FD08#0100000000000000
(1791429327.740941) can0 0200FD07#0100000000000000
(1791429327.741044) can1 020008FD#829180147FFF0140
(1791429327.741240) can0 020007FD#7AE37FF37FFF0154
(1791429327.741552) can0 0200FD08#0100000000000000
(1791429327.741702) can0 020008FD#7EBE7FAF7FFF0140
(1791429327.789567) can1 0200FD01#0100000000000000
(1791429327.789809) can1 020001FD#7FFD7FC47FFF0136
(1791429327.790016) can0 0200FD01#0100000000000000
(1791429327.790180) can1 0200FD02#0100000000000000
(1791429327.790229) can0 020001FD#7FAE7FC37FFF0136
(1791429327.790369) can1 020002FD#7FFE7FC97FFF0140
(1791429327.790631) can0 0200FD02#0100000000000000
(1791429327.790754) can1 0200FD03#0100000000000000
(1791429327.790814) can0 020002FD#7FFE80357FFF014A
(1791429327.791002) can1 020003FD#7FFF7F6E7FFF014A
(1791429327.791244) can0 0200FD03#0100000000000000
(1791429327.791377) can1 0200FD04#0100000000000000
(1791429327.791428) can0 020003FD#7FFF7FCC7FFF014A
(1791429327.791555) can1 020004FD#7FFF803B7FFF014A
(1791429327.791817) can0 0200FD04#0100000000000000
(1791429327.791948) can1 0200FD05#0100000000000000
(1791429327.792131) can0 020004FD#7FF77ED67FFF0136
(1791429327.792241) can1 020005FD#88E180217FFF015E
(1791429327.792436) can0 0200FD05#0100000000000000
(1791429327.792556) can1 0200FD06#0100000000000000
(1791429327.792677) can0 020005FD#7E7C80047FFF015E
(1791429327.792797) can1 020006FD#7FF7801C7FFF015E
(1791429327.792996) can0 0200FD06#0100000000000000
(1791429327.793182) can1 0200FD07#0100000000000000
(1791429327.793228) can0 020006FD#800A7FEE7FFF015E
(1791429327.793371) can1 020007FD#8002800B7FFF014A
(1791429327.793632) can0 0200FD07#0100000000000000
(1791429327.793741) can1 0200FD08#0100000000000000
(1791429327.793809) can0 020007FD#7AE480227FFF0154
(1791429327.793904) can1 020008FD#82917FA47FFF0140
(1791429327.794319) can0 0200FD08#0100000000000000
(1791429327.794387) can0 020008FD#7EBE803B7FFF0140
(1791429327.842256) can1 0200FD01#0100000000000000
(1791429327.842423) can1 020001FD#7FFD80157FFF0136
(1791429327.842816) can1 0200FD02#0100000000000000
(1791429327.843133) can1 020002FD#7FFE80997FFF0140
(1791429327.843383) can0 0200FD01#0100000000000000
(1791429327.843447) can1 0200FD03#0100000000000000
(1791429327.843567) can0 020001FD#7FAF80297FFF0136
(1791429327.843691) can1 020003FD#7FFF80697FFF0154
(1791429327.843951) can0 0200FD02#0100000000000000
(1791429327.844004) can1 0200FD04#0100000000000000
(1791429327.844232) can0 020002FD#7FFE7FDD7FFF014A
(1791429327.844266) can1 020004FD#7FFF80567FFF014A
(1791429327.844569) can0 0200FD03#0100000000000000
(1791429327.844631) can1 0200FD05#0100000000000000
(1791429327.844817) can0 020003FD#7FFF7FC37FFF014A
(1791429327.844871) can1 020005FD#88E180017FFF015E
(1791429327.845189) can0 0200FD04#0100000000000000
(1791429327.845253) can1 0200FD06#0100000000000000
(1791429327.845382) can0 020004FD#7FF7802F7FFF0136
(1791429327.845429) can1 020006FD#7FF77FE77FFF015E
(1791429327.845760) can0 0200FD05#0100000000000000
(1791429327.845823) can1 0200FD07#0100000000000000
(1791429327.846015) can0 020005FD#7E7C80007FFF015E
(1791429327.846136) can1 020007FD#800280027FFF014A
(1791429327.846376) can0 0200FD06#0100000000000000
(1791429327.846437) can1 0200FD08#0100000000000000
(1791429327.846562) can0 020006FD#800A80207FFF015E
(1791429327.846598) can1 020008FD#829180147FFF0140
(1791429327.846950) can0 0200FD07#0100000000000000
(1791429327.847181) can0 020007FD#7AE380177FFF0154
(1791429327.847564) can0 0200FD08#0100000000000000
(1791429327.847702) can0 020008FD#7EBE7FF87FFF0140
(1791429327.931083) can1 0200FD01#0100000000000000
(1791429327.931296) can1 020001FD#7FFD80907FFF0136
(1791429327.931721) can1 0200FD02#0100000000000000
(1791429327.931904) can1 020002FD#7FFE7F847FFF0140
(1791429327.932388) can1 0200FD03#0100000000000000
(1791429327.932513) can1 020003FD#7FFF80737FFF0154
(1791429327.932973) can1 0200FD04#0100000000000000
(1791429327.933246) can1 020004FD#7FFF7F507FFF014A
(1791429327.933568) can1 0200FD05#0100000000000000
(1791429327.933638) can0 0200FD01#0100000000000000
(1791429327.933819) can1 020005FD#88E17FFC7FFF015E
(1791429327.933885) can0 020001FD#7FAF7FFF7FFF0136
(1791429327.934179) can1 0200FD06#0100000000000000
(1791429327.934245) can0 0200FD02#0100000000000000
(1791429327.934370) can1 020006FD#7FF780307FFF015E
(1791429327.934430) can0 020002FD#7FFE80497FFF014A
(1791429327.934751) can1 0200FD07#0100000000000000
(1791429327.934825) can0 0200FD03#0100000000000000
(1791429327.934931) can1 020007FD#80027FE47FFF014A
(1791429327.935148) can0 020003FD#7FFF7FD77FFF014A
(1791429327.935373) can1 0200FD08#0100000000000000
(1791429327.935442) can0 0200FD04#0100000000000000
(1791429327.935537) can1 020008FD#829180077FFF0140
(1791429327.935683) can0 020004FD#7FF77FE67FFF0136
(1791429327.936071) can0 0200FD05#0100000000000000
(1791429327.936247) can0 020005FD#7E7B80047FFF015E
(1791429327.936685) can0 0200FD06#0100000000000000
(1791429327.936931) can0 020006FD#800A80117FFF015E
(1791429327.937317) can0 0200FD07#0100000000000000
(1791429327.937541) can0 020007FD#7AE380057FFF014A
(1791429327.937889) can0 0200FD08#0100000000000000
(1791429327.938046) can0 020008FD#7EBE7FE87FFF0140
(1791429327.983883) can1 0200FD01#0100000000000000
(1791429327.984200) can1 020001FD#7FFD7FE57FFF0136
(1791429327.984534) can1 0200FD02#0100000000000000
(1791429327.984763) can1 020002FD#7FFE803B7FFF0140
(1791429327.984898) can0 0200FD01#0100000000000000
(1791429327.985081) can1 0200FD03#0100000000000000
(1791429327.985183) can0 020001FD#7FAF7FD07FFF0136
(1791429327.985303) can1 020003FD#7FFF7FDE7FFF014A
(1791429327.985534) can0 0200FD02#0100000000000000
(1791429327.985669) can1 0200FD04#0100000000000000
(1791429327.985749) can0 020002FD#7FFD7FEB7FFF014A
(1791429327.985914) can1 020004FD#7FFF7FFE7FFF014A
(1791429327.986072) can0 0200FD03#0100000000000000
(1791429327.986250) can1 0200FD05#0100000000000000
(1791429327.986309) can0 020003FD#7FFF803D7FFF014A
(1791429327.986439) can1 020005FD#88E17FFF7FFF015E
(1791429327.986695) can0 0200FD04#0100000000000000
(1791429327.986831) can1 0200FD06#0100000000000000
(1791429327.986875) can0 020004FD#7FF780017FFF0136
(1791429327.987136) can1 020006FD#7FF7801B7FFF015E
(1791429327.987316) can0 0200FD05#0100000000000000
(1791429327.987441) can1 0200FD07#0100000000000000
(1791429327.987533) can0 020005FD#7E7B7FE87FFF015E
(1791429327.987689) can1 020007FD#800280257FFF014A
(1791429327.987885) can0 0200FD06#0100000000000000
(1791429327.988004) can1 0200FD08#0100000000000000
(1791429327.988187) can0 020006FD#800A7FEC7FFF015E
(1791429327.988222) can1 020008FD#829180227FFF0140
(1791429327.988536) can0 0200FD07#0100000000000000
(1791429327.988690) can0 020007FD#7AE380097FFF014A
(1791429327.989071) can0 0200FD08#0100000000000000
(1791429327.989233) can0 020008FD#7EBE7FBB7FFF0140
(1791429328.078072) can1 0200FD01#0100000000000000
(1791429328.078292) can1 020001FD#7FFD801A7FFF0136
(1791429328.078722) can1 0200FD02#0100000000000000
(1791429328.078891) can1 020002FD#7FFE7FE77FFF0140
(1791429328.079391) can1 0200FD03#0100000000000000
(1791429328.079502) can1 020003FD#7FFF7FA47FFF0154
(1791429328.079533) can0 0200FD01#0100000000000000
(1791429328.079754) can0 020001FD#7FAF7FCE7FFF0136
(1791429328.079962) can1 0200FD04#0100000000000000
(1791429328.080080) can0 0200FD02#0100000000000000
(1791429328.080255) can1 020004FD#7FFF801A7FFF014A
(1791429328.080298) can0 020002FD#7FFE7FC67FFF014A
(1791429328.080576) can1 0200FD05#0100000000000000
(1791429328.080683) can0 0200FD03#0100000000000000
(1791429328.080823) can1 020005FD#88E180027FFF015E
(1791429328.080885) can0 020003FD#7FFF7F927FFF014A
(1791429328.081202) can1 0200FD06#0100000000000000
(1791429328.081325) can0 0200FD04#0100000000000000
(1791429328.081380) can1 020006FD#7FF780087FFF015E
(1791429328.081511) can0 020004FD#7FF77FE07FFF0136
(1791429328.081771) can1 0200FD07#0100000000000000
(1791429328.081899) can0 0200FD05#0100000000000000
(1791429328.082013) can1 020007FD#800280137FFF014A
(1791429328.082135) can0 020005FD#7E7B7FA57FFF015E
(1791429328.082387) can1 0200FD08#0100000000000000
(1791429328.082534) can1 020008FD#829180257FFF0140
(1791429328.082538) can0 0200FD06#0100000000000000
(1791429328.082752) can0 020006FD#800A80057FFF015E
(1791429328.083203) can0 0200FD07#0100000000000000
(1791429328.083291) can0 020007FD#7AE47FCB7FFF0154
(1791429328.083722) can0 0200FD08#0100000000000000
(1791429328.083891) can0 020008FD#7EBE800C7FFF0140
(1791429328.175952) can1 0200FD01#0100000000000000
(1791429328.176253) can1 020001FD#7FFD80907FFF0136
(1791429328.176576) can1 0200FD02#0100000000000000
(1791429328.176821) can1 020002FD#7FFE80D97FFF0140
(1791429328.176856) can0 0200FD01#0100000000000000
(1791429328.177151) can0 020001FD#7FAF807C7FFF0136
(1791429328.177188) can1 0200FD03#0100000000000000
(1791429328.177362) can1 020003FD#7FFF805F7FFF0154
(1791429328.177446) can0 0200FD02#0100000000000000
(1791429328.177698) can0 020002FD#7FFE7FEA7FFF014A
(1791429328.177753) can1 0200FD04#0100000000000000
(1791429328.178005) can1 020004FD#7FFF80B47FFF014A
(1791429328.178043) can0 0200FD03#0100000000000000
(1791429328.178237) can0 020003FD#7FFF7F827FFF014A
(1791429328.178385) can1 0200FD05#0100000000000000
(1791429328.178562) can1 020005FD#88E17FF07FFF015E
(1791429328.178642) can0 0200FD04#0100000000000000
(1791429328.178828) can0 020004FD#7FF780037FFF0136
(1791429328.178961) can1 0200FD06#0100000000000000
(1791429328.179254) can1 020006FD#7FF780247FFF015E
(1791429328.179287) can0 0200FD05#0100000000000000
(1791429328.179436) can0 020005FD#7E7B7FF57FFF015E
(1791429328.179577) can1 0200FD07#0100000000000000
(1791429328.179822) can1 020007FD#80027FE67FFF014A
(1791429328.179856) can0 0200FD06#0100000000000000
(1791429328.180069) can0 020006FD#800A7FEB7FFF015E
(1791429328.180196) can1 0200FD08#0100000000000000
(1791429328.180305) can1 020008FD#82917FF87FFF0140
(1791429328.180448) can0 0200FD07#0100000000000000
(1791429328.180691) can0 020007FD#7AE37FF77FFF0154
(1791429328.181025) can0 0200FD08#0100000000000000
(1791429328.181202) can0 020008FD#7EBE7FE87FFF0140
(1791429328.229918) can1 0200FD01#0100000000000000
(1791429328.230195) can1 020001FD#7FFD7FC87FFF0136
(1791429328.230511) can1 0200FD02#0100000000000000
(1791429328.230759) can1 020002FD#7FFE80257FFF0140
(1791429328.231074) can1 0200FD03#0100000000000000
(1791429328.231251) can0 0200FD01#0100000000000000
(1791429328.231297) can1 020003FD#7FFF807E7FFF0154
(1791429328.231439) can0 020001FD#7FAF802E7FFF0136
(1791429328.231758) can1 0200FD04#0100000000000000
(1791429328.231825) can0 0200FD02#0100000000000000
(1791429328.231931) can1 020004FD#7FFF803E7FFF014A
(1791429328.232077) can0 020002FD#7FFE80C87FFF014A
(1791429328.232392) can1 0200FD05#0100000000000000
(1791429328.232455) can0 0200FD03#0100000000000000
(1791429328.232569) can1 020005FD#88E17FF97FFF015E
(1791429328.232701) can0 020003FD#7FFF7FF77FFF014A
(1791429328.232967) can1 0200FD06#0100000000000000
(1791429328.233032) can0 0200FD04#0100000000000000
(1791429328.233267) can1 020006FD#7FF77FEB7FFF015E
(1791429328.233276) can0 020004FD#7FF780447FFF0136
(1791429328.233572) can1 0200FD07#0100000000000000
(1791429328.233640) can0 0200FD05#0100000000000000
(1791429328.233813) can1 020007FD#80027FFB7FFF014A
(1791429328.233879) can0 020005FD#7E7C80227FFF015E
(1791429328.234200) can1 0200FD08#0100000000000000
(1791429328.234257) can0 0200FD06#0100000000000000
(1791429328.234296) can1 020008FD#8291801A7FFF0140
(1791429328.234437) can0 020006FD#800A801E7FFF015E
(1791429328.234838) can0 0200FD07#0100000000000000
(1791429328.235159) can0 020007FD#7AE480337FFF014A
(1791429328.235448) can0 0200FD08#0100000000000000
(1791429328.235597) can0 020008FD#7EBE80177FFF0140
(1791429328.323460) can1 0200FD01#0100000000000000
(1791429328.323699) can1 020001FD#7FFD7F6D7FFF0136
(1791429328.324020) can1 0200FD02#0100000000000000
(1791429328.324244) can1 020002FD#7FFE7FB67FFF0140
(1791429328.324648) can1 0200FD03#0100000000000000
(1791429328.324714) can0 0200FD01#0100000000000000
(1791429328.324829) can1 020003FD#7FFF7F307FFF014A
(1791429328.324962) can0 020001FD#7FAF80457FFF0136
(1791429328.325270) can1 0200FD04#0100000000000000
(1791429328.325335) can0 0200FD02#0100000000000000
(1791429328.325446) can1 020004FD#7FFF80287FFF014A
(1791429328.325543) can0 020002FD#7FFE7F7F7FFF014A
(1791429328.325836) can1 0200FD05#0100000000000000
(1791429328.325908) can0 0200FD03#0100000000000000
(1791429328.326070) can1 020005FD#88E17FEC7FFF015E
(1791429328.326211) can0 020003FD#7FFF7FD17FFF014A
(1791429328.326458) can1 0200FD06#0100000000000000
(1791429328.326542) can0 0200FD04#0100000000000000
(1791429328.326697) can1 020006FD#7FF77FC57FFF015E
(1791429328.326762) can0 020004FD#7FF880677FFF0136
(1791429328.327021) can1 0200FD07#0100000000000000
(1791429328.327082) can0 0200FD05#0100000000000000
(1791429328.327255) can1 020007FD#80027FF17FFF014A
(1791429328.327300) can0 020005FD#7E7C7FEC7FFF015E
(1791429328.327648) can1 0200FD08#0100000000000000
(1791429328.327698) can0 0200FD06#0100000000000000
(1791429328.327787) can1 020008FD#829180567FFF0140
(1791429328.327939) can0 020006FD#800A80177FFF015E
(1791429328.328268) can0 0200FD07#0100000000000000
(1791429328.328552) can0 020007FD#7AE37FD57FFF0154
(1791429328.328842) can0 0200FD08#0100000000000000
(1791429328.328986) can0 020008FD#7EBE802C7FFF0140
(1791429328.377330) can1 0200FD01#0100000000000000
(1791429328.377561) can1 020001FD#7FFD7FD87FFF0136
(1791429328.377868) can1 0200FD02#0100000000000000
(1791429328.378147) can1 020002FD#7FFE7FC57FFF0140
(1791429328.378449) can1 0200FD03#0100000000000000
(1791429328.378698) can1 020003FD#7FFF80507FFF0154
(1791429328.378968) can0 0200FD01#0100000000000000
(1791429328.379017) can1 0200FD04#0100000000000000
(1791429328.379246) can0 020001FD#7FAF800F7FFF0136
(1791429328.379281) can1 020004FD#7FFF7F7B7FFF014A
(1791429328.379589) can0 0200FD02#0100000000000000
(1791429328.379641) can1 0200FD05#0100000000000000
(1791429328.379820) can1 020005FD#88E1800B7FFF015E
(1791429328.379848) can0 020002FD#7FFE805E7FFF014A
(1791429328.380205) can0 0200FD03#0100000000000000
(1791429328.380266) can1 0200FD06#0100000000000000
(1791429328.380392) can0 020003FD#7FFF7F237FFF014A
(1791429328.380440) can1 020006FD#7FF77FD67FFF015E
(1791429328.380776) can0 0200FD04#0100000000000000
(1791429328.380848) can1 0200FD07#0100000000000000
(1791429328.380954) can0 020004FD#7FF77FC97FFF0136
(1791429328.381161) can1 020007FD#8002802B7FFF014A
(1791429328.381396) can0 0200FD05#0100000000000000
(1791429328.381477) can1 0200FD08#0100000000000000
(1791429328.381575) can0 020005FD#7E7B7FDF7FFF015E
(1791429328.381631) can1 020008FD#829180077FFF0140
(1791429328.381924) can0 0200FD06#0100000000000000
(1791429328.382210) can0 020006FD#800A7FDF7FFF015E
(1791429328.382580) can0 0200FD07#0100000000000000
(1791429328.382764) can0 020007FD#7AE480057FFF0154
(1791429328.383198) can0 0200FD08#0100000000000000
(1791429328.383291) can0 020008FD#7EBE80047FFF0140
(1791429328.432730) can1 0200FD01#0100000000000000
(1791429328.432907) can1 020001FD#7FFD7FC87FFF0136
(1791429328.433329) can1 0200FD02#0100000000000000
(1791429328.433545) can1 020002FD#7FFE7FAF7FFF0140
(1791429328.433908) can1 0200FD03#0100000000000000
(1791429328.434112) can0 0200FD01#0100000000000000
(1791429328.434151) can1 020003FD#7FFF80237FFF014A
(1791429328.434381) can0 020001FD#7FAF7FDD7FFF0136
(1791429328.434545) can1 0200FD04#0100000000000000
(1791429328.434680) can0 0200FD02#0100000000000000
(1791429328.434768) can1 020004FD#7FFF7F027FFF014A
(1791429328.434935) can0 020002FD#7FFE7FEB7FFF014A
(1791429328.435102) can1 0200FD05#0100000000000000
(1791429328.435264) can0 0200FD03#0100000000000000
(1791429328.435300) can1 020005FD#88E17FF57FFF015E
(1791429328.435544) can0 020003FD#7FFF80C77FFF014A
(1791429328.435694) can1 0200FD06#0100000000000000
(1791429328.435833) can0 0200FD04#0100000000000000
(1791429328.435938) can1 020006FD#7FF77FF37FFF015E
(1791429328.436156) can0 020004FD#7FF780577FFF0136
(1791429328.436327) can1 0200FD07#0100000000000000
(1791429328.436461) can0 0200FD05#0100000000000000
(1791429328.436499) can1 020007FD#800380677FFF014A
(1791429328.436706) can0 020005FD#7E7B80017FFF015E
(1791429328.436901) can1 0200FD08#0100000000000000
(1791429328.437035) can0 0200FD06#0100000000000000
(1791429328.437068) can1 020008FD#82917FE57FFF0140
(1791429328.437256) can0 020006FD#800A80427FFF015E
(1791429328.437641) can0 0200FD07#0100000000000000
(1791429328.437819) can0 020007FD#7AE380087FFF014A
(1791429328.438268) can0 0200FD08#0100000000000000
(1791429328.438360) can0 020008FD#7EBE7FF47FFF0140
(1791429328.480464) can1 0200FD01#0100000000000000
(1791429328.480699) can1 020001FD#7FFD7FD27FFF0136
(1791429328.481061) can1 0200FD02#0100000000000000
(1791429328.481311) can1 020002FD#7FFE7FAE7FFF0140
(1791429328.481665) can1 0200FD03#0100000000000000
(1791429328.481908) can1 020003FD#7FFF7FE67FFF0154
(1791429328.482329) can1 0200FD04#0100000000000000
(1791429328.482438) can1 020004FD#7FFF802B7FFF014A
(1791429328.482900) can1 0200FD05#0100000000000000
(1791429328.482934) can0 0200FD01#0100000000000000
(1791429328.483074) can1 020005FD#88E1800C7FFF015E
(1791429328.483205) can0 020001FD#7FAF80157FFF0136
(1791429328.483519) can0 0200FD02#0100000000000000
(1791429328.483550) can1 0200FD06#0100000000000000
(1791429328.483762) can0 020002FD#7FFE80437FFF014A
(1791429328.483803) can1 020006FD#7FF780317FFF015E
(1791429328.484093) can0 0200FD03#0100000000000000
(1791429328.484095) can1 0200FD07#0100000000000000
(1791429328.484315) can1 020007FD#800280067FFF014A
(1791429328.484322) can0 020003FD#7FFF807F7FFF014A
(1791429328.484697) can1 0200FD08#0100000000000000
(1791429328.484731) can0 0200FD04#0100000000000000
(1791429328.484855) can1 020008FD#829180097FFF0140
(1791429328.484936) can0 020004FD#7FF780367FFF0136
(1791429328.485264) can0 0200FD05#0100000000000000
(1791429328.485498) can0 020005FD#7E7B7FF27FFF015E
(1791429328.485874) can0 0200FD06#0100000000000000
(1791429328.486058) can0 020006FD#800A7FC27FFF015E
(1791429328.486461) can0 0200FD07#0100000000000000
(1791429328.486695) can0 020007FD#7AE37FF87FFF0154
(1791429328.487028) can0 0200FD08#0100000000000000
(1791429328.487207) can0 020008FD#7EBE7FFF7FFF0140
(1791429328.533269) can1 0200FD01#0100000000000000
(1791429328.533379) can1 020001FD#7FFD7FE77FFF0136
(1791429328.533878) can1 0200FD02#0100000000000000
(1791429328.534047) can1 020002FD#7FFE80277FFF0140
(1791429328.534549) can1 0200FD03#0100000000000000
(1791429328.534717) can1 020003FD#7FFF80297FFF0154
(1791429328.534950) can0 0200FD01#0100000000000000
(1791429328.535093) can1 0200FD04#0100000000000000
(1791429328.535154) can0 020001FD#7FAF801F7FFF0136
(1791429328.535313) can1 020004FD#800080877FFF014A
(1791429328.535547) can0 0200FD02#0100000000000000
(1791429328.535676) can1 0200FD05#0100000000000000
(1791429328.535765) can0 020002FD#7FFE7FFD7FFF014A
(1791429328.535916) can1 020005FD#88E17FE67FFF015E
(1791429328.536092) can0 0200FD03#0100000000000000
(1791429328.536271) can1 0200FD06#0100000000000000
(1791429328.536307) can0 020003FD#7FFF7FEF7FFF014A
(1791429328.536450) can1 020006FD#7FF7801A7FFF015E
(1791429328.536711) can0 0200FD04#0100000000000000
(1791429328.536839) can1 0200FD07#0100000000000000
(1791429328.536961) can0 020004FD#7FF780287FFF0136
(1791429328.537167) can1 020007FD#80027FF17FFF014A
(1791429328.537340) can0 0200FD05#0100000000000000
(1791429328.537462) can1 0200FD08#0100000000000000
(1791429328.537521) can0 020005FD#7E7B7FA07FFF015E
(1791429328.537639) can1 020008FD#8291803E7FFF0140
(1791429328.537970) can0 0200FD06#0100000000000000
(1791429328.538212) can0 020006FD#800A80487FFF015E
(1791429328.538586) can0 0200FD07#0100000000000000
(1791429328.538823) can0 020007FD#7AE480167FFF0154
(1791429328.539210) can0 0200FD08#0100000000000000
(1791429328.539288) can0 020008FD#7EBE7FE37FFF0140
(1791429328.659265) can1 0200FD01#0100000000000000
(1791429328.659446) can1 020001FD#7FFD7FF67FFF0136
(1791429328.659831) can1 0200FD02#0100000000000000
(1791429328.659983) can0 0200FD01#0100000000000000
(1791429328.660064) can1 020002FD#7FFE80A47FFF0140
(1791429328.660252) can0 020001FD#7FAF7FFB7FFF0136
(1791429328.660393) can1 0200FD03#0100000000000000
(1791429328.660575) can1 020003FD#7FFF80257FFF014A
(1791429328.660610) can0 0200FD02#0100000000000000
(1791429328.660839) can0 020002FD#7FFE7F9F7FFF014A
(1791429328.660964) can1 0200FD04#0100000000000000
(1791429328.661203) can0 0200FD03#0100000000000000
(1791429328.661204) can1 020004FD#7FFF803E7FFF014A
(1791429328.661381) can0 020003FD#7FFF80067FFF014A
(1791429328.661595) can1 0200FD05#0100000000000000
(1791429328.661778) can0 0200FD04#0100000000000000
(1791429328.661842) can1 020005FD#88E17FF37FFF015E
(1791429328.662042) can0 020004FD#7FF780007FFF0136
(1791429328.662196) can1 0200FD06#0100000000000000
(1791429328.662374) can1 020006FD#7FF780087FFF015E
(1791429328.662410) can0 0200FD05#0100000000000000
(1791429328.662575) can0 020005FD#7E7C7FE07FFF015E
(1791429328.662778) can1 0200FD07#0100000000000000
(1791429328.662948) can1 020007FD#800280427FFF014A
(1791429328.662983) can0 0200FD06#0100000000000000
(1791429328.663267) can0 020006FD#800A80257FFF015E
(1791429328.663404) can1 0200FD08#0100000000000000
(1791429328.663530) can1 020008FD#82917FB47FFF0140
(1791429328.663588) can0 0200FD07#0100000000000000
(1791429328.663773) can0 020007FD#7AE37FD37FFF014A
(1791429328.664226) can0 0200FD08#0100000000000000
(1791429328.664300) can0 020008FD#7EBE80097FFF0140
(1791429328.724404) can1 0200FD01#0100000000000000
(1791429328.724557) can1 020001FD#7FFD7FB07FFF0136
(1791429328.724988) can1 0200FD02#0100000000000000
(1791429328.725216) can1 020002FD#7FFE802F7FFF0140
(1791429328.725341) can0 0200FD01#0100000000000000
(1791429328.725496) can0 020001FD#7FAF80857FFF0136
(1791429328.725585) can1 0200FD03#0100000000000000
(1791429328.725840) can1 020003FD#7FFF802F7FFF014A
(1791429328.726087) can0 0200FD02#0100000000000000
(1791429328.726204) can1 0200FD04#0100000000000000
(1791429328.726320) can0 020002FD#7FFE800D7FFF014A
(1791429328.726386) can1 020004FD#7FFF80327FFF014A
(1791429328.726739) can0 0200FD03#0100000000000000
(1791429328.726777) can1 0200FD05#0100000000000000
(1791429328.726903) can0 020003FD#7FFF80617FFF014A
(1791429328.727023) can1 020005FD#88E17FE07FFF015E
(1791429328.727347) can0 0200FD04#0100000000000000
(1791429328.727404) can1 0200FD06#0100000000000000
(1791429328.727562) can0 020004FD#7FF77FBF7FFF0136
(1791429328.727596) can1 020006FD#7FF77FCB7FFF015E
(1791429328.727931) can0 0200FD05#0100000000000000
(1791429328.727991) can1 0200FD07#0100000000000000
(1791429328.728220) can0 020005FD#7E7B80057FFF015E
(1791429328.728274) can1 020007FD#80027FC67FFF014A
(1791429328.728558) can0 0200FD06#0100000000000000
(1791429328.728598) can1 0200FD08#0100000000000000
(1791429328.728730) can1 020008FD#829180027FFF0140
(1791429328.728775) can0 020006FD#800A7FEE7FFF015E
(1791429328.729083) can0 0200FD07#0100000000000000
(1791429328.729317) can0 020007FD#7AE37FCB7FFF014A
(1791429328.729717) can0 0200FD08#0100000000000000
(1791429328.729854) can0 020008FD#7EBE7FE87FFF0140
(1791429328.796688) can1 0200FD01#0100000000000000
(1791429328.796932) can1 020001FD#7FFD7FDB7FFF0136
(1791429328.797271) can1 0200FD02#0100000000000000
(1791429328.797529) can1 020002FD#7FFE80187FFF0140
(1791429328.797842) can1 0200FD03#0100000000000000
(1791429328.797878) can0 0200FD01#0100000000000000
(1791429328.798079) can1 020003FD#7FFF80537FFF014A
(1791429328.798155) can0 020001FD#7FAF805A7FFF0136
(1791429328.798472) can1 0200FD04#0100000000000000
(1791429328.798508) can0 0200FD02#0100000000000000
(1791429328.798691) can0 020002FD#7FFE805C7FFF014A
(1791429328.798721) can1 020004FD#7FFF7FE67FFF014A
(1791429328.799056) can1 0200FD05#0100000000000000
(1791429328.799124) can0 0200FD03#0100000000000000
(1791429328.799269) can1 020005FD#88E17FD97FFF015E
(1791429328.799297) can0 020003FD#7FFF7FCE7FFF014A
(1791429328.799671) can1 0200FD06#0100000000000000
(1791429328.799739) can0 0200FD04#0100000000000000
(1791429328.799913) can1 020006FD#7FF77FE17FFF015E
(1791429328.799983) can0 020004FD#7FF7801C7FFF0136
(1791429328.800277) can1 0200FD07#0100000000000000
(1791429328.800360) can0 0200FD05#0100000000000000
(1791429328.800452) can1 020007FD#8002805E7FFF014A
(1791429328.800564) can0 020005FD#7E7B7FD07FFF015E
(1791429328.800847) can1 0200FD08#0100000000000000
(1791429328.800916) can0 0200FD06#0100000000000000
(1791429328.800993) can1 020008FD#82917FCA7FFF0140
(1791429328.801232) can0 020006FD#800A80167FFF015E
(1791429328.801562) can0 0200FD07#0100000000000000
(1791429328.801779) can0 020007FD#7AE380027FFF014A
(1791429328.802101) can0 0200FD08#0100000000000000
(1791429328.802289) can0 020008FD#7EBE7F907FFF0140
(1791429328.873565) can1 0200FD01#0100000000000000
(1791429328.873783) can1 020001FD#7FFD806E7FFF0136
(1791429328.874098) can1 0200FD02#0100000000000000
(1791429328.874243) can1 020002FD#7FFE80A47FFF0140
(1791429328.874949) can1 0200FD03#0100000000000000
(1791429328.875229) can1 020003FD#7FFF80597FFF0154
(1791429328.875559) can1 0200FD04#0100000000000000
(1791429328.875774) can1 020004FD#7FFF80477FFF014A
(1791429328.876101) can1 0200FD05#0100000000000000
(1791429328.876327) can1 020005FD#88E17FBF7FFF015E
(1791429328.876478) can0 0200FD01#0100000000000000
(1791429328.876701) can1 0200FD06#0100000000000000
(1791429328.876739) can0 020001FD#7FAE7F407FFF0136
(1791429328.876950) can1 020006FD#7FF780027FFF015E
(1791429328.877051) can0 0200FD02#0100000000000000
(1791429328.877279) can0 020002FD#7FFE7FF47FFF014A
(1791429328.877286) can1 0200FD07#0100000000000000
(1791429328.877463) can1 020007FD#800280217FFF014A
(1791429328.877665) can0 0200FD03#0100000000000000
(1791429328.877846) can0 020003FD#7FFF80BA7FFF014A
(1791429328.877852) can1 0200FD08#0100000000000000
(1791429328.878048) can1 020008FD#82917FD57FFF0140
(1791429328.878283) can0 0200FD04#0100000000000000
(1791429328.878392) can0 020004FD#7FF780F07FFF0136
(1791429328.879220) can0 0200FD05#0100000000000000
(1791429328.879409) can0 020005FD#7E7C7FFF7FFF015E
(1791429328.879799) can0 0200FD06#0100000000000000
(1791429328.880045) can0 020006FD#800A7FF37FFF015E
(1791429328.880410) can0 0200FD07#0100000000000000
(1791429328.880580) can0 020007FD#7AE37FE97FFF0154
(1791429328.880991) can0 0200FD08#0100000000000000
(1791429328.881169) can0 020008FD#7EBE7FF37FFF0140
(1791429328.944122) can1 0200FD01#0100000000000000
(1791429328.944332) can1 020001FD#7FFD7F9E7FFF0136
(1791429328.944753) can1 0200FD02#0100000000000000
(1791429328.944930) can1 020002FD#7FFE804F7FFF0140
(1791429328.945353) can1 0200FD03#0100000000000000
(1791429328.945567) can1 020003FD#7FFF7FD97FFF014A
(1791429328.945866) can0 0200FD01#0100000000000000
(1791429328.945917) can1 0200FD04#0100000000000000
(1791429328.946166) can0 020001FD#7FAF80087FFF0136
(1791429328.946213) can1 020004FD#7FFF7FD57FFF014A
(1791429328.946475) can0 0200FD02#0100000000000000
(1791429328.946564) can1 0200FD05#0100000000000000
(1791429328.946719) can0 020002FD#7FFE7FA47FFF014A
(1791429328.946788) can1 020005FD#88E17FE37FFF015E
(1791429328.947050) can0 0200FD03#0100000000000000
(1791429328.947112) can1 0200FD06#0100000000000000
(1791429328.947265) can0 020003FD#7FFF80727FFF014A
(1791429328.947319) can1 020006FD#7FF780117FFF015E
(1791429328.947666) can0 0200FD04#0100000000000000
(1791429328.947730) can1 0200FD07#0100000000000000
(1791429328.947841) can0 020004FD#7FF77FD47FFF0136
(1791429328.947967) can1 020007FD#8002800F7FFF014A
(1791429328.948289) can0 0200FD05#0100000000000000
(1791429328.948353) can1 0200FD08#0100000000000000
(1791429328.948444) can1 020008FD#82917FDF7FFF0140
(1791429328.948480) can0 020005FD#7E7B7FC57FFF015E
(1791429328.948889) can0 0200FD06#0100000000000000
(1791429328.949088) can0 020006FD#800A80417FFF015E
(1791429328.949486) can0 0200FD07#0100000000000000
(1791429328.949747) can0 020007FD#7AE380237FFF0154
(1791429328.950027) can0 0200FD08#0100000000000000
(1791429328.950223) can0 020008FD#7EBE801D7FFF0140
(1791429329.016972) can1 0200FD01#0100000000000000
(1791429329.017217) can1 020001FD#7FFD7FF37FFF0136
(1791429329.017545) can1 0200FD02#0100000000000000
(1791429329.017785) can1 020002FD#7FFE7FDF7FFF0140
(1791429329.018103) can1 0200FD03#0100000000000000
(1791429329.018332) can1 020003FD#7FFF807B7FFF014A
(1791429329.018744) can0 0200FD01#0100000000000000
(1791429329.018712) can1 0200FD04#0100000000000000
(1791429329.018979) can0 020001FD#7FAF80B67FFF0136
(1791429329.018918) can1 020004FD#7FFF80097FFF014A
(1791429329.019362) can1 0200FD05#0100000000000000
(1791429329.019364) can0 0200FD02#0100000000000000
(1791429329.019565) can0 020002FD#7FFE7FA47FFF014A
(1791429329.019571) can1 020005FD#88E17FF77FFF015E
(1791429329.019932) can0 0200FD03#0100000000000000
(1791429329.019934) can1 0200FD06#0100000000000000
(1791429329.020252) can1 020006FD#7FF780277FFF015E
(1791429329.020268) can0 020003FD#7FFF80657FFF014A
(1791429329.020568) can0 0200FD04#0100000000000000
(1791429329.020570) can1 0200FD07#0100000000000000
(1791429329.020805) can0 020004FD#7FF77F997FFF0136
(1791429329.020841) can1 020007FD#80027FEB7FFF014A
(1791429329.021137) can0 0200FD05#0100000000000000
(1791429329.021139) can1 0200FD08#0100000000000000
(1791429329.021301) can1 020008FD#829180237FFF0140
(1791429329.021335) can0 020005FD#7E7C80167FFF015E
(1791429329.021755) can0 0200FD06#0100000000000000
(1791429329.021932) can0 020006FD#800A800D7FFF015E
(1791429329.022360) can0 0200FD07#0100000000000000
(1791429329.022559) can0 020007FD#7AE37FDB7FFF014A
(1791429329.022928) can0 0200FD08#0100000000000000
(1791429329.023068) can0 020008FD#7EBE7FD17FFF0140
(1791429329.100887) can1 0200FD01#0100000000000000
(1791429329.101180) can1 020001FD#7FFD7F877FFF0136
(1791429329.101478) can1 0200FD02#0100000000000000
(1791429329.101719) can1 020002FD#7FFE7FAD7FFF0140
(1791429329.102037) can1 0200FD03#0100000000000000
(1791429329.102283) can1 020003FD#7FFF80B87FFF014A
(1791429329.102667) can1 0200FD04#0100000000000000
(1791429329.102847) can1 020004FD#7FFF7F727FFF014A
(1791429329.103283) can1 0200FD05#0100000000000000
(1791429329.103469) can1 020005FD#88E180167FFF015E
(1791429329.103621) can0 0200FD01#0100000000000000
(1791429329.103855) can1 0200FD06#0100000000000000
(1791429329.103884) can0 020001FD#7FAF80397FFF0136
(1791429329.104113) can1 020006FD#7FF780057FFF015E
(1791429329.104219) can0 0200FD02#0100000000000000
(1791429329.104397) can0 020002FD#7FFE80477FFF014A
(1791429329.104491) can1 0200FD07#0100000000000000
(1791429329.104730) can1 020007FD#800280097FFF014A
(1791429329.104844) can0 0200FD03#0100000000000000
(1791429329.105017) can0 020003FD#7FFF80647FFF014A
(1791429329.105052) can1 0200FD08#0100000000000000
(1791429329.105247) can1 020008FD#82917FF97FFF0140
(1791429329.105476) can0 0200FD04#0100000000000000
(1791429329.105712) can0 020004FD#7FF77FCD7FFF0136
(1791429329.106082) can0 0200FD05#0100000000000000
(1791429329.106283) can0 020005FD#7E7C80097FFF015E
(1791429329.106659) can0 0200FD06#0100000000000000
(1791429329.106834) can0 020006FD#800A7FFC7FFF015E
(1791429329.107290) can0 0200FD07#0100000000000000
(1791429329.107410) can0 020007FD#7AE37FEB7FFF0154
(1791429329.107828) can0 0200FD08#0100000000000000
(1791429329.107974) can0 020008FD#7EBF80497FFF0140
(1791429329.174555) can1 0200FD01#0100000000000000
(1791429329.174795) can1 020001FD#7FFD7FC47FFF0136
(1791429329.175110) can1 0200FD02#0100000000000000
(1791429329.175338) can1 020002FD#7FFE804D7FFF0140
(1791429329.175693) can1 0200FD03#0100000000000000
(1791429329.175949) can1 020003FD#7FFF7F8B7FFF014A
(1791429329.176304) can1 0200FD04#0100000000000000
(1791429329.176469) can1 020004FD#7FFF7FC77FFF014A
(1791429329.176861) can1 0200FD05#0100000000000000
(1791429329.177097) can1 020005FD#88E17FFC7FFF015E
(1791429329.177230) can0 0200FD01#0100000000000000
(1791429329.177418) can0 020001FD#7FAF7FE07FFF0136
(1791429329.177484) can1 0200FD06#0100000000000000
(1791429329.177731) can1 020006FD#7FF780047FFF015E
(1791429329.177802) can0 0200FD02#0100000000000000
(1791429329.178066) can0 020002FD#7FFE7F877FFF014A
(1791429329.178078) can1 0200FD07#0100000000000000
(1791429329.178291) can1 020007FD#80027FD27FFF014A
(1791429329.178450) can0 0200FD03#0100000000000000
(1791429329.178605) can0 020003FD#7FFF80757FFF014A
(1791429329.178677) can1 0200FD08#0100000000000000
(1791429329.178845) can1 020008FD#829180187FFF0140
(1791429329.178986) can0 0200FD04#0100000000000000
(1791429329.179182) can0 020004FD#7FF780907FFF0136
(1791429329.179945) can0 0200FD05#0100000000000000
(1791429329.180250) can0 020005FD#7E7B7FCE7FFF015E
(1791429329.180602) can0 0200FD06#0100000000000000
(1791429329.180794) can0 020006FD#800A80057FFF015E
(1791429329.181215) can0 0200FD07#0100000000000000
(1791429329.181402) can0 020007FD#7AE480487FFF0154
(1791429329.181768) can0 0200FD08#0100000000000000
(1791429329.181912) can0 020008FD#7EBE7FF27FFF0140
(1791429329.252302) can1 0200FD01#0100000000000000
(1791429329.252479) can1 020001FD#7FFD804A7FFF0136
(1791429329.252883) can1 0200FD02#0100000000000000
(1791429329.253068) can1 020002FD#7FFE80407FFF0140
(1791429329.253292) can0 0200FD01#0100000000000000
(1791429329.253472) can0 020001FD#7FAF7F9C7FFF0136
(1791429329.253506) can1 0200FD03#0100000000000000
(1791429329.253730) can1 020003FD#7FFF7FDC7FFF014A
