(1791429819.428837) can1 0200FD01#0100000000000000
(1791429819.429123) can1 020001FD#7FFE80747FFF0136
(1791429819.429178) can0 0200FD01#0100000000000000
(1791429819.429357) can0 020001FD#7FB080827FFF0136
(1791429819.429469) can1 0200FD02#0100000000000000
(1791429819.429674) can1 020002FD#7FFF80517FFF014A
(1791429819.429756) can0 0200FD02#0100000000000000
(1791429819.430000) can1 0200FD03#0100000000000000
(1791429819.430058) can0 020002FD#7FFD7FD17FFF014A
(1791429819.430217) can1 020003FD#7FFF80327FFF0154
(1791429819.430366) can0 0200FD03#0100000000000000
(1791429819.430609) can0 020003FD#7FFF80657FFF014A
(1791429819.430643) can1 0200FD04#0100000000000000
(1791429819.430859) can1 020004FD#7FFF80007FFF014A
(1791429819.430925) can0 0200FD04#0100000000000000
(1791429819.431178) can0 020004FD#7FF67FB17FFF0136
(1791429819.431238) can1 0200FD05#0100000000000000
(1791429819.431468) can1 020005FD#88E1801E7FFF0168
(1791429819.431558) can0 0200FD05#0100000000000000
(1791429819.431808) can1 0200FD06#0100000000000000
(1791429819.431809) can0 020005FD#7E7C7FC57FFF0168
(1791429819.432118) can1 020006FD#7FF8800D7FFF0168
(1791429819.432179) can0 0200FD06#0100000000000000
(1791429819.432358) can0 020006FD#800A7FDE7FFF0168
(1791429819.432458) can1 0200FD07#0100000000000000
(1791429819.432690) can1 020007FD#800280497FFF014A
(1791429819.432757) can0 0200FD07#0100000000000000
(1791429819.433005) can1 0200FD08#0100000000000000
(1791429819.433055) can0 020007FD#7AE3803B7FFF0154
(1791429819.433176) can1 020008FD#828F7FD67FFF0140
(1791429819.433372) can0 0200FD08#0100000000000000
(1791429819.433519) can0 020008FD#7EBE802D7FFF0140
(1791429819.494629) can1 0200FD01#0100000000000000
(1791429819.494813) can1 020001FD#7FFE80087FFF0136
(1791429819.495244) can1 0200FD02#0100000000000000
(1791429819.495487) can1 020002FD#7FFF7FBA7FFF014A
(1791429819.495660) can0 0200FD01#0100000000000000
(1791429819.495813) can1 0200FD03#0100000000000000
(1791429819.495849) can0 020001FD#7FB080C97FFF0136
(1791429819.496133) can1 020003FD#7FFF80B57FFF0154
(1791429819.496309) can0 0200FD02#0100000000000000
(1791429819.496470) can1 0200FD04#0100000000000000
(1791429819.496500) can0 020002FD#7FFD80367FFF014A
(1791429819.496682) can1 020004FD#7FFF80627FFF014A
(1791429819.496881) can0 0200FD03#0100000000000000
(1791429819.497005) can1 0200FD05#0100000000000000
(1791429819.497173) can0 020003FD#7FFF800A7FFF014A
(1791429819.497221) can1 020005FD#88E180057FFF0168
(1791429819.497501) can0 0200FD04#0100000000000000
(1791429819.497626) can1 0200FD06#0100000000000000
(1791429819.497681) can0 020004FD#7FF680227FFF0136
(1791429819.497862) can1 020006FD#7FF87FE27FFF0168
(1791429819.498118) can0 0200FD05#0100000000000000
(1791429819.498251) can1 0200FD07#0100000000000000
(1791429819.498309) can0 020005FD#7E7C80057FFF0168
(1791429819.498461) can1 020007FD#8003800D7FFF014A
(1791429819.498696) can0 0200FD06#0100000000000000
(1791429819.498819) can1 0200FD08#0100000000000000
(1791429819.498944) can0 020006FD#800A7FC87FFF0168
(1791429819.498979) can1 020008FD#829080567FFF0140
(1791429819.499305) can0 0200FD07#0100000000000000
(1791429819.499489) can0 020007FD#7AE480037FFF0154
(1791429819.499880) can0 0200FD08#0100000000000000
(1791429819.500068) can0 020008FD#7EBE7FD87FFF0140
(1791429819.690317) can1 0200FD01#0100000000000000
(1791429819.690483) can1 020001FD#7FFE80AA7FFF0136
(1791429819.690879) can1 0200FD02#0100000000000000
(1791429819.691119) can0 0200FD01#0100000000000000
(1791429819.691167) can1 020002FD#7FFF80737FFF014A
(1791429819.691294) can0 020001FD#7FB0800F7FFF0136
(1791429819.691510) can1 0200FD03#0100000000000000
(1791429819.691666) can0 0200FD02#0100000000000000
(1791429819.691701) can1 020003FD#7FFF7FE57FFF0154
(1791429819.691904) can0 020002FD#7FFE805D7FFF014A
(1791429819.692126) can1 0200FD04#0100000000000000
(1791429819.692252) can0 0200FD03#0100000000000000
(1791429819.692324) can1 020004FD#7FFF80F67FFF014A
(1791429819.692477) can0 020003FD#7FFF80447FFF014A
(1791429819.692702) can1 0200FD05#0100000000000000
(1791429819.692824) can0 0200FD04#0100000000000000
(1791429819.692949) can1 020005FD#88E17FEE7FFF0168
(1791429819.693134) can0 020004FD#7FF67FF97FFF0136
(1791429819.693321) can1 0200FD06#0100000000000000
(1791429819.693469) can0 0200FD05#0100000000000000
(1791429819.693506) can1 020006FD#7FF880017FFF0168
(1791429819.693699) can0 020005FD#7E7B7FEE7FFF0168
(1791429819.693889) can1 0200FD07#0100000000000000
(1791429819.694017) can0 0200FD06#0100000000000000
(1791429819.694173) can1 020007FD#80027FFF7FFF014A
(1791429819.694228) can0 020006FD#800A80387FFF0168
(1791429819.694506) can1 0200FD08#0100000000000000
(1791429819.694628) can0 0200FD07#0100000000000000
(1791429819.694664) can1 020008FD#8290800A7FFF0140
(1791429819.694815) can0 020007FD#7AE480227FFF0154
(1791429819.695265) can0 0200FD08#0100000000000000
(1791429819.695329) can0 020008FD#7EBE80277FFF0140
(1791429819.767635) can1 0200FD01#0100000000000000
(1791429819.767876) can1 020001FD#7FFE7FC37FFF0136
(1791429819.768262) can1 0200FD02#0100000000000000
(1791429819.768263) can0 0200FD01#0100000000000000
(1791429819.768442) can0 020001FD#7FB0800C7FFF0136
(1791429819.768470) can1 020002FD#7FFF7FE47FFF014A
(1791429819.768828) can1 0200FD03#0100000000000000
(1791429819.768829) can0 0200FD02#0100000000000000
(1791429819.769126) can0 020002FD#7FFD803E7FFF014A
(1791429819.769132) can1 020003FD#7FFF7F837FFF0154
(1791429819.769470) can0 0200FD03#0100000000000000
(1791429819.769472) can1 0200FD04#0100000000000000
(1791429819.769634) can1 020004FD#7FFF7F3D7FFF014A
(1791429819.769690) can0 020003FD#7FFF7FD57FFF014A
(1791429819.770011) can0 0200FD04#0100000000000000
(1791429819.770055) can1 0200FD05#0100000000000000
(1791429819.770234) can0 020004FD#7FF680267FFF0136
(1791429819.770267) can1 020005FD#88E17FC57FFF0168
(1791429819.770607) can1 0200FD06#0100000000000000
(1791429819.770645) can0 0200FD05#0100000000000000
(1791429819.770810) can0 020005FD#7E7C80027FFF0168
(1791429819.770856) can1 020006FD#7FF87FF17FFF015E
(1791429819.771185) can1 0200FD07#0100000000000000
(1791429819.771254) can0 0200FD06#0100000000000000
(1791429819.771367) can1 020007FD#80027FEE7FFF014A
(1791429819.771476) can0 020006FD#800A800D7FFF0168
(1791429819.771751) can1 0200FD08#0100000000000000
(1791429819.771819) can0 0200FD07#0100000000000000
(1791429819.771910) can1 020008FD#828F80117FFF0140
(1791429819.772119) can0 020007FD#7AE37FB37FFF0154
(1791429819.772442) can0 0200FD08#0100000000000000
(1791429819.772580) can0 020008FD#7EBE800C7FFF0140
(1791429819.854392) can1 0200FD01#0100000000000000
(1791429819.854628) can1 020001FD#7FFD7F487FFF0136
(1791429819.854909) can0 0200FD01#0100000000000000
(1791429819.854952) can1 0200FD02#0100000000000000
(1791429819.855180) can0 020001FD#7FB07FA27FFF0136
(1791429819.855213) can1 020002FD#7FFE7FB77FFF014A
(1791429819.855511) can0 0200FD02#0100000000000000
(1791429819.855585) can1 0200FD03#0100000000000000
(1791429819.855700) can0 020002FD#7FFD80157FFF014A
(1791429819.855770) can1 020003FD#7FFF7FFD7FFF0154
(1791429819.856133) can0 0200FD03#0100000000000000
(1791429819.856197) can1 0200FD04#0100000000000000
(1791429819.856320) can0 020003FD#7FFF80A37FFF014A
(1791429819.856377) can1 020004FD#7FFF7F997FFF014A
(1791429819.856708) can0 0200FD04#0100000000000000
(1791429819.856772) can1 0200FD05#0100000000000000
(1791429819.856951) can0 020004FD#7FF680947FFF0136
(1791429819.857088) can1 020005FD#88E17FFC7FFF0168
(1791429819.857329) can0 0200FD05#0100000000000000
(1791429819.857391) can1 0200FD06#0100000000000000
(1791429819.857510) can0 020005FD#7E7C80057FFF0168
(1791429819.857629) can1 020006FD#7FF87FEA7FFF0168
(1791429819.857895) can0 0200FD06#0100000000000000
(1791429819.857956) can1 0200FD07#0100000000000000
(1791429819.858178) can0 020006FD#800A7FEE7FFF0168
(1791429819.858213) can1 020007FD#80027FFF7FFF014A
(1791429819.858512) can0 0200FD07#0100000000000000
(1791429819.858585) can1 0200FD08#0100000000000000
(1791429819.858688) can0 020007FD#7AE47FEF7FFF0154
(1791429819.858725) can1 020008FD#828F80207FFF0140
(1791429819.859177) can0 0200FD08#0100000000000000
(1791429819.859218) can0 020008FD#7EBE800D7FFF0140
(1791429819.934654) can1 0200FD01#0100000000000000
(1791429819.934826) can1 020001FD#7FFE802E7FFF0136
(1791429819.934858) can0 0200FD01#0100000000000000
(1791429819.935143) can0 020001FD#7FB07FB27FFF0136
(1791429819.935266) can1 0200FD02#0100000000000000
(1791429819.935478) can1 020002FD#7FFF7FD77FFF014A
(1791429819.935481) can0 0200FD02#0100000000000000
(1791429819.935707) can0 020002FD#7FFE7FDB7FFF014A
(1791429819.935843) can1 0200FD03#0100000000000000
(1791429819.936030) can0 0200FD03#0100000000000000
(1791429819.936084) can1 020003FD#7FFF80667FFF0154
(1791429819.936244) can0 020003FD#7FFF7F797FFF014A
(1791429819.936483) can1 0200FD04#0100000000000000
(1791429819.936642) can0 0200FD04#0100000000000000
(1791429819.936702) can1 020004FD#7FFF7F7C7FFF014A
(1791429819.936829) can0 020004FD#7FF6806B7FFF0136
(1791429819.937029) can1 0200FD05#0100000000000000
(1791429819.937244) can1 020005FD#88E17FCF7FFF0168
(1791429819.937279) can0 0200FD05#0100000000000000
(1791429819.937479) can0 020005FD#7E7C7FF37FFF0168
(1791429819.937631) can1 0200FD06#0100000000000000
(1791429819.937838) can0 0200FD06#0100000000000000
(1791429819.937879) can1 020006FD#7FF8800E7FFF0168
(1791429819.938144) can0 020006FD#800A80097FFF0168
(1791429819.938266) can1 0200FD07#0100000000000000
(1791429819.938390) can1 020007FD#800280087FFF014A
(1791429819.938453) can0 0200FD07#0100000000000000
(1791429819.938697) can0 020007FD#7AE47FC17FFF0154
(1791429819.938835) can1 0200FD08#0100000000000000
(1791429819.938999) can1 020008FD#829080387FFF0140
(1791429819.939032) can0 0200FD08#0100000000000000
(1791429819.939164) can0 020008FD#7EBE7FE27FFF0140
(1791429820.010777) can1 0200FD01#0100000000000000
(1791429820.010892) can1 020001FD#7FFE801B7FFF0136
(1791429820.011127) can0 0200FD01#0100000000000000
(1791429820.011306) can0 020001FD#7FB07FFF7FFF0136
(1791429820.011405) can1 0200FD02#0100000000000000
(1791429820.011589) can1 020002FD#7FFF7FD37FFF014A
(1791429820.011675) can0 0200FD02#0100000000000000
(1791429820.011914) can0 020002FD#7FFD7FFC7FFF014A
(1791429820.012039) can1 0200FD03#0100000000000000
(1791429820.012200) can1 020003FD#7FFF7F597FFF0154
(1791429820.012261) can0 0200FD03#0100000000000000
(1791429820.012449) can0 020003FD#7FFF80797FFF014A
(1791429820.012651) can1 0200FD04#0100000000000000
(1791429820.012832) can0 0200FD04#0100000000000000
(1791429820.012894) can1 020004FD#7FFF7FA57FFF014A
(1791429820.013145) can0 020004FD#7FF6801C7FFF0136
(1791429820.013270) can1 0200FD05#0100000000000000
(1791429820.013390) can1 020005FD#88E180597FFF0168
(1791429820.013480) can0 0200FD05#0100000000000000
(1791429820.013703) can0 020005FD#7E7C7FE97FFF0168
(1791429820.013839) can1 0200FD06#0100000000000000
(1791429820.014028) can0 0200FD06#0100000000000000
(1791429820.014139) can1 020006FD#7FF87FE77FFF0168
(1791429820.014246) can0 020006FD#800A801A7FFF0168
(1791429820.014480) can1 0200FD07#0100000000000000
(1791429820.014643) can0 0200FD07#0100000000000000
(1791429820.014694) can1 020007FD#800280607FFF014A
(1791429820.014891) can0 020007FD#7AE3800E7FFF0154
(1791429820.015027) can1 0200FD08#0100000000000000
(1791429820.015215) can1 020008FD#829080037FFF0140
(1791429820.015267) can0 0200FD08#0100000000000000
(1791429820.015371) can0 020008FD#7EBE80017FFF0140
(1791429820.087527) can1 0200FD01#0100000000000000
(1791429820.087769) can1 020001FD#7FFE80577FFF0136
(1791429820.087801) can0 0200FD01#0100000000000000
(1791429820.088011) can0 020001FD#7FB07F657FFF0136
(1791429820.088146) can1 0200FD02#0100000000000000
(1791429820.088336) can1 020002FD#7FFF7FD47FFF014A
(1791429820.088396) can0 0200FD02#0100000000000000
(1791429820.088637) can0 020002FD#7FFD806D7FFF014A
(1791429820.088716) can1 0200FD03#0100000000000000
(1791429820.088968) can1 020003FD#7FFF7FA77FFF0154
(1791429820.088973) can0 0200FD03#0100000000000000
(1791429820.089205) can0 020003FD#7FFF80B47FFF014A
(1791429820.089339) can1 0200FD04#0100000000000000
(1791429820.089525) can1 020004FD#7FFF7F497FFF014A
(1791429820.089592) can0 0200FD04#0100000000000000
(1791429820.089837) can0 020004FD#7FF680717FFF0136
(1791429820.089905) can1 0200FD05#0100000000000000
(1791429820.090186) can1 020005FD#88E1800B7FFF0168
(1791429820.090220) can0 0200FD05#0100000000000000
(1791429820.090389) can0 020005FD#7E7C80357FFF0168
(1791429820.090528) can1 0200FD06#0100000000000000
(1791429820.090706) can1 020006FD#7FF87FFA7FFF0168
(1791429820.090779) can0 0200FD06#0100000000000000
(1791429820.091087) can0 020006FD#800A7FD17FFF0168
(1791429820.091130) can1 0200FD07#0100000000000000
(1791429820.091312) can1 020007FD#8002801A7FFF014A
(1791429820.091400) can0 0200FD07#0100000000000000
(1791429820.091636) can0 020007FD#7AE37FCE7FFF0154
(1791429820.091687) can1 0200FD08#0100000000000000
(1791429820.091864) can1 020008FD#828F7FFC7FFF0140
(1791429820.091950) can0 0200FD08#0100000000000000
(1791429820.092142) can0 020008FD#7EBE7FB77FFF0140
(1791429820.163401) can1 0200FD01#0100000000000000
(1791429820.163583) can1 020001FD#7FFE7FAF7FFF0136
(1791429820.163655) can0 0200FD01#0100000000000000
(1791429820.163902) can0 020001FD#7FB07FD97FFF0136
(1791429820.163966) can1 0200FD02#0100000000000000
(1791429820.164206) can1 020002FD#7FFF7F2F7FFF014A
(1791429820.164268) can0 0200FD02#0100000000000000
(1791429820.164460) can0 020002FD#7FFD7FB27FFF014A
(1791429820.164592) can1 0200FD03#0100000000000000
(1791429820.164833) can1 020003FD#7FFF7FDC7FFF0154
(1791429820.164868) can0 0200FD03#0100000000000000
(1791429820.165148) can0 020003FD#7FFF80747FFF014A
(1791429820.165210) can1 0200FD04#0100000000000000
(1791429820.165393) can1 020004FD#7FFF7FBD7FFF014A
(1791429820.165487) can0 0200FD04#0100000000000000
(1791429820.165707) can0 020004FD#7FF680387FFF0136
(1791429820.165778) can1 0200FD05#0100000000000000
(1791429820.166028) can0 0200FD05#0100000000000000
(1791429820.166109) can1 020005FD#88E17FC87FFF0168
(1791429820.166251) can0 020005FD#7E7C7FFA7FFF0168
(1791429820.166407) can1 0200FD06#0100000000000000
(1791429820.166627) can0 0200FD06#0100000000000000
(1791429820.166664) can1 020006FD#7FF87FF87FFF0168
(1791429820.166883) can0 020006FD#800A80057FFF0168
(1791429820.166961) can1 0200FD07#0100000000000000
(1791429820.167207) can1 020007FD#8002801A7FFF014A
(1791429820.167270) can0 0200FD07#0100000000000000
(1791429820.167380) can0 020007FD#7AE4803B7FFF0154
(1791429820.167594) can1 0200FD08#0100000000000000
(1791429820.167754) can1 020008FD#829080017FFF0140
(1791429820.167844) can0 0200FD08#0100000000000000
(1791429820.167965) can0 020008FD#7EBE803B7FFF0140
(1791429820.239610) can1 0200FD01#0100000000000000
(1791429820.239842) can1 020001FD#7FFE803D7FFF0136
(1791429820.240143) can0 0200FD01#0100000000000000
(1791429820.240215) can1 0200FD02#0100000000000000
(1791429820.240334) can0 020001FD#7FB07FF17FFF0136
(1791429820.240390) can1 020002FD#7FFF7FED7FFF014A
(1791429820.240718) can0 0200FD02#0100000000000000
(1791429820.240792) can1 0200FD03#0100000000000000
(1791429820.240896) can0 020002FD#7FFD80597FFF014A
(1791429820.241103) can1 020003FD#7FFF7F617FFF0154
(1791429820.241335) can0 0200FD03#0100000000000000
(1791429820.241401) can1 0200FD04#0100000000000000
(1791429820.241512) can0 020003FD#7FFF7FAB7FFF014A
(1791429820.241641) can1 020004FD#7FFF80277FFF014A
(1791429820.241909) can0 0200FD04#0100000000000000
(1791429820.241972) can1 0200FD05#0100000000000000
(1791429820.242211) can0 020004FD#7FF67FC27FFF0136
(1791429820.242218) can1 020005FD#88E17FFB7FFF0168
(1791429820.242537) can0 0200FD05#0100000000000000
(1791429820.242593) can1 0200FD06#0100000000000000
(1791429820.242715) can0 020005FD#7E7B7FCC7FFF0168
(1791429820.242835) can1 020006FD#7FF87FDA7FFF015E
(1791429820.243151) can0 0200FD06#0100000000000000
(1791429820.243215) can1 0200FD07#0100000000000000
(1791429820.243338) can0 020006FD#800A7FF97FFF0168
(1791429820.243395) can1 020007FD#800280017FFF014A
(1791429820.243730) can0 0200FD07#0100000000000000
(1791429820.243786) can1 0200FD08#0100000000000000
(1791429820.243959) can1 020008FD#828F7FEE7FFF0140
(1791429820.243994) can0 020007FD#7AE47FDE7FFF0154
(1791429820.244342) can0 0200FD08#0100000000000000
(1791429820.244491) can0 020008FD#7EBE7FCC7FFF0140
(1791429820.316593) can1 0200FD01#0100000000000000
(1791429820.316840) can1 020001FD#7FFE801D7FFF0136
(1791429820.316918) can0 0200FD01#0100000000000000
(1791429820.317214) can0 020001FD#7FB080017FFF0136
(1791429820.317218) can1 0200FD02#0100000000000000
(1791429820.317388) can1 020002FD#7FFF804B7FFF014A
(1791429820.317533) can0 0200FD02#0100000000000000
(1791429820.317779) can0 020002FD#7FFD808F7FFF014A
(1791429820.317812) can1 0200FD03#0100000000000000
(1791429820.318111) can1 020003FD#7FFF7FE07FFF0154
(1791429820.318147) can0 0200FD03#0100000000000000
(1791429820.318325) can0 020003FD#7FFF7FD47FFF014A
(1791429820.318408) can1 0200FD04#0100000000000000
(1791429820.318645) can1 020004FD#7FFF80897FFF014A
(1791429820.318763) can0 0200FD04#0100000000000000
(1791429820.318937) can0 020004FD#7FF680077FFF0136
(1791429820.318974) can1 0200FD05#0100000000000000
(1791429820.319207) can1 020005FD#88E27FFC7FFF0168
(1791429820.319340) can0 0200FD05#0100000000000000
(1791429820.319522) can0 020005FD#7E7C80127FFF0168
(1791429820.319595) can1 0200FD06#0100000000000000
(1791429820.319843) can1 020006FD#7FF8800F7FFF0168
(1791429820.319907) can0 0200FD06#0100000000000000
(1791429820.320199) can0 020006FD#800A800C7FFF0168
(1791429820.320230) can1 0200FD07#0100000000000000
(1791429820.320387) can1 020007FD#80027FDF7FFF014A
(1791429820.320506) can0 0200FD07#0100000000000000
(1791429820.320758) can0 020007FD#7AE37FE37FFF0154
(1791429820.320792) can1 0200FD08#0100000000000000
(1791429820.320968) can1 020008FD#828F80097FFF0140
(1791429820.321152) can0 0200FD08#0100000000000000
(1791429820.321207) can0 020008FD#7EBE80327FFF0140
(1791429820.401218) can1 0200FD01#0100000000000000
(1791429820.401401) can1 020001FD#7FFE80087FFF0136
(1791429820.401606) can0 0200FD01#0100000000000000
(1791429820.401790) can1 0200FD02#0100000000000000
(1791429820.401851) can0 020001FD#7FB080BE7FFF0136
(1791429820.402038) can1 020002FD#7FFF80787FFF014A
(1791429820.402216) can0 0200FD02#0100000000000000
(1791429820.402392) can0 020002FD#7FFE802D7FFF014A
(1791429820.402425) can1 0200FD03#0100000000000000
(1791429820.402648) can1 020003FD#7FFF7F817FFF0154
(1791429820.402790) can0 0200FD03#0100000000000000
(1791429820.402974) can1 0200FD04#0100000000000000
(1791429820.403102) can0 020003FD#7FFF7FEF7FFF014A
(1791429820.403211) can1 020004FD#7FFF80B87FFF014A
(1791429820.403417) can0 0200FD04#0100000000000000
(1791429820.403578) can1 0200FD05#0100000000000000
(1791429820.403663) can0 020004FD#7FF67F2E7FFF0136
(1791429820.403818) can1 020005FD#88E17FCF7FFF0168
(1791429820.403968) can0 0200FD05#0100000000000000
(1791429820.404213) can0 020005FD#7E7C802B7FFF0168
(1791429820.404217) can1 0200FD06#0100000000000000
(1791429820.404393) can1 020006FD#7FF87FF97FFF0168
(1791429820.404605) can0 0200FD06#0100000000000000
(1791429820.404792) can1 0200FD07#0100000000000000
(1791429820.404844) can0 020006FD#800A80197FFF0168
(1791429820.405103) can1 020007FD#800280007FFF014A
(1791429820.405223) can0 0200FD07#0100000000000000
(1791429820.405393) can0 020007FD#7AE480157FFF0154
(1791429820.405427) can1 0200FD08#0100000000000000
(1791429820.405560) can1 020008FD#828F80087FFF0140
(1791429820.405750) can0 0200FD08#0100000000000000
(1791429820.405907) can0 020008FD#7EBE802E7FFF0140
(1791429820.479783) can1 0200FD01#0100000000000000
(1791429820.480027) can1 020001FD#7FFD7FD47FFF0136
(1791429820.480220) can0 0200FD01#0100000000000000
(1791429820.480396) can0 020001FD#7FB080357FFF0136
(1791429820.480431) can1 0200FD02#0100000000000000
(1791429820.480648) can1 020002FD#7FFF80987FFF014A
(1791429820.480792) can0 0200FD02#0100000000000000
(1791429820.480980) can1 0200FD03#0100000000000000
(1791429820.481112) can0 020002FD#7FFD7F797FFF014A
(1791429820.481216) can1 020003FD#7FFF80767FFF0154
(1791429820.481413) can0 0200FD03#0100000000000000
(1791429820.481604) can1 0200FD04#0100000000000000
(1791429820.481657) can0 020003FD#7FFF80267FFF014A
(1791429820.481846) can1 020004FD#7FFF80817FFF014A
(1791429820.481975) can0 0200FD04#0100000000000000
(1791429820.482200) can0 020004FD#7FF67F437FFF0136
(1791429820.482238) can1 0200FD05#0100000000000000
(1791429820.482399) can1 020005FD#88E180087FFF0168
(1791429820.482605) can0 0200FD05#0100000000000000
(1791429820.482789) can1 0200FD06#0100000000000000
(1791429820.482843) can0 020005FD#7E7C800A7FFF0168
(1791429820.483026) can1 020006FD#7FF880167FFF0168
(1791429820.483221) can0 0200FD06#0100000000000000
(1791429820.483396) can0 020006FD#800A80207FFF0168
(1791429820.483430) can1 0200FD07#0100000000000000
(1791429820.483653) can1 020007FD#80027FD17FFF014A
(1791429820.483797) can0 0200FD07#0100000000000000
(1791429820.483985) can1 0200FD08#0100000000000000
(1791429820.484119) can0 020007FD#7AE480237FFF0154
(1791429820.484160) can1 020008FD#828F7FCB7FFF014A
(1791429820.484475) can0 0200FD08#0100000000000000
(1791429820.484565) can0 020008FD#7EBF80197FFF0140
(1791429820.561612) can1 0200FD01#0100000000000000
(1791429820.561783) can1 020001FD#7FFE7FEC7FFF0136
(1791429820.561816) can0 0200FD01#0100000000000000
(1791429820.562108) can0 020001FD#7FB07F6C7FFF0136
(1791429820.562219) can1 0200FD02#0100000000000000
(1791429820.562395) can1 020002FD#7FFF80527FFF014A
(1791429820.562430) can0 0200FD02#0100000000000000
(1791429820.562652) can0 020002FD#7FFD7F5E7FFF014A
(1791429820.562788) can1 0200FD03#0100000000000000
(1791429820.562983) can0 0200FD03#0100000000000000
(1791429820.563111) can1 020003FD#7FFF801D7FFF0154
(1791429820.563217) can0 020003FD#7FFF7F5D7FFF014A
(1791429820.563413) can1 0200FD04#0100000000000000
(1791429820.563605) can0 0200FD04#0100000000000000
(1791429820.563656) can1 020004FD#7FFF7FCA7FFF014A
(1791429820.563848) can0 020004FD#7FF6804A7FFF0136
(1791429820.563986) can1 0200FD05#0100000000000000
(1791429820.564203) can1 020005FD#88E17FEB7FFF0168
(1791429820.564237) can0 0200FD05#0100000000000000
(1791429820.564405) can0 020005FD#7E7C7FC07FFF0168
(1791429820.564612) can1 0200FD06#0100000000000000
(1791429820.564790) can1 020006FD#7FF880107FFF0168
(1791429820.564798) can0 0200FD06#0100000000000000
(1791429820.565032) can0 020006FD#800A7FE77FFF0168
(1791429820.565228) can1 0200FD07#0100000000000000
(1791429820.565415) can1 020007FD#800280057FFF014A
(1791429820.565449) can0 0200FD07#0100000000000000
(1791429820.565661) can0 020007FD#7AE37FF17FFF0154
(1791429820.565803) can1 0200FD08#0100000000000000
(1791429820.565959) can1 020008FD#828F7FE57FFF0140
(1791429820.565992) can0 0200FD08#0100000000000000
(1791429820.566171) can0 020008FD#7EBE7FE87FFF0140
(1791429820.645349) can1 0200FD01#0100000000000000
(1791429820.645530) can1 020001FD#7FFE7FA77FFF0136
(1791429820.645921) can1 0200FD02#0100000000000000
(1791429820.646059) can0 0200FD01#0100000000000000
(1791429820.646219) can1 020002FD#7FFF80BB7FFF014A
(1791429820.646269) can0 020001FD#7FB07FC37FFF0136
(1791429820.646552) can1 0200FD03#0100000000000000
(1791429820.646639) can0 0200FD02#0100000000000000
(1791429820.646801) can1 020003FD#7FFF80757FFF0154
(1791429820.646894) can0 020002FD#7FFD7FF57FFF014A
(1791429820.647164) can1 0200FD04#0100000000000000
(1791429820.647228) can0 0200FD03#0100000000000000
(1791429820.647350) can1 020004FD#7FFF7FB97FFF014A
(1791429820.647504) can0 020003FD#7FFF80727FFF014A
(1791429820.647739) can1 0200FD05#0100000000000000
(1791429820.647792) can0 0200FD04#0100000000000000
(1791429820.647986) can1 020005FD#88E17FA77FFF0168
(1791429820.648100) can0 020004FD#7FF6800A7FFF0136
(1791429820.648348) can1 0200FD06#0100000000000000
(1791429820.648417) can0 0200FD05#0100000000000000
(1791429820.648530) can1 020006FD#7FF87FD57FFF0168
(1791429820.648651) can0 020005FD#7E7C7FE97FFF0168
(1791429820.648920) can1 0200FD07#0100000000000000
(1791429820.648987) can0 0200FD06#0100000000000000
(1791429820.649163) can1 020007FD#80027FE57FFF014A
(1791429820.649222) can0 020006FD#800A80057FFF0168
(1791429820.649556) can1 0200FD08#0100000000000000
(1791429820.649604) can0 0200FD07#0100000000000000
(1791429820.649705) can1 020008FD#828F80117FFF0140
(1791429820.649782) can0 020007FD#7AE480107FFF0154
(1791429820.650229) can0 0200FD08#0100000000000000
(1791429820.650319) can0 020008FD#7EBE80167FFF0140
(1791429820.721549) can1 0200FD01#0100000000000000
(1791429820.721790) can1 020001FD#7FFE80047FFF0136
(1791429820.722000) can0 0200FD01#0100000000000000
(1791429820.722172) can1 0200FD02#0100000000000000
(1791429820.722212) can0 020001FD#7FB080257FFF0136
(1791429820.722356) can1 020002FD#7FFF81257FFF014A
(1791429820.722611) can0 0200FD02#0100000000000000
(1791429820.722733) can1 0200FD03#0100000000000000
(1791429820.722793) can0 020002FD#7FFD80737FFF014A
(1791429820.722976) can1 020003FD#7FFF7FBA7FFF0154
(1791429820.723233) can0 0200FD03#0100000000000000
(1791429820.723363) can1 0200FD04#0100000000000000
(1791429820.723415) can0 020003FD#7FFF7F517FFF014A
(1791429820.723544) can1 020004FD#7FFF7FF87FFF014A
(1791429820.723805) can0 0200FD04#0100000000000000
(1791429820.723930) can1 0200FD05#0100000000000000
(1791429820.724118) can0 020004FD#7FF6800F7FFF0136
(1791429820.724223) can1 020005FD#88E17FDE7FFF0168
(1791429820.724421) can0 0200FD05#0100000000000000
(1791429820.724550) can1 0200FD06#0100000000000000
(1791429820.724652) can0 020005FD#7E7C80167FFF0168
(1791429820.724735) can1 020006FD#7FF87FD17FFF0168
(1791429820.724986) can0 0200FD06#0100000000000000
(1791429820.725169) can1 0200FD07#0100000000000000
(1791429820.725223) can0 020006FD#800A801B7FFF0168
(1791429820.725359) can1 020007FD#8002800C7FFF014A
(1791429820.725615) can0 0200FD07#0100000000000000
(1791429820.725743) can1 0200FD08#0100000000000000
(1791429820.725863) can0 020007FD#7AE37FCC7FFF0154
(1791429820.725930) can1 020008FD#828F7FEE7FFF0140
(1791429820.726232) can0 0200FD08#0100000000000000
(1791429820.726361) can0 020008FD#7EBE80027FFF0140
(1791429820.803228) can1 0200FD01#0100000000000000
(1791429820.803402) can1 020001FD#7FFE80237FFF0136
(1791429820.803558) can0 0200FD01#0100000000000000
(1791429820.803791) can1 0200FD02#0100000000000000
(1791429820.803827) can0 020001FD#7FB0802F7FFF0136
(1791429820.803974) can1 020002FD#7FFF7FCC7FFF014A
(1791429820.804168) can0 0200FD02#0100000000000000
(1791429820.804357) can0 020002FD#7FFD7FE87FFF014A
(1791429820.804423) can1 0200FD03#0100000000000000
(1791429820.804599) can1 020003FD#7FFF7FCD7FFF0154
(1791429820.804740) can0 0200FD03#0100000000000000
(1791429820.804982) can0 020003FD#7FFF7FFC7FFF014A
(1791429820.805054) can1 0200FD04#0100000000000000
(1791429820.805227) can1 020004FD#7FFF7FA97FFF014A
(1791429820.805351) can0 0200FD04#0100000000000000
(1791429820.805528) can0 020004FD#7FF680A27FFF0136
(1791429820.805679) can1 0200FD05#0100000000000000
(1791429820.805919) can1 020005FD#88E180087FFF0168
(1791429820.805954) can0 0200FD05#0100000000000000
(1791429820.806227) can0 020005FD#7E7C80117FFF0168
(1791429820.806303) can1 0200FD06#0100000000000000
(1791429820.806510) can1 020006FD#7FF880247FFF0168
(1791429820.806545) can0 0200FD06#0100000000000000
(1791429820.806786) can0 020006FD#800A801A7FFF0168
(1791429820.806883) can1 0200FD07#0100000000000000
(1791429820.807112) can1 020007FD#800280037FFF014A
(1791429820.807152) can0 0200FD07#0100000000000000
(1791429820.807332) can0 020007FD#7AE480187FFF0154
(1791429820.807509) can1 0200FD08#0100000000000000
(1791429820.807642) can1 020008FD#828F7FB87FFF0140
(1791429820.807714) can0 0200FD08#0100000000000000
(1791429820.807864) can0 020008FD#7EBE7FF67FFF0140
(1791429820.877076) can1 0200FD01#0100000000000000
(1791429820.877281) can1 020001FD#7FFE7FA97FFF0136
(1791429820.877361) can0 0200FD01#0100000000000000
(1791429820.877531) can0 020001FD#7FB080667FFF0136
(1791429820.877647) can1 0200FD02#0100000000000000
(1791429820.877906) can1 020002FD#7FFF7F857FFF014A
(1791429820.877941) can0 0200FD02#0100000000000000
(1791429820.878214) can0 020002FD#7FFE80297FFF014A
(1791429820.878296) can1 0200FD03#0100000000000000
(1791429820.878511) can1 020003FD#7FFF80447FFF0154
(1791429820.878549) can0 0200FD03#0100000000000000
(1791429820.878789) can0 020003FD#7FFF80897FFF014A
(1791429820.878858) can1 0200FD04#0100000000000000
(1791429820.879168) can0 0200FD04#0100000000000000
(1791429820.879204) can1 020004FD#7FFF801C7FFF014A
(1791429820.879358) can0 020004FD#7FF6803A7FFF0136
(1791429820.879515) can1 0200FD05#0100000000000000
(1791429820.879733) can1 020005FD#88E17FF27FFF0168
(1791429820.879767) can0 0200FD05#0100000000000000
(1791429820.879991) can0 020005FD#7E7C80107FFF0168
(1791429820.880056) can1 0200FD06#0100000000000000
(1791429820.880274) can1 020006FD#7FF880277FFF0168
(1791429820.880358) can0 0200FD06#0100000000000000
(1791429820.880539) can0 020006FD#800A80087FFF0168
(1791429820.880735) can1 0200FD07#0100000000000000
(1791429820.880850) can1 020007FD#800280227FFF014A
(1791429820.880929) can0 0200FD07#0100000000000000
(1791429820.881227) can0 020007FD#7AE4803B7FFF0154
(1791429820.881366) can1 0200FD08#0100000000000000
(1791429820.881513) can1 020008FD#828F7FE67FFF0140
(1791429820.881548) can0 0200FD08#0100000000000000
(1791429820.881693) can0 020008FD#7EBF800B7FFF0140
(1791429820.972364) can1 0200FD01#0100000000000000
(1791429820.972490) can1 020001FD#7FFE7F877FFF0136
(1791429820.972827) can0 0200FD01#0100000000000000
(1791429820.972998) can1 0200FD02#0100000000000000
(1791429820.973135) can0 020001FD#7FB07FDF7FFF0136
(1791429820.973168) can1 020002FD#7FFF80517FFF014A
(1791429820.973430) can0 0200FD02#0100000000000000
(1791429820.973622) can1 0200FD03#0100000000000000
(1791429820.973674) can0 020002FD#7FFD80067FFF014A
(1791429820.973877) can1 020003FD#7FFF7FFA7FFF0154
(1791429820.973997) can0 0200FD03#0100000000000000
(1791429820.974231) can0 020003FD#7FFF7FC57FFF014A
(1791429820.974264) can1 0200FD04#0100000000000000
(1791429820.974457) can1 020004FD#7FFF7FB67FFF014A
(1791429820.974610) can0 0200FD04#0100000000000000
(1791429820.974783) can0 020004FD#7FF680047FFF0136
(1791429820.974816) can1 0200FD05#0100000000000000
(1791429820.975140) can1 020005FD#88E17FF97FFF0168
(1791429820.975234) can0 0200FD05#0100000000000000
(1791429820.975411) can0 020005FD#7E7C7FFF7FFF0168
(1791429820.975445) can1 0200FD06#0100000000000000
(1791429820.975677) can1 020006FD#7FF880257FFF0168
(1791429820.975802) can0 0200FD06#0100000000000000
(1791429820.975979) can0 020006FD#800A80237FFF0168
(1791429820.976014) can1 0200FD07#0100000000000000
(1791429820.976216) can1 020007FD#8002804E7FFF014A
(1791429820.976433) can0 0200FD07#0100000000000000
(1791429820.976614) can1 0200FD08#0100000000000000
(1791429820.976615) can0 020007FD#7AE480077FFF0154
(1791429820.976751) can1 020008FD#828F80307FFF0140
(1791429820.977053) can0 0200FD08#0100000000000000
(1791429820.977177) can0 020008FD#7EBE7FFD7FFF0140
(1791429821.055318) can1 0200FD01#0100000000000000
(1791429821.055363) can0 0200FD01#0100000000000000
(1791429821.055527) can1 020001FD#7FFE80797FFF0136
(1791429821.055561) can0 020001FD#7FB07FE17FFF0136
(1791429821.055889) can1 0200FD02#0100000000000000
(1791429821.055944) can0 0200FD02#0100000000000000
(1791429821.056194) can0 020002FD#7FFD80627FFF014A
(1791429821.056203) can1 020002FD#7FFF7FCA7FFF014A
(1791429821.056527) can1 0200FD03#0100000000000000
(1791429821.056568) can0 0200FD03#0100000000000000
(1791429821.056760) can1 020003FD#7FFF7FB57FFF0154
(1791429821.056821) can0 020003FD#7FFF80777FFF014A
(1791429821.057089) can1 0200FD04#0100000000000000
(1791429821.057181) can0 0200FD04#0100000000000000
(1791429821.057286) can1 020004FD#7FFF80117FFF014A
(1791429821.057371) can0 020004FD#7FF67FEE7FFF0136
(1791429821.057683) can1 0200FD05#0100000000000000
(1791429821.057748) can0 0200FD05#0100000000000000
(1791429821.057922) can1 020005FD#88E1801B7FFF0168
(1791429821.057990) can0 020005FD#7E7C7FF67FFF0168
(1791429821.058313) can1 0200FD06#0100000000000000
(1791429821.058372) can0 0200FD06#0100000000000000
(1791429821.058427) can1 020006FD#7FF87FED7FFF0168
(1791429821.058556) can0 020006FD#800A7FF77FFF0168
(1791429821.058886) can1 0200FD07#0100000000000000
(1791429821.058940) can0 0200FD07#0100000000000000
(1791429821.059169) can1 020007FD#80027FFB7FFF014A
(1791429821.059240) can0 020007FD#7AE480037FFF0154
(1791429821.059524) can1 0200FD08#0100000000000000
(1791429821.059562) can0 0200FD08#0100000000000000
(1791429821.059633) can1 020008FD#82907FE97FFF0140
(1791429821.059687) can0 020008FD#7EBE7FF27FFF0140
(1791429821.131642) can1 0200FD01#0100000000000000
(1791429821.131878) can1 020001FD#7FFE7FE37FFF0136
(1791429821.132247) can1 0200FD02#0100000000000000
(1791429821.132427) can1 020002FD#7FFF806E7FFF014A
(1791429821.132819) can1 0200FD03#0100000000000000
(1791429821.132951) can0 0200FD01#0100000000000000
(1791429821.133125) can1 020003FD#7FFF80047FFF0154
(1791429821.133224) can0 020001FD#7FB07FF17FFF0136
(1791429821.133430) can1 0200FD04#0100000000000000
(1791429821.133564) can0 0200FD02#0100000000000000
(1791429821.133675) can1 020004FD#7FFF7FAC7FFF014A
(1791429821.133811) can0 020002FD#7FFE800F7FFF014A
(1791429821.134003) can1 0200FD05#0100000000000000
(1791429821.134181) can0 0200FD03#0100000000000000
(1791429821.134236) can1 020005FD#88E17FFF7FFF0168
(1791429821.134364) can0 020003FD#7FFF7FA07FFF014A
(1791429821.134625) can1 0200FD06#0100000000000000
(1791429821.134742) can0 0200FD04#0100000000000000
(1791429821.134868) can1 020006FD#7FF8805F7FFF0168
(1791429821.134987) can0 020004FD#7FF6806D7FFF0136
(1791429821.135246) can1 0200FD07#0100000000000000
(1791429821.135369) can0 0200FD05#0100000000000000
(1791429821.135419) can1 020007FD#80027FC87FFF014A
(1791429821.135550) can0 020005FD#7E7C80177FFF0168
(1791429821.135823) can1 0200FD08#0100000000000000
(1791429821.135950) can0 0200FD06#0100000000000000
(1791429821.135985) can1 020008FD#828F80067FFF0140
(1791429821.136184) can0 020006FD#800A7FC67FFF0168
(1791429821.136557) can0 0200FD07#0100000000000000
(1791429821.136796) can0 020007FD#7AE480037FFF0154
(1791429821.137175) can0 0200FD08#0100000000000000
(1791429821.137265) can0 020008FD#7EBE7FE57FFF0140
(1791429821.216060) can1 0200FD01#0100000000000000
(1791429821.216288) can1 020001FD#7FFE80147FFF0136
(1791429821.216429) can0 0200FD01#0100000000000000
(1791429821.216661) can1 0200FD02#0100000000000000
(1791429821.216697) can0 020001FD#7FB0804E7FFF0136
(1791429821.216911) can1 020002FD#7FFF7FA97FFF014A
(1791429821.217001) can0 0200FD02#0100000000000000
(1791429821.217224) can0 020002FD#7FFE80347FFF014A
(1791429821.217319) can1 0200FD03#0100000000000000
(1791429821.217524) can1 020003FD#7FFF7FBA7FFF0154
(1791429821.217624) can0 0200FD03#0100000000000000
(1791429821.217800) can0 020003FD#7FFF7FE67FFF014A
(1791429821.217885) can1 0200FD04#0100000000000000
(1791429821.218198) can1 020004FD#7FFF80A07FFF014A
(1791429821.218249) can0 0200FD04#0100000000000000
(1791429821.218434) can0 020004FD#7FF67FA27FFF0136
(1791429821.218524) can1 0200FD05#0100000000000000
(1791429821.218751) can1 020005FD#88E17FDF7FFF0168
(1791429821.218822) can0 0200FD05#0100000000000000
(1791429821.219082) can1 0200FD06#0100000000000000
(1791429821.219143) can0 020005FD#7E7C80457FFF0168
(1791429821.219286) can1 020006FD#7FF880027FFF0168
(1791429821.219451) can0 0200FD06#0100000000000000
(1791429821.219671) can1 0200FD07#0100000000000000
(1791429821.219706) can0 020006FD#800A7FDF7FFF0168
(1791429821.219920) can1 020007FD#8002800C7FFF014A
(1791429821.220003) can0 0200FD07#0100000000000000
(1791429821.220233) can0 020007FD#7AE47FF17FFF0154
(1791429821.220312) can1 0200FD08#0100000000000000
(1791429821.220408) can1 020008FD#8290801A7FFF0140
(1791429821.220644) can0 0200FD08#0100000000000000
(1791429821.220788) can0 020008FD#7EBE7FCF7FFF0140
(1791429821.291821) can1 0200FD01#0100000000000000
(1791429821.292130) can1 020001FD#7FFD80007FFF0136
(1791429821.292258) can0 0200FD01#0100000000000000
(1791429821.292432) can0 020001FD#7FB07FC27FFF0136
(1791429821.292466) can1 0200FD02#0100000000000000
(1791429821.292674) can1 020002FD#7FFF80727FFF014A
(1791429821.292821) can0 0200FD02#0100000000000000
(1791429821.293010) can1 0200FD03#0100000000000000
(1791429821.293139) can0 020002FD#7FFE7FBB7FFF014A
(1791429821.293242) can1 020003FD#7FFF80CB7FFF0154
(1791429821.293441) can0 0200FD03#0100000000000000
(1791429821.293634) can1 0200FD04#0100000000000000
(1791429821.293688) can0 020003FD#7FFF804F7FFF014A
(1791429821.293885) can1 020004FD#7FFF7F717FFF014A
(1791429821.294011) can0 0200FD04#0100000000000000
(1791429821.294242) can0 020004FD#7FF6800C7FFF0136
(1791429821.294275) can1 0200FD05#0100000000000000
(1791429821.294431) can1 020005FD#88E17FE07FFF0168
(1791429821.294637) can0 0200FD05#0100000000000000
(1791429821.294817) can1 0200FD06#0100000000000000
(1791429821.294877) can0 020005FD#7E7C7FE27FFF0168
(1791429821.295051) can1 020006FD#7FF880167FFF0168
(1791429821.295251) can0 0200FD06#0100000000000000
(1791429821.295431) can0 020006FD#800A7FD27FFF0168
(1791429821.295466) can1 0200FD07#0100000000000000
(1791429821.295692) can1 020007FD#80027FFB7FFF014A
(1791429821.295817) can0 0200FD07#0100000000000000
(1791429821.296010) can1 0200FD08#0100000000000000
(1791429821.296141) can0 020007FD#7AE47FF37FFF0154
(1791429821.296194) can1 020008FD#828F80127FFF0140
(1791429821.296503) can0 0200FD08#0100000000000000
(1791429821.296593) can0 020008FD#7EBE7FFE7FFF0140
(1791429821.373042) can1 0200FD01#0100000000000000
(1791429821.373295) can1 020001FD#7FFE7FF87FFF0136
(1791429821.373444) can0 0200FD01#0100000000000000
(1791429821.373627) can1 0200FD02#0100000000000000
(1791429821.373687) can0 020001FD#7FB0800D7FFF0136
(1791429821.373813) can1 020002FD#7FFF800C7FFF014A
(1791429821.374015) can0 0200FD02#0100000000000000
(1791429821.374250) can0 020002FD#7FFD7F8E7FFF014A
(1791429821.374253) can1 0200FD03#0100000000000000
(1791429821.374434) can1 020003FD#7FFF80287FFF0154
(1791429821.374628) can0 0200FD03#0100000000000000
(1791429821.374801) can0 020003FD#7FFF7FD77FFF014A
(1791429821.374834) can1 0200FD04#0100000000000000
(1791429821.375067) can1 020004FD#7FFF7FBC7FFF014A
(1791429821.375257) can0 0200FD04#0100000000000000
(1791429821.375437) can0 020004FD#7FF67F6D7FFF0136
(1791429821.375472) can1 0200FD05#0100000000000000
(1791429821.375622) can1 020005FD#88E180127FFF0168
(1791429821.375829) can0 0200FD05#0100000000000000
(1791429821.376013) can1 0200FD06#0100000000000000
(1791429821.376139) can0 020005FD#7E7C80367FFF0168
(1791429821.376243) can1 020006FD#7FF87FE37FFF0168
(1791429821.376444) can0 0200FD06#0100000000000000
(1791429821.376634) can1 0200FD07#0100000000000000
(1791429821.376688) can0 020006FD#800A7FDE7FFF0168
(1791429821.376812) can1 020007FD#800280127FFF014A
(1791429821.377014) can0 0200FD07#0100000000000000
(1791429821.377234) can0 020007FD#7AE480067FFF0154
(1791429821.377271) can1 0200FD08#0100000000000000
(1791429821.377359) can1 020008FD#828F7FD57FFF0140
(1791429821.377663) can0 0200FD08#0100000000000000
(1791429821.377781) can0 020008FD#7EBE7FD67FFF0140
(1791429821.448788) can1 0200FD01#0100000000000000
(1791429821.449039) can1 020001FD#7FFE803A7FFF0136
(1791429821.449382) can1 0200FD02#0100000000000000
(1791429821.449447) can0 0200FD01#0100000000000000
(1791429821.449554) can1 020002FD#7FFF7FA77FFF014A
(1791429821.449690) can0 020001FD#7FB07FF17FFF0136
(1791429821.449951) can1 0200FD03#0100000000000000
(1791429821.450014) can0 0200FD02#0100000000000000
(1791429821.450232) can0 020002FD#7FFD7FC97FFF014A
(1791429821.450267) can1 020003FD#7FFF7FCD7FFF0154
(1791429821.450574) can1 0200FD04#0100000000000000
(1791429821.450640) can0 0200FD03#0100000000000000
(1791429821.450823) can1 020004FD#7FFF7F927FFF014A
(1791429821.450893) can0 020003FD#7FFF7FC47FFF014A
(1791429821.451186) can1 0200FD05#0100000000000000
(1791429821.451248) can0 0200FD04#0100000000000000
(1791429821.451355) can1 020005FD#88E17FF97FFF0168
(1791429821.451431) can0 020004FD#7FF67FC17FFF0136
(1791429821.451753) can1 0200FD06#0100000000000000
(1791429821.451819) can0 0200FD05#0100000000000000
(1791429821.451929) can1 020006FD#7FF8801E7FFF0168
(1791429821.452062) can0 020005FD#7E7C80087FFF0168
(1791429821.452388) can1 0200FD07#0100000000000000
(1791429821.452441) can0 0200FD06#0100000000000000
(1791429821.452570) can1 020007FD#80027FF67FFF014A
(1791429821.452684) can0 020006FD#800A7FE77FFF0168
(1791429821.452957) can1 0200FD08#0100000000000000
(1791429821.453006) can0 0200FD07#0100000000000000
(1791429821.453204) can1 020008FD#829080087FFF0140
(1791429821.453254) can0 020007FD#7AE37FDC7FFF0154
(1791429821.453609) can0 0200FD08#0100000000000000
(1791429821.453771) can0 020008FD#7EBE7FD57FFF0140
(1791429821.527452) can1 0200FD01#0100000000000000
(1791429821.527689) can1 020001FD#7FFE80147FFF0136
(1791429821.527897) can0 0200FD01#0100000000000000
(1791429821.528017) can1 0200FD02#0100000000000000
(1791429821.528201) can0 020001FD#7FB080037FFF0136
(1791429821.528253) can1 020002FD#7FFF800B7FFF014A
(1791429821.528549) can0 0200FD02#0100000000000000
(1791429821.528643) can1 0200FD03#0100000000000000
(1791429821.528762) can0 020002FD#7FFD7F797FFF014A
(1791429821.528880) can1 020003FD#7FFF7FF77FFF0154
(1791429821.529085) can0 0200FD03#0100000000000000
(1791429821.529259) can1 0200FD04#0100000000000000
(1791429821.529294) can0 020003FD#7FFF800A7FFF014A
(1791429821.529434) can1 020004FD#7FFF7FBB7FFF014A
(1791429821.529689) can0 0200FD04#0100000000000000
(1791429821.529831) can1 0200FD05#0100000000000000
(1791429821.529878) can0 020004FD#7FF67F617FFF0136
(1791429821.530145) can1 020005FD#88E1801D7FFF0168
(1791429821.530257) can0 0200FD05#0100000000000000
(1791429821.530435) can0 020005FD#7E7C7FE27FFF0168
(1791429821.530471) can1 0200FD06#0100000000000000
(1791429821.530690) can1 020006FD#7FF8802F7FFF0168
(1791429821.530822) can0 0200FD06#0100000000000000
(1791429821.531018) can1 0200FD07#0100000000000000
(1791429821.531069) can0 020006FD#800A80017FFF0168
(1791429821.531250) can1 020007FD#800280497FFF014A
(1791429821.531451) can0 0200FD07#0100000000000000
(1791429821.531640) can1 0200FD08#0100000000000000
(1791429821.531694) can0 020007FD#7AE37FCB7FFF0154
(1791429821.531786) can1 020008FD#829080287FFF0140
(1791429821.532007) can0 0200FD08#0100000000000000
(1791429821.532198) can0 020008FD#7EBE7FF47FFF0140
(1791429821.603763) can1 0200FD01#0100000000000000
(1791429821.603950) can1 020001FD#7FFE7FFE7FFF0136
(1791429821.604097) can0 0200FD01#0100000000000000
(1791429821.604305) can0 020001FD#7FB07FC97FFF0136
(1791429821.604384) can1 0200FD02#0100000000000000
(1791429821.604567) can1 020002FD#7FFF7FBD7FFF014A
(1791429821.604700) can0 0200FD02#0100000000000000
(1791429821.604938) can0 020002FD#7FFD7FAE7FFF014A
(1791429821.604973) can1 0200FD03#0100000000000000
(1791429821.605206) can1 020003FD#7FFF80157FFF0154
(1791429821.605335) can0 0200FD03#0100000000000000
(1791429821.605517) can0 020003FD#7FFF80127FFF014A
(1791429821.605583) can1 0200FD04#0100000000000000
(1791429821.605825) can1 020004FD#7FFF802A7FFF014A
(1791429821.605900) can0 0200FD04#0100000000000000
(1791429821.606200) can1 0200FD05#0100000000000000
(1791429821.606236) can0 020004FD#7FF67FFA7FFF0136
(1791429821.606384) can1 020005FD#88E180147FFF0168
(1791429821.606545) can0 0200FD05#0100000000000000
(1791429821.606781) can0 020005FD#7E7C7FFD7FFF0168
(1791429821.606788) can1 0200FD06#0100000000000000
(1791429821.607025) can1 020006FD#7FF87FF07FFF0168
(1791429821.607088) can0 0200FD06#0100000000000000
(1791429821.607309) can0 020006FD#800A7FEF7FFF0168
(1791429821.607386) can1 0200FD07#0100000000000000
(1791429821.607567) can1 020007FD#800280437FFF014A
(1791429821.607702) can0 0200FD07#0100000000000000
(1791429821.607942) can0 020007FD#7AE480147FFF0154
(1791429821.607973) can1 0200FD08#0100000000000000
(1791429821.608143) can1 020008FD#829080107FFF0140
(1791429821.608332) can0 0200FD08#0100000000000000
(1791429821.608437) can0 020008FD#7EBE800C7FFF0140
(1791429821.681452) can1 0200FD01#0100000000000000
(1791429821.681688) can1 020001FD#7FFE80227FFF0136
(1791429821.682017) can1 0200FD02#0100000000000000
(1791429821.682256) can1 020002FD#7FFF80267FFF014A
(1791429821.682322) can0 0200FD01#0100000000000000
(1791429821.682530) can0 020001FD#7FB07FD27FFF0136
(1791429821.682653) can1 0200FD03#0100000000000000
(1791429821.682827) can1 020003FD#7FFF7FF67FFF0154
(1791429821.682949) can0 0200FD02#0100000000000000
(1791429821.683145) can0 020002FD#7FFE802A7FFF014A
(1791429821.683264) can1 0200FD04#0100000000000000
(1791429821.683446) can1 020004FD#7FFF804D7FFF014A
(1791429821.683541) can0 0200FD03#0100000000000000
(1791429821.683769) can0 020003FD#7FFF7FF07FFF014A
(1791429821.683842) can1 0200FD05#0100000000000000
(1791429821.684094) can0 0200FD04#0100000000000000
(1791429821.684150) can1 020005FD#88E1802C7FFF0168
(1791429821.684302) can0 020004FD#7FF680597FFF0136
(1791429821.684550) can1 0200FD06#0100000000000000
(1791429821.684698) can1 020006FD#7FF880197FFF0168
(1791429821.684702) can0 0200FD05#0100000000000000
(1791429821.684886) can0 020005FD#7E7C80217FFF0168
(1791429821.685079) can1 0200FD07#0100000000000000
(1791429821.685301) can1 020007FD#80027FFE7FFF014A
(1791429821.685334) can0 0200FD06#0100000000000000
(1791429821.685541) can0 020006FD#800A80077FFF0168
(1791429821.685702) can1 0200FD08#0100000000000000
(1791429821.685841) can1 020008FD#829080097FFF0140
(1791429821.685891) can0 0200FD07#0100000000000000
(1791429821.686202) can0 020007FD#7AE47FEE7FFF0154
(1791429821.686513) can0 0200FD08#0100000000000000
(1791429821.686676) can0 020008FD#7EBE80187FFF0140
(1791429821.757097) can1 0200FD01#0100000000000000
(1791429821.757262) can1 020001FD#7FFE804F7FFF0136
(1791429821.757704) can1 0200FD02#0100000000000000
(1791429821.757947) can1 020002FD#7FFF7FF57FFF014A
(1791429821.758340) can0 0200FD01#0100000000000000
(1791429821.758341) can1 0200FD03#0100000000000000
(1791429821.758547) can0 020001FD#7FB0804F7FFF0136
(1791429821.758552) can1 020003FD#7FFF80A67FFF0154
(1791429821.758905) can0 0200FD02#0100000000000000
(1791429821.758947) can1 0200FD04#0100000000000000
(1791429821.759211) can1 020004FD#7FFF7FAF7FFF014A
(1791429821.759243) can0 020002FD#7FFD807D7FFF014A
(1791429821.759549) can1 0200FD05#0100000000000000
(1791429821.759549) can0 0200FD03#0100000000000000
(1791429821.759766) can1 020005FD#88E180117FFF0168
(1791429821.759800) can0 020003FD#7FFF7F707FFF014A
(1791429821.760092) can1 0200FD06#0100000000000000
(1791429821.760093) can0 0200FD04#0100000000000000
(1791429821.760307) can0 020004FD#7FF67F757FFF0136
(1791429821.760339) can1 020006FD#7FF8800C7FFF0168
(1791429821.760709) can0 0200FD05#0100000000000000
(1791429821.760711) can1 0200FD07#0100000000000000
(1791429821.760889) can1 020007FD#800280117FFF014A
(1791429821.760936) can0 020005FD#7E7C7FD17FFF0168
(1791429821.761350) can0 0200FD06#0100000000000000
(1791429821.761352) can1 0200FD08#0100000000000000
(1791429821.761426) can1 020008FD#828F7FBC7FFF0140
(1791429821.761545) can0 020006FD#800A80077FFF0168
(1791429821.761906) can0 0200FD07#0100000000000000
(1791429821.762211) can0 020007FD#7AE380407FFF0154
(1791429821.762584) can0 0200FD08#0100000000000000
(1791429821.762684) can0 020008FD#7EBE801A7FFF0140
(1791429821.834905) can1 0200FD01#0100000000000000
(1791429821.835081) can1 020001FD#7FFE801D7FFF0136
(1791429821.835462) can0 0200FD01#0100000000000000
(1791429821.835559) can1 0200FD02#0100000000000000
(1791429821.835646) can0 020001FD#7FB080357FFF0136
(1791429821.835769) can1 020002FD#7FFF7FC67FFF014A
(1791429821.836030) can0 0200FD02#0100000000000000
(1791429821.836090) can1 0200FD03#0100000000000000
(1791429821.836263) can0 020002FD#7FFD80497FFF014A
(1791429821.836315) can1 020003FD#7FFF803D7FFF0154
(1791429821.836659) can0 0200FD03#0100000000000000
(1791429821.836716) can1 0200FD04#0100000000000000
(1791429821.836833) can0 020003FD#7FFF7FCC7FFF014A
(1791429821.836954) can1 020004FD#7FFF7FD87FFF014A
(1791429821.837275) can0 0200FD04#0100000000000000
(1791429821.837342) can1 0200FD05#0100000000000000
(1791429821.837456) can0 020004FD#7FF67F447FFF0136
(1791429821.837549) can1 020005FD#88E17FD87FFF0168
(1791429821.837853) can0 0200FD05#0100000000000000
(1791429821.837907) can1 0200FD06#0100000000000000
(1791429821.838167) can0 020005FD#7E7C802F7FFF0168
(1791429821.838200) can1 020006FD#7FF880127FFF0168
(1791429821.838462) can0 0200FD06#0100000000000000
(1791429821.838548) can1 0200FD07#0100000000000000
(1791429821.838706) can0 020006FD#800A80077FFF0168
(1791429821.838780) can1 020007FD#80027FF07FFF014A
(1791429821.839030) can0 0200FD07#0100000000000000
(1791429821.839098) can1 0200FD08#0100000000000000
(1791429821.839266) can0 020007FD#7AE47FFD7FFF0154
(1791429821.839272) can1 020008FD#828F7FCB7FFF0140
(1791429821.839622) can0 0200FD08#0100000000000000
(1791429821.839780) can0 020008FD#7EBE7FE37FFF0140
(1791429821.913715) can1 0200FD01#0100000000000000
(1791429821.913899) can1 020001FD#7FFE7FBA7FFF0136
(1791429821.914035) can0 0200FD01#0100000000000000
(1791429821.914268) can0 020001FD#7FB080427FFF0136
(1791429821.914335) can1 0200FD02#0100000000000000
(1791429821.914551) can1 020002FD#7FFF804A7FFF014A
(1791429821.914656) can0 0200FD02#0100000000000000
(1791429821.914905) can0 020002FD#7FFD7FDE7FFF014A
(1791429821.914909) can1 0200FD03#0100000000000000
(1791429821.915220) can1 020003FD#7FFF7F637FFF0154
(1791429821.915271) can0 0200FD03#0100000000000000
(1791429821.915454) can0 020003FD#7FFF809E7FFF014A
(1791429821.915550) can1 0200FD04#0100000000000000
(1791429821.915777) can1 020004FD#7FFF7FEA7FFF014A
(1791429821.915844) can0 0200FD04#0100000000000000
(1791429821.916103) can1 0200FD05#0100000000000000
(1791429821.916164) can0 020004FD#7FF6806E7FFF0136
(1791429821.916310) can1 020005FD#88E1803F7FFF0168
(1791429821.916456) can0 0200FD05#0100000000000000
(1791429821.916685) can1 0200FD06#0100000000000000
(1791429821.916720) can0 020005FD#7E7C800C7FFF0168
(1791429821.916941) can1 020006FD#7FF880197FFF0168
(1791429821.917046) can0 0200FD06#0100000000000000
(1791429821.917257) can0 020006FD#800A7FE47FFF0168
(1791429821.917290) can1 0200FD07#0100000000000000
(1791429821.917454) can1 020007FD#80027FFF7FFF014A
(1791429821.917660) can0 0200FD07#0100000000000000
(1791429821.917842) can1 0200FD08#0100000000000000
(1791429821.917892) can0 020007FD#7AE480167FFF0154
(1791429821.917983) can1 020008FD#828F7FD17FFF0140
(1791429821.918277) can0 0200FD08#0100000000000000
(1791429821.918369) can0 020008FD#7EBE7FFB7FFF0140
(1791429821.990275) can1 0200FD01#0100000000000000
(1791429821.990454) can1 020001FD#7FFE80097FFF0136
(1791429821.990840) can1 0200FD02#0100000000000000
(1791429821.990875) can0 0200FD01#0100000000000000
(1791429821.991074) can1 020002FD#7FFF80587FFF014A
(1791429821.991163) can0 020001FD#7FB07FA77FFF0136
(1791429821.991469) can1 0200FD03#0100000000000000
(1791429821.991470) can0 0200FD02#0100000000000000
(1791429821.991708) can0 020002FD#7FFD805F7FFF014A
(1791429821.991743) can1 020003FD#7FFF80827FFF0154
(1791429821.992039) can1 0200FD04#0100000000000000
(1791429821.992041) can0 0200FD03#0100000000000000
(1791429821.992258) can1 020004FD#7FFF7FB57FFF014A
(1791429821.992293) can0 020003FD#7FFF7FFE7FFF014A
(1791429821.992658) can0 0200FD04#0100000000000000
(1791429821.992659) can1 0200FD05#0100000000000000
(1791429821.992898) can0 020004FD#7FF6802C7FFF0136
(1791429821.992932) can1 020005FD#88E17FEA7FFF0168
(1791429821.993277) can1 0200FD06#0100000000000000
(1791429821.993279) can0 0200FD05#0100000000000000
(1791429821.993460) can0 020005FD#7E7C80287FFF0168
(1791429821.993464) can1 020006FD#7FF87FC57FFF0168
(1791429821.993847) can1 0200FD07#0100000000000000
(1791429821.993881) can0 0200FD06#0100000000000000
(1791429821.994159) can1 020007FD#80027FF17FFF014A
(1791429821.994163) can0 020006FD#800A800C7FFF0168
(1791429821.994464) can0 0200FD07#0100000000000000
(1791429821.994466) can1 0200FD08#0100000000000000
(1791429821.994623) can1 020008FD#828F80017FFF0140
(1791429821.994707) can0 020007FD#7AE37FDC7FFF0154
(1791429821.995029) can0 0200FD08#0100000000000000
(1791429821.995211) can0 020008FD#7EBE80127FFF0140
(1791429822.065665) can1 0200FD01#0100000000000000
(1791429822.065839) can1 020001FD#7FFE7FFB7FFF0136
(1791429822.065983) can0 0200FD01#0100000000000000
(1791429822.066269) can0 020001FD#7FB0803A7FFF0136
(1791429822.066271) can1 0200FD02#0100000000000000
(1791429822.066452) can1 020002FD#7FFF7FF27FFF014A
(1791429822.066659) can0 0200FD02#0100000000000000
(1791429822.066839) can0 020002FD#7FFD7FE67FFF014A
(1791429822.066843) can1 0200FD03#0100000000000000
(1791429822.067086) can1 020003FD#7FFF7F627FFF0154
(1791429822.067279) can0 0200FD03#0100000000000000
(1791429822.067456) can0 020003FD#7FFF80917FFF014A
(1791429822.067492) can1 0200FD04#0100000000000000
(1791429822.067713) can1 020004FD#7FFE7E7E7FFF014A
(1791429822.067845) can0 0200FD04#0100000000000000
(1791429822.068047) can1 0200FD05#0100000000000000
(1791429822.068092) can0 020004FD#7FF680417FFF0136
(1791429822.068277) can1 020005FD#88E17FE47FFF0168
(1791429822.068470) can0 0200FD05#0100000000000000
(1791429822.068661) can1 0200FD06#0100000000000000
(1791429822.068711) can0 020005FD#7E7C7FE57FFF0168
(1791429822.068894) can1 020006FD#7FF880117FFF0168
(1791429822.069038) can0 0200FD06#0100000000000000
(1791429822.069274) can1 0200FD07#0100000000000000
(1791429822.069275) can0 020006FD#800A80147FFF0168
(1791429822.069454) can1 020007FD#80027FE77FFF014A
(1791429822.069670) can0 0200FD07#0100000000000000
(1791429822.069835) can1 0200FD08#0100000000000000
(1791429822.069880) can0 020007FD#7AE37FE37FFF0154
(1791429822.069980) can1 020008FD#8290803F7FFF0140
(1791429822.070346) can0 0200FD08#0100000000000000
(1791429822.070414) can0 020008FD#7EBE80097FFF0140
(1791429822.137475) can1 0200FD01#0100000000000000
(1791429822.137710) can1 020001FD#7FFD7FC47FFF0136
(1791429822.138040) can1 0200FD02#0100000000000000
(1791429822.138104) can0 0200FD01#0100000000000000
(1791429822.138261) can1 020002FD#7FFF7FBB7FFF014A
(1791429822.138322) can0 020001FD#7FB07FD27FFF0136
(1791429822.138660) can1 0200FD03#0100000000000000
(1791429822.138711) can0 0200FD02#0100000000000000
(1791429822.138909) can1 020003FD#7FFF7F937FFF0154
(1791429822.138948) can0 020002FD#7FFD7FD87FFF014A
(1791429822.139282) can1 0200FD04#0100000000000000
(1791429822.139343) can0 0200FD03#0100000000000000
(1791429822.139467) can1 020004FD#7FFF7FF57FFF014A
(1791429822.139566) can0 020003FD#7FFF80397FFF014A
(1791429822.139850) can1 0200FD05#0100000000000000
(1791429822.139910) can0 0200FD04#0100000000000000
(1791429822.140174) can1 020005FD#88E180177FFF0168
(1791429822.140209) can0 020004FD#7FF67FA87FFF0136
(1791429822.140471) can1 0200FD06#0100000000000000
(1791429822.140561) can0 0200FD05#0100000000000000
(1791429822.140711) can1 020006FD#7FF87FDB7FFF0168
(1791429822.140780) can0 020005FD#7E7C803F7FFF0168
(1791429822.141041) can1 0200FD07#0100000000000000
(1791429822.141102) can0 0200FD06#0100000000000000
(1791429822.141275) can1 020007FD#80027FE57FFF014A
(1791429822.141324) can0 020006FD#800A7FEF7FFF0168
(1791429822.141659) can1 0200FD08#0100000000000000
(1791429822.141709) can0 0200FD07#0100000000000000
(1791429822.141817) can1 020008FD#828F80037FFF0140
(1791429822.141958) can0 020007FD#7AE37FD37FFF0154
(1791429822.142345) can0 0200FD08#0100000000000000
(1791429822.142433) can0 020008FD#7EBE7FFF7FFF0140
(1791429822.218732) can1 0200FD01#0100000000000000
(1791429822.218982) can1 020001FD#7FFE7FC47FFF0136
(1791429822.219115) can0 0200FD01#0100000000000000
(1791429822.219264) can0 020001FD#7FB080437FFF0136
(1791429822.219349) can1 0200FD02#0100000000000000
(1791429822.219566) can1 020002FD#7FFE7F287FFF014A
(1791429822.219735) can0 0200FD02#0100000000000000
(1791429822.219921) can1 0200FD03#0100000000000000
(1791429822.219975) can0 020002FD#7FFD7F5B7FFF014A
(1791429822.220222) can1 020003FD#7FFF806E7FFF0154
(1791429822.220350) can0 0200FD03#0100000000000000
(1791429822.220567) can1 0200FD04#0100000000000000
(1791429822.220569) can0 020003FD#7FFF802F7FFF014A
(1791429822.220786) can1 020004FD#7FFF7FA97FFF014A
(1791429822.220918) can0 0200FD04#0100000000000000
(1791429822.221107) can1 0200FD05#0100000000000000
(1791429822.221219) can0 020004FD#7FF680207FFF0136
(1791429822.221327) can1 020005FD#88E280177FFF0168
(1791429822.221570) can0 0200FD05#0100000000000000
(1791429822.221720) can1 0200FD06#0100000000000000
(1791429822.221784) can0 020005FD#7E7C7FDF7FFF0168
(1791429822.221901) can1 020006FD#7FF8800B7FFF0168
(1791429822.222108) can0 0200FD06#0100000000000000
(1791429822.222323) can0 020006FD#800A801B7FFF0168
(1791429822.222357) can1 0200FD07#0100000000000000
(1791429822.222562) can1 020007FD#8002800A7FFF014A
(1791429822.222726) can0 0200FD07#0100000000000000
(1791429822.222910) can0 020007FD#7AE37FE67FFF0154
(1791429822.222943) can1 0200FD08#0100000000000000
(1791429822.223070) can1 020008FD#828F7FFD7FFF0140
(1791429822.223345) can0 0200FD08#0100000000000000
(1791429822.223439) can0 020008FD#7EBE80087FFF0140
(1791429822.292701) can1 0200FD01#0100000000000000
(1791429822.292939) can1 020001FD#7FFE7FFA7FFF0136
(1791429822.292986) can0 0200FD01#0100000000000000
(1791429822.293278) can1 0200FD02#0100000000000000
(1791429822.293279) can0 020001FD#7FB0804B7FFF0136
(1791429822.293563) can1 020002FD#7FFF80087FFF014A
(1791429822.293603) can0 0200FD02#0100000000000000
(1791429822.293849) can0 020002FD#7FFD80437FFF014A
(1791429822.293884) can1 0200FD03#0100000000000000
(1791429822.294097) can1 020003FD#7FFF80807FFF0154
(1791429822.294222) can0 0200FD03#0100000000000000
(1791429822.294410) can0 020003FD#7FFF7FD87FFF014A
(1791429822.294477) can1 0200FD04#0100000000000000
(1791429822.294716) can1 020004FD#7FFF80DD7FFF014A
(1791429822.294794) can0 0200FD04#0100000000000000
(1791429822.295037) can0 020004FD#7FF67FF47FFF0136
(1791429822.295071) can1 0200FD05#0100000000000000
(1791429822.295280) can1 020005FD#88E1802F7FFF0168
(1791429822.295414) can0 0200FD05#0100000000000000
(1791429822.295598) can0 020005FD#7E7B7FF27FFF0168
(1791429822.295656) can1 0200FD06#0100000000000000
(1791429822.295915) can1 020006FD#7FF87FE77FFF0168
(1791429822.295981) can0 0200FD06#0100000000000000
(1791429822.296281) can0 020006FD#800A7FCB7FFF0168
(1791429822.296284) can1 0200FD07#0100000000000000
(1791429822.296461) can1 020007FD#800280057FFF014A
(1791429822.296601) can0 0200FD07#0100000000000000
(1791429822.296849) can0 020007FD#7AE480057FFF0154
(1791429822.296852) can1 0200FD08#0100000000000000
(1791429822.297015) can1 020008FD#828F7FD97FFF0140
(1791429822.297231) can0 0200FD08#0100000000000000
(1791429822.297323) can0 020008FD#7EBE7FCF7FFF0140
(1791429822.368931) can1 0200FD01#0100000000000000
(1791429822.369224) can1 020001FD#7FFE806D7FFF0136
(1791429822.369566) can1 0200FD02#0100000000000000
(1791429822.369790) can1 020002FD#7FFF7F897FFF014A
(1791429822.369854) can0 0200FD01#0100000000000000
(1791429822.370047) can0 020001FD#7FB080127FFF0136
(1791429822.370111) can1 0200FD03#0100000000000000
(1791429822.370329) can1 020003FD#7FFF7F997FFF0154
(1791429822.370490) can0 0200FD02#0100000000000000
(1791429822.370718) can1 0200FD04#0100000000000000
(1791429822.370754) can0 020002FD#7FFD7FFB7FFF014A
(1791429822.370916) can1 020004FD#7FFF7FD97FFF014A
(1791429822.371045) can0 0200FD03#0100000000000000
(1791429822.371272) can0 020003FD#7FFF808A7FFF014A
(1791429822.371351) can1 0200FD05#0100000000000000
(1791429822.371569) can1 020005FD#88E17FF27FFF0168
(1791429822.371680) can0 0200FD04#0100000000000000
(1791429822.371864) can0 020004FD#7FF680A57FFF0136
(1791429822.371926) can1 0200FD06#0100000000000000
(1791429822.372240) can1 020006FD#7FF87FBC7FFF0168
(1791429822.372286) can0 0200FD05#0100000000000000
(1791429822.372468) can0 020005FD#7E7C80167FFF0168
(1791429822.372572) can1 0200FD07#0100000000000000
(1791429822.372790) can1 020007FD#80027FF47FFF014A
(1791429822.372850) can0 0200FD06#0100000000000000
(1791429822.373103) can0 020006FD#800A7FFF7FFF0168
(1791429822.373134) can1 0200FD08#0100000000000000
(1791429822.373271) can1 020008FD#828F80047FFF0140
(1791429822.373482) can0 0200FD07#0100000000000000
(1791429822.373721) can0 020007FD#7AE47FF57FFF0154
(1791429822.374050) can0 0200FD08#0100000000000000
(1791429822.374227) can0 020008FD#7EBE80337FFF0140
(1791429822.454803) can1 0200FD01#0100000000000000
(1791429822.455048) can1 020001FD#7FFE7FC07FFF0136
(1791429822.455228) can0 0200FD01#0100000000000000
(1791429822.455332) can0 020001FD#7FB07FF57FFF0136
(1791429822.455431) can1 0200FD02#0100000000000000
(1791429822.455605) can1 020002FD#7FFE7FA07FFF014A
(1791429822.455775) can0 0200FD02#0100000000000000
(1791429822.455988) can1 0200FD03#0100000000000000
(1791429822.456038) can0 020002FD#7FFD80137FFF014A
(1791429822.456283) can1 020003FD#7FFF801E7FFF0154
(1791429822.456352) can0 0200FD03#0100000000000000
(1791429822.456580) can0 020003FD#7FFF7F937FFF014A
(1791429822.456606) can1 0200FD04#0100000000000000
(1791429822.456853) can1 020004FD#7FFF804B7FFF014A
(1791429822.456925) can0 0200FD04#0100000000000000
(1791429822.457229) can1 0200FD05#0100000000000000
(1791429822.457230) can0 020004FD#7FF680FD7FFF0136
(1791429822.457418) can1 020005FD#88E17FE87FFF0168
(1791429822.457573) can0 0200FD05#0100000000000000
(1791429822.457802) can0 020005FD#7E7C7FD97FFF0168
(1791429822.457806) can1 0200FD06#0100000000000000
(1791429822.458052) can1 020006FD#7FF87FFE7FFF015E
(1791429822.458114) can0 0200FD06#0100000000000000
(1791429822.458338) can0 020006FD#800A7FFA7FFF0168
(1791429822.458421) can1 0200FD07#0100000000000000
(1791429822.458596) can1 020007FD#80027FDD7FFF014A
(1791429822.458728) can0 0200FD07#0100000000000000
(1791429822.458978) can0 020007FD#7AE37FE27FFF0154
(1791429822.459012) can1 0200FD08#0100000000000000
(1791429822.459170) can1 020008FD#828F7F887FFF0140
(1791429822.459343) can0 0200FD08#0100000000000000
(1791429822.459470) can0 020008FD#7EBE80157FFF0140
(1791429822.530891) can1 0200FD01#0100000000000000
(1791429822.531173) can1 020001FD#7FFE80627FFF0136
(1791429822.531482) can1 0200FD02#0100000000000000
(1791429822.531707) can0 0200FD01#0100000000000000
(1791429822.531743) can1 020002FD#7FFF804B7FFF014A
(1791429822.531946) can0 020001FD#7FB07FDB7FFF0136
(1791429822.532057) can1 0200FD03#0100000000000000
(1791429822.532276) can1 020003FD#7FFF80117FFF0154
(1791429822.532310) can0 0200FD02#0100000000000000
(1791429822.532542) can0 020002FD#7FFD7FB17FFF014A
(1791429822.532680) can1 0200FD04#0100000000000000
(1791429822.532864) can0 0200FD03#0100000000000000
(1791429822.532867) can1 020004FD#7FFF80717FFF014A
(1791429822.533044) can0 020003FD#7FFF800C7FFF014A
(1791429822.533302) can1 0200FD05#0100000000000000
(1791429822.533484) can1 020005FD#88E17FF67FFF0168
(1791429822.533518) can0 0200FD04#0100000000000000
(1791429822.533730) can0 020004FD#7FF67F7B7FFF0136
(1791429822.533870) can1 0200FD06#0100000000000000
(1791429822.534053) can0 0200FD05#0100000000000000
(1791429822.534176) can1 020006FD#7FF87FCF7FFF015E
(1791429822.534274) can0 020005FD#7E7C80037FFF0168
(1791429822.534576) can1 0200FD07#0100000000000000
(1791429822.534677) can0 0200FD06#0100000000000000
(1791429822.534721) can1 020007FD#800280157FFF014A
(1791429822.534856) can0 020006FD#800A801B7FFF0168
(1791429822.535117) can1 0200FD08#0100000000000000
(1791429822.535263) can1 020008FD#828F7FE07FFF0140
(1791429822.535299) can0 0200FD07#0100000000000000
(1791429822.535477) can0 020007FD#7AE480247FFF0154
(1791429822.535872) can0 0200FD08#0100000000000000
(1791429822.536001) can0 020008FD#7EBE802F7FFF0140
(1791429822.607997) can1 0200FD01#0100000000000000
(1791429822.608298) can1 020001FD#7FFE80427FFF0136
(1791429822.608421) can0 0200FD01#0100000000000000
(1791429822.608618) can1 0200FD02#0100000000000000
(1791429822.608674) can0 020001FD#7FB080127FFF0136
(1791429822.608864) can1 020002FD#7FFF7FB87FFF014A
(1791429822.608997) can0 0200FD02#0100000000000000
(1791429822.609238) can1 0200FD03#0100000000000000
(1791429822.609294) can0 020002FD#7FFD7FEF7FFF014A
(1791429822.609433) can1 020003FD#7FFF7F957FFF0154
(1791429822.609616) can0 0200FD03#0100000000000000
(1791429822.609796) can0 020003FD#7FFF80787FFF014A
(1791429822.609831) can1 0200FD04#0100000000000000
(1791429822.610056) can1 020004FD#7FFF7FD67FFF014A
(1791429822.610235) can0 0200FD04#0100000000000000
(1791429822.610432) can0 020004FD#7FF67F217FFF0136
(1791429822.610436) can1 0200FD05#0100000000000000
(1791429822.610611) can1 020005FD#88E1800A7FFF0168
(1791429822.610807) can0 0200FD05#0100000000000000
(1791429822.610992) can1 0200FD06#0100000000000000
(1791429822.611054) can0 020005FD#7E7C7FEC7FFF0168
(1791429822.611288) can1 020006FD#7FF880097FFF0168
(1791429822.611429) can0 0200FD06#0100000000000000
(1791429822.611609) can0 020006FD#800A7FE97FFF0168
(1791429822.611611) can1 0200FD07#0100000000000000
(1791429822.611796) can1 020007FD#80027FED7FFF014A
(1791429822.612000) can0 0200FD07#0100000000000000
(1791429822.612237) can1 0200FD08#0100000000000000
(1791429822.612278) can0 020007FD#7AE380097FFF0154
(1791429822.612344) can1 020008FD#828F7FFA7FFF0140
(1791429822.612645) can0 0200FD08#0100000000000000
(1791429822.612758) can0 020008FD#7EBE801C7FFF0140
(1791429822.683620) can1 0200FD01#0100000000000000
(1791429822.683861) can1 020001FD#7FFE7FC17FFF0136
(1791429822.684005) can0 0200FD01#0100000000000000
(1791429822.684233) can1 0200FD02#0100000000000000
(1791429822.684282) can0 020001FD#7FB07F657FFF0136
(1791429822.684428) can1 020002FD#7FFF80357FFF014A
(1791429822.684623) can0 0200FD02#0100000000000000
(1791429822.684778) can1 0200FD03#0100000000000000
(1791429822.684813) can0 020002FD#7FFE80377FFF014A
(1791429822.685021) can1 020003FD#7FFF7FDA7FFF0154
(1791429822.685227) can0 0200FD03#0100000000000000
(1791429822.685381) can1 0200FD04#0100000000000000
(1791429822.685421) can0 020003FD#7FFF7FFF7FFF014A
(1791429822.685579) can1 020004FD#7FFF7FCA7FFF014A
(1791429822.685804) can0 0200FD04#0100000000000000
(1791429822.685944) can1 0200FD05#0100000000000000
(1791429822.686050) can0 020004FD#7FF67FE97FFF0136
(1791429822.686237) can1 020005FD#88E180007FFF0168
(1791429822.686425) can0 0200FD05#0100000000000000
(1791429822.686552) can1 0200FD06#0100000000000000
(1791429822.686601) can0 020005FD#7E7C7FEC7FFF0168
(1791429822.686796) can1 020006FD#7FF87FD87FFF0168
(1791429822.686994) can0 0200FD06#0100000000000000
(1791429822.687121) can1 0200FD07#0100000000000000
(1791429822.687299) can0 020006FD#800A7FDE7FFF0168
(1791429822.687345) can1 020007FD#8002800A7FFF014A
(1791429822.687687) can0 0200FD07#0100000000000000
(1791429822.687744) can1 0200FD08#0100000000000000
(1791429822.687862) can0 020007FD#7AE47FE87FFF0154
(1791429822.687896) can1 020008FD#82907FD57FFF0140
(1791429822.688302) can0 0200FD08#0100000000000000
(1791429822.688413) can0 020008FD#7EBE7FE77FFF0140
(1791429822.764376) can1 0200FD01#0100000000000000
(1791429822.764605) can1 020001FD#7FFE80217FFF0136
(1791429822.764925) can1 0200FD02#0100000000000000
(1791429822.765191) can1 020002FD#7FFF805C7FFF014A
(1791429822.765287) can0 0200FD01#0100000000000000
(1791429822.765413) can0 020001FD#7FB080497FFF0136
(1791429822.765490) can1 0200FD03#0100000000000000
(1791429822.765726) can1 020003FD#7FFF7FB17FFF0154
(1791429822.765779) can0 0200FD02#0100000000000000
(1791429822.766022) can0 020002FD#7FFE7FF17FFF014A
(1791429822.766057) can1 0200FD04#0100000000000000
(1791429822.766302) can1 020004FD#7FFF7FC67FFF014A
(1791429822.766365) can0 0200FD03#0100000000000000
(1791429822.766589) can0 020003FD#7FFF7FB17FFF014A
(1791429822.766685) can1 0200FD05#0100000000000000
(1791429822.766931) can1 020005FD#88E17FC17FFF0168
(1791429822.766964) can0 0200FD04#0100000000000000
(1791429822.767245) can0 020004FD#7FF67FAE7FFF0136
(1791429822.767311) can1 0200FD06#0100000000000000
(1791429822.767491) can1 020006FD#7FF87FF67FFF0168
(1791429822.767585) can0 0200FD05#0100000000000000
(1791429822.767818) can0 020005FD#7E7C80017FFF0168
(1791429822.767881) can1 0200FD07#0100000000000000
(1791429822.768136) can0 0200FD06#0100000000000000
(1791429822.768186) can1 020007FD#80027FFE7FFF014A
(1791429822.768339) can0 020006FD#800A80217FFF0168
(1791429822.768497) can1 0200FD08#0100000000000000
(1791429822.768648) can1 020008FD#828F803C7FFF0140
(1791429822.768712) can0 0200FD07#0100000000000000
(1791429822.768950) can0 020007FD#7AE47FEF7FFF0154
(1791429822.769301) can0 0200FD08#0100000000000000
(1791429822.769411) can0 020008FD#7EBE80467FFF0140
(1791429822.881911) can1 0200FD01#0100000000000000
(1791429822.882094) can1 020001FD#7FFE7FD77FFF0136
(1791429822.882158) can0 0200FD01#0100000000000000
(1791429822.882441) can0 020001FD#7FB07FC57FFF0136
(1791429822.882501) can1 0200FD02#0100000000000000
(1791429822.882736) can1 020002FD#7FFF7FA87FFF014A
(1791429822.882770) can0 0200FD02#0100000000000000
(1791429822.882940) can0 020002FD#7FFD7F547FFF014A
(1791429822.883068) can1 0200FD03#0100000000000000
(1791429822.883292) can1 020003FD#7FFF7FB37FFF0154
(1791429822.883372) can0 0200FD03#0100000000000000
(1791429822.883589) can0 020003FD#7FFF80047FFF014A
(1791429822.883689) can1 0200FD04#0100000000000000
(1791429822.883945) can1 020004FD#7FFF7FEB7FFF014A
(1791429822.883949) can0 0200FD04#0100000000000000
(1791429822.884276) can0 020004FD#7FF680037FFF0136
(1791429822.884303) can1 0200FD05#0100000000000000
(1791429822.884483) can1 020005FD#88E17FE77FFF0168
(1791429822.884586) can0 0200FD05#0100000000000000
(1791429822.884805) can0 020005FD#7E7C7FEB7FFF0168
(1791429822.884880) can1 0200FD06#0100000000000000
(1791429822.885132) can0 0200FD06#0100000000000000
(1791429822.885197) can1 020006FD#7FF880327FFF0168
(1791429822.885346) can0 020006FD#800A80157FFF0168
(1791429822.885503) can1 0200FD07#0100000000000000
(1791429822.885724) can0 0200FD07#0100000000000000
(1791429822.885760) can1 020007FD#80027FE77FFF014A
(1791429822.885972) can0 020007FD#7AE47FEA7FFF0154
(1791429822.886061) can1 0200FD08#0100000000000000
(1791429822.886258) can1 020008FD#829080327FFF0140
(1791429822.886359) can0 0200FD08#0100000000000000
(1791429822.886469) can0 020008FD#7EBE7FD77FFF0140
(1791429822.967889) can1 0200FD01#0100000000000000
(1791429822.968208) can1 020001FD#7FFE80437FFF0136
(1791429822.968307) can0 0200FD01#0100000000000000
(1791429822.968484) can0 020001FD#7FB080367FFF0136
(1791429822.968517) can1 0200FD02#0100000000000000
(1791429822.968759) can1 020002FD#7FFF7FB97FFF014A
(1791429822.968875) can0 0200FD02#0100000000000000
(1791429822.969074) can1 0200FD03#0100000000000000
(1791429822.969126) can0 020002FD#7FFD80857FFF014A
(1791429822.969289) can1 020003FD#7FFF7F787FFF0154
(1791429822.969503) can0 0200FD03#0100000000000000
(1791429822.969691) can1 0200FD04#0100000000000000
(1791429822.969753) can0 020003FD#7FFF7FD27FFF014A
(1791429822.969941) can1 020004FD#7FFF7F977FFF014A
(1791429822.970073) can0 0200FD04#0100000000000000
(1791429822.970305) can0 020004FD#7FF680467FFF0136
(1791429822.970339) can1 0200FD05#0100000000000000
(1791429822.970492) can1 020005FD#88E180097FFF0168
(1791429822.970692) can0 0200FD05#0100000000000000
(1791429822.970874) can0 020005FD#7E7C7FB37FFF0168
(1791429822.970908) can1 0200FD06#0100000000000000
(1791429822.971197) can1 020006FD#7FF87FC57FFF0168
(1791429822.971321) can0 0200FD06#0100000000000000
(1791429822.971512) can0 020006FD#800A7FFF7FFF0168
(1791429822.971521) can1 0200FD07#0100000000000000
(1791429822.971749) can1 020007FD#80027FE67FFF014A
(1791429822.971889) can0 0200FD07#0100000000000000
(1791429822.972068) can1 0200FD08#0100000000000000
(1791429822.972207) can0 020007FD#7AE4800D7FFF0154
(1791429822.972250) can1 020008FD#829080267FFF0140
(1791429822.972568) can0 0200FD08#0100000000000000
(1791429822.972659) can0 020008FD#7EBE801D7FFF0140
(1791429823.049729) can1 0200FD01#0100000000000000
(1791429823.049979) can1 020001FD#7FFD7FE87FFF0136
(1791429823.050013) can0 0200FD01#0100000000000000
(1791429823.050307) can0 020001FD#7FB0809C7FFF0136
(1791429823.050341) can1 0200FD02#0100000000000000
(1791429823.050594) can1 020002FD#7FFF80127FFF014A
(1791429823.050632) can0 0200FD02#0100000000000000
(1791429823.050870) can0 020002FD#7FFD7FD37FFF014A
(1791429823.050905) can1 0200FD03#0100000000000000
(1791429823.051131) can1 020003FD#7FFF800B7FFF0154
(1791429823.051251) can0 0200FD03#0100000000000000
(1791429823.051443) can0 020003FD#7FFF809C7FFF014A
(1791429823.051509) can1 0200FD04#0100000000000000
(1791429823.051763) can1 020004FD#7FFF7FCE7FFF014A
(1791429823.051832) can0 0200FD04#0100000000000000
(1791429823.052067) can0 020004FD#7FF67FF57FFF0136
(1791429823.052097) can1 0200FD05#0100000000000000
(1791429823.052293) can1 020005FD#88E180117FFF0168
(1791429823.052443) can0 0200FD05#0100000000000000
(1791429823.052626) can0 020005FD#7E7C80287FFF0168
(1791429823.052698) can1 0200FD06#0100000000000000
(1791429823.052941) can1 020006FD#7FF87FFC7FFF0168
(1791429823.053004) can0 0200FD06#0100000000000000
(1791429823.053307) can1 0200FD07#0100000000000000
(1791429823.053308) can0 020006FD#800A7FBD7FFF0168
(1791429823.053489) can1 020007FD#8002801A7FFF014A
(1791429823.053629) can0 0200FD07#0100000000000000
(1791429823.053869) can0 020007FD#7AE47FF67FFF0154
(1791429823.053902) can1 0200FD08#0100000000000000
(1791429823.054026) can1 020008FD#828F800D7FFF0140
(1791429823.054254) can0 0200FD08#0100000000000000
(1791429823.054346) can0 020008FD#7EBE800F7FFF0140
(1791429823.132571) can1 0200FD01#0100000000000000
(1791429823.132823) can1 020001FD#7FFE801D7FFF0136
(1791429823.133098) can0 0200FD01#0100000000000000
(1791429823.133132) can1 0200FD02#0100000000000000
(1791429823.133358) can1 020002FD#7FFF80407FFF014A
(1791429823.133392) can0 020001FD#7FB07FDA7FFF0136
(1791429823.133676) can0 0200FD02#0100000000000000
(1791429823.133756) can1 0200FD03#0100000000000000
(1791429823.133926) can0 020002FD#7FFD80137FFF014A
(1791429823.133960) can1 020003FD#7FFF7F937FFF0154
(1791429823.134317) can0 0200FD03#0100000000000000
(1791429823.134380) can1 0200FD04#0100000000000000
(1791429823.134488) can0 020003FD#7FFF801C7FFF014A
(1791429823.134604) can1 020004FD#7FFF7FED7FFF014A
(1791429823.134885) can0 0200FD04#0100000000000000
(1791429823.134949) can1 0200FD05#0100000000000000
(1791429823.135130) can0 020004FD#7FF67F967FFF0136
(1791429823.135257) can1 020005FD#88E17FDE7FFF0168
(1791429823.135509) can0 0200FD05#0100000000000000
(1791429823.135608) can1 0200FD06#0100000000000000
(1791429823.135751) can0 020005FD#7E7C80097FFF0168
(1791429823.135818) can1 020006FD#7FF8800F7FFF0168
(1791429823.136083) can0 0200FD06#0100000000000000
(1791429823.136147) can1 0200FD07#0100000000000000
(1791429823.136319) can0 020006FD#800A7FE37FFF0168
(1791429823.136363) can1 020007FD#80027FF17FFF014A
(1791429823.136700) can0 0200FD07#0100000000000000
(1791429823.136752) can1 0200FD08#0100000000000000
(1791429823.136908) can1 020008FD#828F7FBF7FFF0140
(1791429823.136949) can0 020007FD#7AE37FC67FFF0154
(1791429823.137383) can0 0200FD08#0100000000000000
(1791429823.137457) can0 020008FD#7EBE80357FFF0140
(1791429823.210510) can1 0200FD01#0100000000000000
(1791429823.210747) can1 020001FD#7FFE80217FFF0136
(1791429823.210910) can0 0200FD01#0100000000000000
(1791429823.211076) can1 0200FD02#0100000000000000
(1791429823.211214) can0 020001FD#7FB07FBF7FFF0136
(1791429823.211313) can1 020002FD#7FFF80197FFF014A
(1791429823.211511) can0 0200FD02#0100000000000000
(1791429823.211702) can1 0200FD03#0100000000000000
(1791429823.211756) can0 020002FD#7FFD7F4A7FFF014A
(1791429823.211877) can1 020003FD#7FFF80337FFF0154
(1791429823.212086) can0 0200FD03#0100000000000000
(1791429823.212313) can0 020003FD#7FFF805D7FFF014A
(1791429823.212347) can1 0200FD04#0100000000000000
(1791429823.212500) can1 020004FD#7FFF80137FFF014A
(1791429823.212698) can0 0200FD04#0100000000000000
(1791429823.212874) can0 020004FD#7FF680427FFF0136
(1791429823.212908) can1 0200FD05#0100000000000000
(1791429823.213135) can1 020005FD#88E17FF17FFF0168
(1791429823.213320) can0 0200FD05#0100000000000000
(1791429823.213497) can0 020005FD#7E7C80067FFF0168
(1791429823.213532) can1 0200FD06#0100000000000000
(1791429823.213760) can1 020006FD#7FF87FDB7FFF0168
(1791429823.213889) can0 0200FD06#0100000000000000
(1791429823.214083) can1 0200FD07#0100000000000000
(1791429823.214203) can0 020006FD#800A80077FFF0168
(1791429823.214317) can1 020007FD#80027FF37FFF014A
(1791429823.214520) can0 0200FD07#0100000000000000
(1791429823.214703) can1 0200FD08#0100000000000000
(1791429823.214759) can0 020007FD#7AE380047FFF0154
(1791429823.214858) can1 020008FD#829080167FFF0140
(1791429823.215070) can0 0200FD08#0100000000000000
(1791429823.215257) can0 020008FD#7EBE801F7FFF0140
(1791429823.289776) can1 0200FD01#0100000000000000
(1791429823.289955) can1 020001FD#7FFE7FA57FFF0136
(1791429823.290327) can0 0200FD01#0100000000000000
(1791429823.290392) can1 0200FD02#0100000000000000
(1791429823.290506) can0 020001FD#7FB07FA27FFF0136
(1791429823.290602) can1 020002FD#7FFF7FBB7FFF014A
(1791429823.290900) can0 0200FD02#0100000000000000
(1791429823.290966) can1 0200FD03#0100000000000000
(1791429823.291206) can0 020002FD#7FFD7F907FFF014A
(1791429823.291258) can1 020003FD#7FFF7FDE7FFF0154
(1791429823.291515) can0 0200FD03#0100000000000000
(1791429823.291613) can1 0200FD04#0100000000000000
(1791429823.291754) can0 020003FD#7FFF7FA47FFF014A
(1791429823.291819) can1 020004FD#7FFF7FC97FFF014A
(1791429823.292081) can0 0200FD04#0100000000000000
(1791429823.292149) can1 0200FD05#0100000000000000
(1791429823.292305) can0 020004FD#7FF6809C7FFF0136
(1791429823.292363) can1 020005FD#88E1800D7FFF0168
(1791429823.292716) can0 0200FD05#0100000000000000
(1791429823.292769) can1 0200FD06#0100000000000000
(1791429823.292961) can0 020005FD#7E7C80077FFF0168
(1791429823.293007) can1 020006FD#7FF8801C7FFF0168
(1791429823.293317) can0 0200FD06#0100000000000000
(1791429823.293386) can1 0200FD07#0100000000000000
(1791429823.293499) can0 020006FD#800A7FF17FFF0168
(1791429823.293603) can1 020007FD#8002801A7FFF014A
(1791429823.293893) can0 0200FD07#0100000000000000
(1791429823.293966) can1 0200FD08#0100000000000000
(1791429823.294069) can0 020007FD#7AE480497FFF0154
(1791429823.294121) can1 020008FD#828F80197FFF0140
(1791429823.294519) can0 0200FD08#0100000000000000
(1791429823.294663) can0 020008FD#7EBF801E7FFF0140
(1791429823.373393) can1 0200FD01#0100000000000000
(1791429823.373511) can1 020001FD#7FFE80027FFF0136
(1791429823.373714) can0 0200FD01#0100000000000000
(1791429823.373964) can0 020001FD#7FB07FE47FFF0136
(1791429823.373990) can1 0200FD02#0100000000000000
(1791429823.374288) can1 020002FD#7FFF801C7FFF014A
(1791429823.374333) can0 0200FD02#0100000000000000
(1791429823.374511) can0 020002FD#7FFD803C7FFF014A
(1791429823.374606) can1 0200FD03#0100000000000000
(1791429823.374827) can1 020003FD#7FFF7F6A7FFF0154
(1791429823.374901) can0 0200FD03#0100000000000000
(1791429823.375152) can1 0200FD04#0100000000000000
(1791429823.375209) can0 020003FD#7FFF80107FFF014A
(1791429823.375374) can1 020004FD#7FFF7FB47FFF014A
(1791429823.375520) can0 0200FD04#0100000000000000
(1791429823.375774) can0 020004FD#7FF67FC47FFF0136
(1791429823.375781) can1 0200FD05#0100000000000000
(1791429823.375943) can1 020005FD#88E1803B7FFF0168
(1791429823.376077) can0 0200FD05#0100000000000000
(1791429823.376307) can0 020005FD#7E7C7FED7FFF0168
(1791429823.376385) can1 0200FD06#0100000000000000
(1791429823.376576) can1 020006FD#7FF87FDA7FFF015E
(1791429823.376708) can0 0200FD06#0100000000000000
(1791429823.376882) can0 020006FD#800A802D7FFF0168
(1791429823.376949) can1 0200FD07#0100000000000000
(1791429823.377273) can1 020007FD#8002801E7FFF014A
(1791429823.377328) can0 0200FD07#0100000000000000
(1791429823.377506) can0 020007FD#7AE47FD97FFF0154
(1791429823.377607) can1 0200FD08#0100000000000000
(1791429823.377753) can1 020008FD#828F7FE77FFF0140
(1791429823.377951) can0 0200FD08#0100000000000000
(1791429823.378048) can0 020008FD#7EBE7FFC7FFF0140
(1791429823.455986) can1 0200FD01#0100000000000000
(1791429823.456268) can1 020001FD#7FFE80367FFF0136
(1791429823.456451) can0 0200FD01#0100000000000000
(1791429823.456584) can1 0200FD02#0100000000000000
(1791429823.456630) can0 020001FD#7FB080527FFF0136
(1791429823.456824) can1 020002FD#7FFF7FEA7FFF014A
(1791429823.457020) can0 0200FD02#0100000000000000
(1791429823.457153) can1 0200FD03#0100000000000000
(1791429823.457324) can0 020002FD#7FFD7FBC7FFF014A
(1791429823.457370) can1 020003FD#7FFF80797FFF0154
(1791429823.457652) can0 0200FD03#0100000000000000
(1791429823.457761) can1 0200FD04#0100000000000000
(1791429823.457830) can0 020003FD#7FFF80337FFF014A
(1791429823.457948) can1 020004FD#7FFF7FAE7FFF014A
(1791429823.458261) can0 0200FD04#0100000000000000
(1791429823.458397) can1 0200FD05#0100000000000000
(1791429823.458454) can0 020004FD#7FF67F2F7FFF0136
(1791429823.458584) can1 020005FD#88E1801F7FFF0168
(1791429823.458828) can0 0200FD05#0100000000000000
(1791429823.458965) can1 0200FD06#0100000000000000
(1791429823.459004) can0 020005FD#7E7C7FE57FFF0168
(1791429823.459265) can1 020006FD#7FF87FFC7FFF0168
(1791429823.459454) can0 0200FD06#0100000000000000
(1791429823.459608) can1 0200FD07#0100000000000000
(1791429823.459644) can0 020006FD#800A800F7FFF0168
(1791429823.459773) can1 020007FD#80027FED7FFF014A
(1791429823.460026) can0 0200FD07#0100000000000000
(1791429823.460153) can1 0200FD08#0100000000000000
(1791429823.460261) can0 020007FD#7AE4802E7FFF0154
(1791429823.460303) can1 020008FD#828F7FEE7FFF0140
(1791429823.460639) can0 0200FD08#0100000000000000
(1791429823.460783) can0 020008FD#7EBE7F9F7FFF0140
(1791429823.533717) can1 0200FD01#0100000000000000
(1791429823.533964) can1 020001FD#7FFE7FDE7FFF0136
(1791429823.534039) can0 0200FD01#0100000000000000
(1791429823.534323) can1 0200FD02#0100000000000000
(1791429823.534359) can0 020001FD#7FB0802E7FFF0136
(1791429823.534509) can1 020002FD#7FFF80A07FFF014A
(1791429823.534648) can0 0200FD02#0100000000000000
(1791429823.534829) can0 020002FD#7FFD80577FFF014A
(1791429823.534901) can1 0200FD03#0100000000000000
(1791429823.535216) can1 020003FD#7FFF7F2A7FFF0154
(1791429823.535257) can0 0200FD03#0100000000000000
(1791429823.535432) can0 020003FD#7FFF7FA67FFF014A
(1791429823.535529) can1 0200FD04#0100000000000000
(1791429823.535769) can1 020004FD#7FFF7FE37FFF014A
(1791429823.535834) can0 0200FD04#0100000000000000
(1791429823.536014) can0 020004FD#7FF67FA77FFF0136
(1791429823.536097) can1 0200FD05#0100000000000000
(1791429823.536323) can1 020005FD#88E180177FFF0168
(1791429823.536463) can0 0200FD05#0100000000000000
(1791429823.536635) can0 020005FD#7E7C7FE47FFF0168
(1791429823.536716) can1 0200FD06#0100000000000000
(1791429823.536898) can1 020006FD#7FF87FCF7FFF0168
(1791429823.537036) can0 0200FD06#0100000000000000
(1791429823.537327) can0 020006FD#800A80077FFF0168
(1791429823.537330) can1 0200FD07#0100000000000000
(1791429823.537507) can1 020007FD#8002800F7FFF014A
(1791429823.537652) can0 0200FD07#0100000000000000
(1791429823.537898) can0 020007FD#7AE480237FFF0154
(1791429823.537901) can1 0200FD08#0100000000000000
(1791429823.538047) can1 020008FD#828F7FF67FFF0140
(1791429823.538263) can0 0200FD08#0100000000000000
(1791429823.538366) can0 020008FD#7EBE7FDE7FFF0140
(1791429823.609726) can1 0200FD01#0100000000000000
(1791429823.609961) can1 020001FD#7FFE809D7FFF0136
(1791429823.610023) can0 0200FD01#0100000000000000
(1791429823.610228) can0 020001FD#7FB080727FFF0136
(1791429823.610328) can1 0200FD02#0100000000000000
(1791429823.610509) can1 020002FD#7FFF7FA77FFF014A
(1791429823.610614) can0 0200FD02#0100000000000000
(1791429823.610838) can0 020002FD#7FFD80697FFF014A
(1791429823.610902) can1 0200FD03#0100000000000000
(1791429823.611162) can0 0200FD03#0100000000000000
(1791429823.611216) can1 020003FD#7FFF804C7FFF0154
(1791429823.611379) can0 020003FD#7FFF80077FFF014A
(1791429823.611525) can1 0200FD04#0100000000000000
(1791429823.611762) can0 0200FD04#0100000000000000
(1791429823.611764) can1 020004FD#7FFF7FEB7FFF014A
(1791429823.612012) can0 020004FD#7FF67FF77FFF0136
(1791429823.612100) can1 0200FD05#0100000000000000
(1791429823.612331) can1 020005FD#88E1800A7FFF0168
(1791429823.612394) can0 0200FD05#0100000000000000
(1791429823.612614) can0 020005FD#7E7C7FD27FFF0168
(1791429823.612720) can1 0200FD06#0100000000000000
(1791429823.612894) can1 020006FD#7FF87FF57FFF0168
(1791429823.612973) can0 0200FD06#0100000000000000
(1791429823.613280) can0 020006FD#800A80457FFF0168
(1791429823.613337) can1 0200FD07#0100000000000000
(1791429823.613521) can1 020007FD#8002800C7FFF014A
(1791429823.613614) can0 0200FD07#0100000000000000
(1791429823.613835) can0 020007FD#7AE37FE97FFF0154
(1791429823.613905) can1 0200FD08#0100000000000000
(1791429823.614063) can1 020008FD#828F7FB87FFF0140
(1791429823.614158) can0 0200FD08#0100000000000000
(1791429823.614307) can0 020008FD#7EBE80147FFF0140
(1791429823.688660) can1 0200FD01#0100000000000000
(1791429823.688904) can1 020001FD#7FFE80497FFF0136
(1791429823.688937) can0 0200FD01#0100000000000000
(1791429823.689226) can0 020001FD#7FB080707FFF0136
(1791429823.689267) can1 0200FD02#0100000000000000
(1791429823.689461) can1 020002FD#7FFF806E7FFF014A
(1791429823.689530) can0 0200FD02#0100000000000000
(1791429823.689772) can0 020002FD#7FFD7FAA7FFF014A
(1791429823.689838) can1 0200FD03#0100000000000000
(1791429823.690087) can1 020003FD#7FFF80367FFF0154
(1791429823.690123) can0 0200FD03#0100000000000000
(1791429823.690333) can0 020003FD#7FFF7FC67FFF014A
(1791429823.690463) can1 0200FD04#0100000000000000
(1791429823.690643) can1 020004FD#7FFF7F927FFF014A
(1791429823.690714) can0 0200FD04#0100000000000000
(1791429823.690961) can0 020004FD#7FF680137FFF0136
(1791429823.691040) can1 0200FD05#0100000000000000
(1791429823.691286) can1 020005FD#88E17FF67FFF0168
(1791429823.691343) can0 0200FD05#0100000000000000
(1791429823.691519) can0 020005FD#7E7C7FDD7FFF0168
(1791429823.691657) can1 0200FD06#0100000000000000
(1791429823.691895) can1 020006FD#7FF880407FFF015E
(1791429823.691930) can0 0200FD06#0100000000000000
(1791429823.692239) can0 020006FD#800A80217FFF0168
(1791429823.692275) can1 0200FD07#0100000000000000
(1791429823.692461) can1 020007FD#8002802B7FFF014A
(1791429823.692530) can0 0200FD07#0100000000000000
(1791429823.692777) can0 020007FD#7AE380157FFF0154
(1791429823.692835) can1 0200FD08#0100000000000000
(1791429823.692997) can1 020008FD#828F80137FFF0140
(1791429823.693087) can0 0200FD08#0100000000000000
(1791429823.693278) can0 020008FD#7EBE80187FFF0140
(1791429823.766848) can1 0200FD01#0100000000000000
(1791429823.767090) can1 020001FD#7FFE7F7F7FFF0136
(1791429823.767474) can1 0200FD02#0100000000000000
(1791429823.767475) can0 0200FD01#0100000000000000
(1791429823.767650) can1 020002FD#7FFF7FDF7FFF014A
(1791429823.767685) can0 020001FD#7FB07FEA7FFF0136
(1791429823.768042) can1 0200FD03#0100000000000000
(1791429823.768081) can0 0200FD02#0100000000000000
(1791429823.768327) can1 020003FD#7FFF7FCC7FFF0154
(1791429823.768360) can0 020002FD#7FFE7FF57FFF014A
(1791429823.768695) can0 0200FD03#0100000000000000
(1791429823.768700) can1 0200FD04#0100000000000000
(1791429823.768899) can0 020003FD#7FFF7F947FFF014A
(1791429823.768906) can1 020004FD#7FFF7FCC7FFF014A
(1791429823.769269) can0 0200FD04#0100000000000000
(1791429823.769270) can1 0200FD05#0100000000000000
(1791429823.769454) can0 020004FD#7FF67FB87FFF0136
(1791429823.769487) can1 020005FD#88E17FDB7FFF0168
(1791429823.769825) can0 0200FD05#0100000000000000
(1791429823.769858) can1 0200FD06#0100000000000000
(1791429823.770039) can1 020006FD#7FF880057FFF0168
(1791429823.770085) can0 020005FD#7E7C800F7FFF0168
(1791429823.770413) can0 0200FD06#0100000000000000
(1791429823.770468) can1 0200FD07#0100000000000000
(1791429823.770615) can0 020006FD#800A7FD07FFF0168
(1791429823.770656) can1 020007FD#800280127FFF014A
(1791429823.770984) can0 0200FD07#0100000000000000
(1791429823.771039) can1 0200FD08#0100000000000000
(1791429823.771228) can1 020008FD#82907FF77FFF0140
(1791429823.771273) can0 020007FD#7AE3800E7FFF0154
(1791429823.771628) can0 0200FD08#0100000000000000
(1791429823.771728) can0 020008FD#7EBE80257FFF0140
(1791429823.845183) can1 0200FD01#0100000000000000
(1791429823.845345) can1 020001FD#7FFE80297FFF0136
(1791429823.845403) can0 0200FD01#0100000000000000
(1791429823.845627) can0 020001FD#7FB080E07FFF0136
(1791429823.845793) can1 0200FD02#0100000000000000
(1791429823.845978) can0 0200FD02#0100000000000000
(1791429823.846041) can1 020002FD#7FFF807C7FFF014A
(1791429823.846290) can0 020002FD#7FFD7FC27FFF014A
(1791429823.846420) can1 0200FD03#0100000000000000
(1791429823.846629) can0 0200FD03#0100000000000000
(1791429823.846632) can1 020003FD#7FFF7FE97FFF0154
(1791429823.846842) can0 020003FD#7FFF80557FFF014A
(1791429823.846982) can1 0200FD04#0100000000000000
(1791429823.847174) can0 0200FD04#0100000000000000
(1791429823.847289) can1 020004FD#7FFF80A87FFF014A
(1791429823.847390) can0 020004FD#7FF67FE87FFF0136
(1791429823.847622) can1 0200FD05#0100000000000000
(1791429823.847775) can0 0200FD05#0100000000000000
(1791429823.847845) can1 020005FD#88E17FE57FFF0168
(1791429823.848013) can0 020005FD#7E7C80027FFF0168
(1791429823.848171) can1 0200FD06#0100000000000000
(1791429823.848389) can1 020006FD#7FF87FBF7FFF0168
(1791429823.848424) can0 0200FD06#0100000000000000
(1791429823.848621) can0 020006FD#800A80077FFF0168
(1791429823.848781) can1 0200FD07#0100000000000000
(1791429823.848965) can1 020007FD#800280247FFF014A
(1791429823.848967) can0 0200FD07#0100000000000000
(1791429823.849144) can0 020007FD#7AE37FDB7FFF0154
(1791429823.849414) can1 0200FD08#0100000000000000
(1791429823.849507) can1 020008FD#828F800C7FFF0140
(1791429823.849543) can0 0200FD08#0100000000000000
(1791429823.849682) can0 020008FD#7EBE7FF27FFF0140
(1791429823.918483) can1 0200FD01#0100000000000000
(1791429823.918651) can1 020001FD#7FFE7FE37FFF0136
(1791429823.919037) can1 0200FD02#0100000000000000
(1791429823.919326) can1 020002FD#7FFF7FC07FFF014A
(1791429823.919360) can0 0200FD01#0100000000000000
(1791429823.919517) can0 020001FD#7FB080687FFF0136
(1791429823.919657) can1 0200FD03#0100000000000000
(1791429823.919846) can1 020003FD#7FFF7FE97FFF0154
(1791429823.919915) can0 0200FD02#0100000000000000
(1791429823.920162) can0 020002FD#7FFD7FE67FFF014A
(1791429823.920282) can1 0200FD04#0100000000000000
(1791429823.920479) can1 020004FD#7FFF7F5B7FFF014A
(1791429823.920537) can0 0200FD03#0100000000000000
(1791429823.920782) can0 020003FD#7FFF7FE67FFF014A
(1791429823.920860) can1 0200FD05#0100000000000000
(1791429823.921110) can1 020005FD#88E180037FFF0168
(1791429823.921112) can0 0200FD04#0100000000000000
(1791429823.921345) can0 020004FD#7FF67F467FFF0136
(1791429823.921470) can1 0200FD06#0100000000000000
(1791429823.921650) can1 020006FD#7FF880057FFF015E
(1791429823.921725) can0 0200FD05#0100000000000000
(1791429823.921906) can0 020005FD#7E7C7FBF7FFF0168
(1791429823.922038) can1 0200FD07#0100000000000000
(1791429823.922342) can1 020007FD#800280137FFF014A
(1791429823.922345) can0 0200FD06#0100000000000000
(1791429823.922524) can0 020006FD#800A80037FFF0168
(1791429823.922665) can1 0200FD08#0100000000000000
(1791429823.922806) can1 020008FD#829080267FFF0140
(1791429823.922903) can0 0200FD07#0100000000000000
(1791429823.923139) can0 020007FD#7AE3800D7FFF0154
(1791429823.923477) can0 0200FD08#0100000000000000
(1791429823.923641) can0 020008FD#7EBE80487FFF0140
(1791429824.003741) can1 0200FD01#0100000000000000
(1791429824.003993) can1 020001FD#7FFE7FDC7FFF0136
(1791429824.003999) can0 0200FD01#0100000000000000
(1791429824.004303) can0 020001FD#7FB080167FFF0136
(1791429824.004351) can1 0200FD02#0100000000000000
(1791429824.004529) can1 020002FD#7FFF80707FFF014A
(1791429824.004630) can0 0200FD02#0100000000000000
(1791429824.004847) can0 020002FD#7FFE80327FFF014A
(1791429824.004918) can1 0200FD03#0100000000000000
(1791429824.005165) can1 020003FD#7FFF80017FFF0154
(1791429824.005169) can0 0200FD03#0100000000000000
(1791429824.005390) can0 020003FD#7FFF7F867FFF014A
(1791429824.005540) can1 0200FD04#0100000000000000
(1791429824.005784) can1 020004FD#7FFF81367FFF014A
(1791429824.005818) can0 0200FD04#0100000000000000
(1791429824.005973) can0 020004FD#7FF67FD47FFF0136
(1791429824.006106) can1 0200FD05#0100000000000000
(1791429824.006349) can1 020005FD#88E17FE27FFF0168
(1791429824.006409) can0 0200FD05#0100000000000000
(1791429824.006585) can0 020005FD#7E7C800F7FFF0168
(1791429824.006721) can1 0200FD06#0100000000000000
(1791429824.006981) can1 020006FD#7FF880327FFF0168
(1791429824.007010) can0 0200FD06#0100000000000000
(1791429824.007287) can0 020006FD#800A7FF97FFF0168
(1791429824.007345) can1 0200FD07#0100000000000000
(1791429824.007528) can1 020007FD#80027FEC7FFF014A
(1791429824.007630) can0 0200FD07#0100000000000000
(1791429824.007849) can0 020007FD#7AE480447FFF0154
(1791429824.007911) can1 0200FD08#0100000000000000
(1791429824.008096) can1 020008FD#8290802D7FFF0140
(1791429824.008165) can0 0200FD08#0100000000000000
(1791429824.008332) can0 020008FD#7EBE801F7FFF0140
(1791429824.084046) can1 0200FD01#0100000000000000
(1791429824.084290) can1 020001FD#7FFE802B7FFF0136
(1791429824.084476) can0 0200FD01#0100000000000000
(1791429824.084673) can1 0200FD02#0100000000000000
(1791429824.084728) can0 020001FD#7FB07FB17FFF0136
(1791429824.084912) can1 020002FD#7FFF7FAE7FFF014A
(1791429824.085044) can0 0200FD02#0100000000000000
(1791429824.085286) can1 0200FD03#0100000000000000
(1791429824.085351) can0 020002FD#7FFD7FCC7FFF014A
(1791429824.085479) can1 020003FD#7FFF7F857FFF0154
(1791429824.085678) can0 0200FD03#0100000000000000
(1791429824.085860) can1 0200FD04#0100000000000000
(1791429824.085861) can0 020003FD#7FFF80297FFF014A
(1791429824.086106) can1 020004FD#7FFF7FFF7FFF014A
(1791429824.086290) can0 0200FD04#0100000000000000
(1791429824.086476) can0 020004FD#7FF67FFE7FFF0136
(1791429824.086511) can1 0200FD05#0100000000000000
(1791429824.086666) can1 020005FD#88E1802E7FFF0168
(1791429824.086866) can0 0200FD05#0100000000000000
(1791429824.087050) can1 0200FD06#0100000000000000
(1791429824.087107) can0 020005FD#7E7C7FE97FFF0168
(1791429824.087332) can1 020006FD#7FF87FEF7FFF015E
(1791429824.087488) can0 0200FD06#0100000000000000
(1791429824.087664) can0 020006FD#800A800B7FFF0168
(1791429824.087700) can1 0200FD07#0100000000000000
(1791429824.087848) can1 020007FD#800280237FFF014A
(1791429824.088052) can0 0200FD07#0100000000000000
(1791429824.088278) can1 0200FD08#0100000000000000
(1791429824.088344) can0 020007FD#7AE47FEC7FFF0154
(1791429824.088387) can1 020008FD#828F80167FFF0140
(1791429824.088662) can0 0200FD08#0100000000000000
(1791429824.088797) can0 020008FD#7EBE7FD87FFF0140
(1791429824.168018) can1 0200FD01#0100000000000000
(1791429824.168298) can1 020001FD#7FFE805B7FFF0136
(1791429824.168636) can1 0200FD02#0100000000000000
(1791429824.168795) can1 020002FD#7FFF7FA17FFF014A
(1791429824.168830) can0 0200FD01#0100000000000000
(1791429824.168980) can0 020001FD#7FB0800D7FFF0136
(1791429824.169177) can1 0200FD03#0100000000000000
(1791429824.169400) can1 020003FD#7FFF7FC37FFF0154
(1791429824.169435) can0 0200FD02#0100000000000000
(1791429824.169635) can0 020002FD#7FFD80417FFF014A
(1791429824.169794) can1 0200FD04#0100000000000000
(1791429824.169976) can1 020004FD#7FFF80207FFF014A
(1791429824.170011) can0 0200FD03#0100000000000000
(1791429824.170301) can0 020003FD#7FFF7FE27FFF014A
(1791429824.170428) can1 0200FD05#0100000000000000
(1791429824.170608) can1 020005FD#88E180287FFF0168
(1791429824.170637) can0 0200FD04#0100000000000000
(1791429824.170855) can0 020004FD#7FF67F807FFF0136
(1791429824.170995) can1 0200FD06#0100000000000000
(1791429824.171183) can0 0200FD05#0100000000000000
(1791429824.171296) can1 020006FD#7FF880237FFF0168
(1791429824.171400) can0 020005FD#7E7C80207FFF0168
(1791429824.171636) can1 0200FD07#0100000000000000
(1791429824.171795) can0 0200FD06#0100000000000000
(1791429824.171856) can1 020007FD#800280227FFF014A
(1791429824.171979) can0 020006FD#800A801B7FFF0168
(1791429824.172185) can1 0200FD08#0100000000000000
(1791429824.172338) can1 020008FD#828F7FFE7FFF0140
(1791429824.172415) can0 0200FD07#0100000000000000
(1791429824.172645) can0 020007FD#7AE480027FFF0154
(1791429824.172988) can0 0200FD08#0100000000000000
(1791429824.173141) can0 020008FD#7EBE7FE87FFF0140
(1791429824.254673) can1 0200FD01#0100000000000000
(1791429824.254911) can1 020001FD#7FFE7FCF7FFF0136
(1791429824.255285) can0 0200FD01#0100000000000000
(1791429824.255286) can1 0200FD02#0100000000000000
(1791429824.255456) can0 020001FD#7FB081157FFF0136
(1791429824.255490) can1 020002FD#7FFF7FF87FFF014A
(1791429824.255859) can0 0200FD02#0100000000000000
(1791429824.255860) can1 0200FD03#0100000000000000
(1791429824.256110) can0 020002FD#7FFD7FC87FFF014A
(1791429824.256114) can1 020003FD#7FFF7FD07FFF0154
(1791429824.256494) can0 0200FD03#0100000000000000
(1791429824.256496) can1 0200FD04#0100000000000000
(1791429824.256666) can0 020003FD#7FFF7FF87FFF014A
(1791429824.256671) can1 020004FD#7FFF7F9B7FFF014A
(1791429824.257060) can0 0200FD04#0100000000000000
(1791429824.257062) can1 0200FD05#0100000000000000
(1791429824.257357) can0 020004FD#7FF67FF57FFF0136
(1791429824.257361) can1 020005FD#88E1800A7FFF0168
(1791429824.257675) can0 0200FD05#0100000000000000
(1791429824.257677) can1 0200FD06#0100000000000000
(1791429824.257854) can0 020005FD#7E7C80287FFF0168
(1791429824.257929) can1 020006FD#7FF87FDB7FFF015E
(1791429824.258292) can0 0200FD06#0100000000000000
(1791429824.258294) can1 0200FD07#0100000000000000
(1791429824.258468) can0 020006FD#800A80147FFF0168
(1791429824.258503) can1 020007FD#80027FEE7FFF014A
(1791429824.258859) can0 0200FD07#0100000000000000
(1791429824.258899) can1 0200FD08#0100000000000000
(1791429824.259020) can1 020008FD#828F7FB87FFF0140
(1791429824.259114) can0 020007FD#7AE37FF17FFF0154
(1791429824.259420) can0 0200FD08#0100000000000000
(1791429824.259592) can0 020008FD#7EBE80447FFF0140
(1791429824.349744) can1 0200FD01#0100000000000000
(1791429824.349988) can1 020001FD#7FFE7F8C7FFF0136
(1791429824.350060) can0 0200FD01#0100000000000000
(1791429824.350357) can0 020001FD#7FB080317FFF0136
(1791429824.350360) can1 0200FD02#0100000000000000
(1791429824.350533) can1 020002FD#7FFF7FF57FFF014A
(1791429824.350682) can0 0200FD02#0100000000000000
(1791429824.350927) can0 020002FD#7FFD80197FFF014A
(1791429824.350961) can1 0200FD03#0100000000000000
(1791429824.351258) can1 020003FD#7FFF80467FFF0154
(1791429824.351291) can0 0200FD03#0100000000000000
(1791429824.351469) can0 020003FD#7FFF80707FFF014A
(1791429824.351555) can1 0200FD04#0100000000000000
(1791429824.351800) can1 020004FD#7FFF7FA67FFF014A
(1791429824.351865) can0 0200FD04#0100000000000000
(1791429824.352108) can0 020004FD#7FF680117FFF0136
(1791429824.352141) can1 0200FD05#0100000000000000
(1791429824.352341) can1 020005FD#88E17FF97FFF0168
(1791429824.352491) can0 0200FD05#0100000000000000
(1791429824.352665) can0 020005FD#7E7C80167FFF0168
(1791429824.352752) can1 0200FD06#0100000000000000
(1791429824.352934) can1 020006FD#7FF87FC67FFF0168
(1791429824.353066) can0 0200FD06#0100000000000000
(1791429824.353363) can0 020006FD#800A80297FFF0168
(1791429824.353368) can1 0200FD07#0100000000000000
(1791429824.353546) can1 020007FD#8002802A7FFF014A
(1791429824.353682) can0 0200FD07#0100000000000000
(1791429824.353864) can0 020007FD#7AE37FE67FFF0154
(1791429824.353928) can1 0200FD08#0100000000000000
(1791429824.354081) can1 020008FD#8290804E7FFF0140
(1791429824.354303) can0 0200FD08#0100000000000000
(1791429824.354411) can0 020008FD#7EBE80157FFF0140
(1791429824.443750) can1 0200FD01#0100000000000000
(1791429824.443985) can1 020001FD#7FFE80247FFF0136
(1791429824.444151) can0 0200FD01#0100000000000000
(1791429824.444374) can0 020001FD#7FB080357FFF0136
(1791429824.444379) can1 0200FD02#0100000000000000
(1791429824.444548) can1 020002FD#7FFF803B7FFF014A
(1791429824.444751) can0 0200FD02#0100000000000000
(1791429824.444940) can1 0200FD03#0100000000000000
