(1789711616.835359) can0 0200FD01#0100000000000000
(1789711616.835361) can1 0200FD01#0100000000000000
(1789711616.835466) can1 020001FD#806F80127FFF010E
(1789711616.835511) can0 020001FD#7FA1804B7FFF010E
(1789711616.835940) can0 0200FD02#0100000000000000
(1789711616.835972) can1 0200FD02#0100000000000000
(1789711616.836156) can0 020002FD#80017FC07FFF0118
(1789711616.836196) can1 020002FD#80037FAF7FFF010E
(1789711616.836522) can0 0200FD03#0100000000000000
(1789711616.836574) can1 0200FD03#0100000000000000
(1789711616.836771) can0 020003FD#80017FD47FFF0118
(1789711616.836824) can1 020003FD#82B87F767FFF010E
(1789711616.837161) can0 0200FD04#0100000000000000
(1789711616.837163) can1 0200FD04#0100000000000000
(1789711616.837337) can1 020004FD#7FFE80FE7FFF010E
(1789711616.837369) can0 020004FD#80017F637FFF0104
(1789711616.837727) can0 0200FD05#0100000000000000
(1789711616.837758) can1 0200FD05#0100000000000000
(1789711616.837895) can0 020005FD#7E7880277FFF0122
(1789711616.837927) can1 020005FD#90BE80037FFF0118
(1789711616.838350) can0 0200FD06#0100000000000000
(1789711616.838380) can1 0200FD06#0100000000000000
(1789711616.838519) can0 020006FD#802D7FF47FFF0122
(1789711616.838552) can1 020006FD#7FBC80307FFF0118
(1789711616.838915) can0 0200FD07#0100000000000000
(1789711616.838946) can1 0200FD07#0100000000000000
(1789711616.839199) can1 020007FD#7FEE7FD37FFF0118
(1789711616.839231) can0 020007FD#7A927FC57FFF0122
(1789711616.839525) can1 0200FD08#0100000000000000
(1789711616.839557) can0 0200FD08#0100000000000000
(1789711616.839656) can1 020008FD#8089804B7FFF010E
(1789711616.839692) can0 020008FD#7EC0802D7FFF0118
(1789711616.914507) can1 0200FD01#0100000000000000
(1789711616.914538) can0 0200FD01#0100000000000000
(1789711616.914662) can1 020001FD#806F7F947FFF010E
(1789711616.914774) can0 020001FD#7FA17FCB7FFF010E
(1789711616.915035) can1 0200FD02#0100000000000000
(1789711616.915152) can0 0200FD02#0100000000000000
(1789711616.915260) can1 020002FD#800480247FFF010E
(1789711616.915323) can0 020002FD#800180CE7FFF0118
(1789711616.915644) can1 0200FD03#0100000000000000
(1789711616.915695) can0 0200FD03#0100000000000000
(1789711616.915882) can1 020003FD#82B87FE47FFF010E
(1789711616.915931) can0 020003FD#8001804B7FFF0118
(1789711616.916294) can1 0200FD04#0100000000000000
(1789711616.916296) can0 0200FD04#0100000000000000
(1789711616.916400) can1 020004FD#7FFE7FC97FFF010E
(1789711616.916467) can0 020004FD#800180747FFF0104
(1789711616.916850) can1 0200FD05#0100000000000000
(1789711616.916880) can0 0200FD05#0100000000000000
(1789711616.917022) can1 020005FD#90BE7FF77FFF0118
(1789711616.917160) can0 020005FD#7E787FF87FFF0122
(1789711616.917415) can1 0200FD06#0100000000000000
(1789711616.917468) can0 0200FD06#0100000000000000
(1789711616.917657) can1 020006FD#7FBD7FEB7FFF0118
(1789711616.917718) can0 020006FD#802E800B7FFF0122
(1789711616.917987) can1 0200FD07#0100000000000000
(1789711616.918036) can0 0200FD07#0100000000000000
(1789711616.918208) can1 020007FD#7FEE7FF47FFF0118
(1789711616.918260) can0 020007FD#7A927FE07FFF0122
(1789711616.918581) can1 0200FD08#0100000000000000
(1789711616.918698) can0 0200FD08#0100000000000000
(1789711616.918742) can1 020008FD#8089801D7FFF010E
(1789711616.918784) can0 020008FD#7EC080117FFF0118
(1789711616.974820) can1 0200FD01#0100000000000000
(1789711616.974873) can0 0200FD01#0100000000000000
(1789711616.975110) can1 020001FD#806E7FFF7FFF010E
(1789711616.975157) can0 020001FD#7FA1802A7FFF010E
(1789711616.975490) can0 0200FD02#0100000000000000
(1789711616.975491) can1 0200FD02#0100000000000000
(1789711616.975667) can0 020002FD#800180507FFF0118
(1789711616.975671) can1 020002FD#800380257FFF010E
(1789711616.976055) can0 0200FD03#0100000000000000
(1789711616.976056) can1 0200FD03#0100000000000000
(1789711616.976271) can1 020003FD#82B87F857FFF010E
(1789711616.976275) can0 020003FD#8001808A7FFF0118
(1789711616.976644) can1 0200FD04#0100000000000000
(1789711616.976678) can0 0200FD04#0100000000000000
(1789711616.976884) can1 020004FD#7FFE7F897FFF010E
(1789711616.976918) can0 020004FD#80017FC87FFF0104
(1789711616.977231) can1 0200FD05#0100000000000000
(1789711616.977288) can0 0200FD05#0100000000000000
(1789711616.977405) can1 020005FD#90BE80197FFF0118
(1789711616.977471) can0 020005FD#7E7880357FFF0122
(1789711616.977789) can1 0200FD06#0100000000000000
(1789711616.977852) can0 0200FD06#0100000000000000
(1789711616.978028) can0 020006FD#802D80587FFF0122
(1789711616.978032) can1 020006FD#7FBC7FF67FFF0118
(1789711616.978423) can1 0200FD07#0100000000000000
(1789711616.978425) can0 0200FD07#0100000000000000
(1789711616.978658) can1 020007FD#7FEE80557FFF0118
(1789711616.978691) can0 020007FD#7A92800F7FFF0122
(1789711616.978980) can1 0200FD08#0100000000000000
(1789711616.978982) can0 0200FD08#0100000000000000
(1789711616.979162) can1 020008FD#808980237FFF010E
(1789711616.979167) can0 020008FD#7EC07FFB7FFF0118
(1789711617.032366) can1 0200FD01#0100000000000000
(1789711617.032431) can0 0200FD01#0100000000000000
(1789711617.032536) can1 020001FD#806E7FD67FFF010E
(1789711617.032669) can0 020001FD#7FA180327FFF010E
(1789711617.032923) can1 0200FD02#0100000000000000
(1789711617.032991) can0 0200FD02#0100000000000000
(1789711617.033214) can1 020002FD#80037FA47FFF010E
(1789711617.033249) can0 020002FD#80017FF77FFF0118
(1789711617.033543) can1 0200FD03#0100000000000000
(1789711617.033601) can0 0200FD03#0100000000000000
(1789711617.033782) can1 020003FD#82B87FFD7FFF010E
(1789711617.033850) can0 020003FD#800180897FFF0118
(1789711617.034171) can1 0200FD04#0100000000000000
(1789711617.034289) can0 0200FD04#0100000000000000
(1789711617.034348) can1 020004FD#7FFE7F947FFF010E
(1789711617.034395) can0 020004FD#80017FE07FFF0104
(1789711617.034741) can1 0200FD05#0100000000000000
(1789711617.034861) can0 0200FD05#0100000000000000
(1789711617.034921) can1 020005FD#90BE7FFE7FFF0118
(1789711617.035042) can0 020005FD#7E787FFD7FFF0122
(1789711617.035363) can1 0200FD06#0100000000000000
(1789711617.035485) can0 0200FD06#0100000000000000
(1789711617.035537) can1 020006FD#7FBC800E7FFF0118
(1789711617.035722) can0 020006FD#802D80067FFF0122
(1789711617.035928) can1 0200FD07#0100000000000000
(1789711617.036052) can0 0200FD07#0100000000000000
(1789711617.036214) can1 020007FD#7FEE7FC07FFF0118
(1789711617.036269) can0 020007FD#7A9280197FFF0122
(1789711617.036534) can1 0200FD08#0100000000000000
(1789711617.036676) can1 020008FD#80897FFC7FFF010E
(1789711617.036710) can0 0200FD08#0100000000000000
(1789711617.036793) can0 020008FD#7EC0801B7FFF0118
(1789711617.087429) can1 0200FD01#0100000000000000
(1789711617.087488) can0 0200FD01#0100000000000000
(1789711617.087664) can1 020001FD#806F80487FFF010E
(1789711617.087731) can0 020001FD#7FA180107FFF010E
(1789711617.087978) can1 0200FD02#0100000000000000
(1789711617.088050) can0 0200FD02#0100000000000000
(1789711617.088223) can1 020002FD#80037F6A7FFF010E
(1789711617.088270) can0 020002FD#80017FE97FFF0118
(1789711617.088603) can1 0200FD03#0100000000000000
(1789711617.088646) can0 0200FD03#0100000000000000
(1789711617.088840) can1 020003FD#82B87FB57FFF010E
(1789711617.088880) can0 020003FD#80007FFB7FFF0118
(1789711617.089224) can1 0200FD04#0100000000000000
(1789711617.089264) can0 0200FD04#0100000000000000
(1789711617.089403) can1 020004FD#7FFE806E7FFF010E
(1789711617.089437) can0 020004FD#800280957FFF0104
(1789711617.089797) can1 0200FD05#0100000000000000
(1789711617.089800) can0 0200FD05#0100000000000000
(1789711617.089977) can1 020005FD#90BE800A7FFF0118
(1789711617.090011) can0 020005FD#7E78802E7FFF0122
(1789711617.090422) can1 0200FD06#0100000000000000
(1789711617.090423) can0 0200FD06#0100000000000000
(1789711617.090656) can1 020006FD#7FBC7FE47FFF0118
(1789711617.090696) can0 020006FD#802D80087FFF0122
(1789711617.090974) can1 0200FD07#0100000000000000
(1789711617.091008) can0 0200FD07#0100000000000000
(1789711617.091213) can0 020007FD#7A927FE87FFF0122
(1789711617.091247) can1 020007FD#7FEE7FAD7FFF0118
(1789711617.091604) can1 0200FD08#0100000000000000
(1789711617.091641) can0 0200FD08#0100000000000000
(1789711617.091739) can0 020008FD#7EC07FF17FFF0118
(1789711617.091781) can1 020008FD#80897FF37FFF010E
(1789711617.143663) can1 0200FD01#0100000000000000
(1789711617.143691) can0 0200FD01#0100000000000000
(1789711617.143893) can1 020001FD#806F806E7FFF010E
(1789711617.143933) can0 020001FD#7FA180197FFF010E
(1789711617.144239) can1 0200FD02#0100000000000000
(1789711617.144304) can0 0200FD02#0100000000000000
(1789711617.144419) can1 020002FD#80037FED7FFF010E
(1789711617.144492) can0 020002FD#800180007FFF0118
(1789711617.144814) can1 0200FD03#0100000000000000
(1789711617.144879) can0 0200FD03#0100000000000000
(1789711617.145130) can1 020003FD#82B87F7D7FFF010E
(1789711617.145136) can0 020003FD#800180A07FFF0118
(1789711617.145484) can1 0200FD04#0100000000000000
(1789711617.145517) can0 0200FD04#0100000000000000
(1789711617.145656) can1 020004FD#7FFE804C7FFF010E
(1789711617.145728) can0 020004FD#8001807B7FFF0104
(1789711617.146055) can1 0200FD05#0100000000000000
(1789711617.146057) can0 0200FD05#0100000000000000
(1789711617.146235) can1 020005FD#90BE7FFD7FFF0118
(1789711617.146275) can0 020005FD#7E7880217FFF0122
(1789711617.146650) can0 0200FD06#0100000000000000
(1789711617.146733) can1 0200FD06#0100000000000000
(1789711617.146884) can0 020006FD#802D7FE67FFF0122
(1789711617.146917) can1 020006FD#7FBC80097FFF0118
(1789711617.147233) can0 0200FD07#0100000000000000
(1789711617.147357) can1 0200FD07#0100000000000000
(1789711617.147411) can0 020007FD#7A9280127FFF0122
(1789711617.147530) can1 020007FD#7FEE7F957FFF0118
(1789711617.147807) can0 0200FD08#0100000000000000
(1789711617.147927) can1 0200FD08#0100000000000000
(1789711617.147964) can0 020008FD#7EC080127FFF0118
(1789711617.148123) can1 020008FD#80897FEB7FFF010E
(1789711617.200647) can1 0200FD01#0100000000000000
(1789711617.200674) can0 0200FD01#0100000000000000
(1789711617.200882) can1 020001FD#806F80867FFF010E
(1789711617.200914) can0 020001FD#7FA17FBB7FFF010E
(1789711617.201265) can1 0200FD02#0100000000000000
(1789711617.201326) can0 0200FD02#0100000000000000
(1789711617.201440) can1 020002FD#8003807B7FFF010E
(1789711617.201510) can0 020002FD#80007FE97FFF0118
(1789711617.201834) can1 0200FD03#0100000000000000
(1789711617.201867) can0 0200FD03#0100000000000000
(1789711617.202049) can1 020003FD#82B880497FFF010E
(1789711617.202185) can0 020003FD#8001807C7FFF0118
(1789711617.202439) can1 0200FD04#0100000000000000
(1789711617.202493) can0 0200FD04#0100000000000000
(1789711617.202676) can1 020004FD#7FFE80227FFF010E
(1789711617.202736) can0 020004FD#80017FBD7FFF0104
(1789711617.202996) can1 0200FD05#0100000000000000
(1789711617.203057) can0 0200FD05#0100000000000000
(1789711617.203234) can1 020005FD#90BE7FEE7FFF0118
(1789711617.203282) can0 020005FD#7E7880047FFF0122
(1789711617.203608) can1 0200FD06#0100000000000000
(1789711617.203717) can0 0200FD06#0100000000000000
(1789711617.203780) can1 020006FD#7FBC80077FFF0118
(1789711617.203892) can0 020006FD#802D80197FFF0122
(1789711617.204207) can1 0200FD07#0100000000000000
(1789711617.204305) can0 0200FD07#0100000000000000
(1789711617.204415) can1 020007FD#7FEE7FD27FFF0118
(1789711617.204486) can0 020007FD#7A9280027FFF0122
(1789711617.204746) can1 0200FD08#0100000000000000
(1789711617.204864) can0 0200FD08#0100000000000000
(1789711617.204866) can1 020008FD#80897FC77FFF010E
(1789711617.205036) can0 020008FD#7EC07FFE7FFF0118
(1789711617.257443) can1 0200FD01#0100000000000000
(1789711617.257507) can0 0200FD01#0100000000000000
(1789711617.257672) can1 020001FD#806E7F727FFF010E
(1789711617.257744) can0 020001FD#7FA17FE67FFF010E
(1789711617.257987) can1 0200FD02#0100000000000000
(1789711617.258066) can0 0200FD02#0100000000000000
(1789711617.258227) can1 020002FD#80037FD77FFF010E
(1789711617.258282) can0 020002FD#8001808E7FFF0118
(1789711617.258615) can1 0200FD03#0100000000000000
(1789711617.258653) can0 0200FD03#0100000000000000
(1789711617.258848) can1 020003FD#82B87F097FFF010E
(1789711617.258888) can0 020003FD#8001801F7FFF0118
(1789711617.259181) can1 0200FD04#0100000000000000
(1789711617.259240) can0 0200FD04#0100000000000000
(1789711617.259412) can0 020004FD#80017F217FFF0104
(1789711617.259444) can1 020004FD#7FFE7FBA7FFF010E
(1789711617.259749) can1 0200FD05#0100000000000000
(1789711617.259804) can0 0200FD05#0100000000000000
(1789711617.259921) can1 020005FD#90BE800B7FFF0118
(1789711617.259984) can0 020005FD#7E787FDC7FFF0122
(1789711617.260379) can1 0200FD06#0100000000000000
(1789711617.260430) can0 0200FD06#0100000000000000
(1789711617.260552) can1 020006FD#7FBC7FDC7FFF0118
(1789711617.260665) can0 020006FD#802D803B7FFF0122
(1789711617.260941) can1 0200FD07#0100000000000000
(1789711617.260987) can0 0200FD07#0100000000000000
(1789711617.261225) can0 020007FD#7A9280187FFF0122
(1789711617.261262) can1 020007FD#7FEE7FF77FFF0118
(1789711617.261559) can1 0200FD08#0100000000000000
(1789711617.261615) can0 0200FD08#0100000000000000
(1789711617.261699) can1 020008FD#8089803A7FFF010E
(1789711617.261747) can0 020008FD#7EC07FA77FFF0118
(1789711617.316253) can0 0200FD01#0100000000000000
(1789711617.316308) can1 0200FD01#0100000000000000
(1789711617.316423) can1 020001FD#806F80187FFF010E
(1789711617.316429) can0 020001FD#7FA17FA77FFF010E
(1789711617.316814) can0 0200FD02#0100000000000000
(1789711617.316874) can1 0200FD02#0100000000000000
(1789711617.317050) can1 020002FD#80047FEC7FFF010E
(1789711617.317137) can0 020002FD#800180417FFF0118
(1789711617.317438) can0 0200FD03#0100000000000000
(1789711617.317503) can1 0200FD03#0100000000000000
(1789711617.317679) can0 020003FD#80007F4B7FFF0118
(1789711617.317739) can1 020003FD#82B87FED7FFF010E
(1789711617.318004) can0 0200FD04#0100000000000000
(1789711617.318060) can1 0200FD04#0100000000000000
(1789711617.318227) can0 020004FD#800180507FFF0104
(1789711617.318282) can1 020004FD#7FFE7FEC7FFF010E
(1789711617.318613) can0 0200FD05#0100000000000000
(1789711617.318664) can1 0200FD05#0100000000000000
(1789711617.318849) can0 020005FD#7E787FE57FFF0122
(1789711617.318908) can1 020005FD#90BE7FD87FFF0118
(1789711617.319248) can0 0200FD06#0100000000000000
(1789711617.319249) can1 0200FD06#0100000000000000
(1789711617.319362) can0 020006FD#802D7FF17FFF0122
(1789711617.319422) can1 020006FD#7FBD80007FFF0118
(1789711617.319810) can0 0200FD07#0100000000000000
(1789711617.319843) can1 0200FD07#0100000000000000
(1789711617.319993) can0 020007FD#7A927FFD7FFF0122
(1789711617.320046) can1 020007FD#7FEE7FC47FFF0118
(1789711617.320380) can0 0200FD08#0100000000000000
(1789711617.320441) can1 0200FD08#0100000000000000
(1789711617.320504) can0 020008FD#7EC080477FFF0118
(1789711617.320559) can1 020008FD#80897FD37FFF010E
(1789711617.376317) can1 0200FD01#0100000000000000
(1789711617.376431) can0 0200FD01#0100000000000000
(1789711617.376491) can1 020001FD#806F805B7FFF010E
(1789711617.376675) can0 020001FD#7FA17F797FFF010E
(1789711617.376872) can1 0200FD02#0100000000000000
(1789711617.377006) can0 0200FD02#0100000000000000
(1789711617.377190) can1 020002FD#800380367FFF010E
(1789711617.377235) can0 020002FD#8001807E7FFF0118
(1789711617.377495) can1 0200FD03#0100000000000000
(1789711617.377609) can0 0200FD03#0100000000000000
(1789711617.377733) can1 020003FD#82B880197FFF010E
(1789711617.377854) can0 020003FD#80007FDA7FFF0118
(1789711617.378184) can1 0200FD04#0100000000000000
(1789711617.378215) can0 0200FD04#0100000000000000
(1789711617.378285) can1 020004FD#7FFE80947FFF010E
(1789711617.378372) can0 020004FD#80017FDC7FFF0104
(1789711617.378737) can1 0200FD05#0100000000000000
(1789711617.378767) can0 0200FD05#0100000000000000
(1789711617.378976) can1 020005FD#90BE80197FFF0118
(1789711617.379009) can0 020005FD#7E78800C7FFF0122
(1789711617.379314) can1 0200FD06#0100000000000000
(1789711617.379379) can0 0200FD06#0100000000000000
(1789711617.379491) can1 020006FD#7FBC80047FFF0118
(1789711617.379562) can0 020006FD#802D804A7FFF0122
(1789711617.379881) can1 0200FD07#0100000000000000
(1789711617.379976) can0 0200FD07#0100000000000000
(1789711617.380185) can1 020007FD#7FEE80297FFF0118
(1789711617.380240) can0 020007FD#7A927FDD7FFF0122
(1789711617.380498) can1 0200FD08#0100000000000000
(1789711617.380553) can0 0200FD08#0100000000000000
(1789711617.380642) can1 020008FD#80897FF77FFF010E
(1789711617.380686) can0 020008FD#7EC07FF97FFF0118
(1789711617.436675) can1 0200FD01#0100000000000000
(1789711617.436811) can0 0200FD01#0100000000000000
(1789711617.436913) can1 020001FD#806F80717FFF010E
(1789711617.437056) can0 020001FD#7FA180497FFF010E
(1789711617.437367) can1 0200FD02#0100000000000000
(1789711617.437398) can0 0200FD02#0100000000000000
(1789711617.437442) can1 020002FD#800380797FFF010E
(1789711617.437611) can0 020002FD#8001800C7FFF0118
(1789711617.437892) can1 0200FD03#0100000000000000
(1789711617.437956) can0 0200FD03#0100000000000000
(1789711617.438136) can1 020003FD#82B880577FFF010E
(1789711617.438236) can0 020003FD#80017FA97FFF0118
(1789711617.438501) can1 0200FD04#0100000000000000
(1789711617.438550) can0 0200FD04#0100000000000000
(1789711617.438748) can1 020004FD#7FFE7FE77FFF010E
(1789711617.438801) can0 020004FD#8001809C7FFF0104
(1789711617.439111) can0 0200FD05#0100000000000000
(1789711617.439183) can1 0200FD05#0100000000000000
(1789711617.439293) can1 020005FD#90BE7FDD7FFF0118
(1789711617.439353) can0 020005FD#7E787FC57FFF0122
(1789711617.439738) can0 0200FD06#0100000000000000
(1789711617.439771) can1 0200FD06#0100000000000000
(1789711617.439913) can0 020006FD#802D7FF27FFF0122
(1789711617.439947) can1 020006FD#7FBC7FDA7FFF0118
(1789711617.440332) can0 0200FD07#0100000000000000
(1789711617.440394) can1 0200FD07#0100000000000000
(1789711617.440510) can0 020007FD#7A9280167FFF0122
(1789711617.440566) can1 020007FD#7FEE80217FFF0118
(1789711617.440888) can0 0200FD08#0100000000000000
(1789711617.440936) can1 0200FD08#0100000000000000
(1789711617.441031) can0 020008FD#7EC080127FFF0118
(1789711617.441135) can1 020008FD#80897FE07FFF010E
(1789711617.500205) can1 0200FD01#0100000000000000
(1789711617.500273) can0 0200FD01#0100000000000000
(1789711617.500382) can1 020001FD#806F808E7FFF010E
(1789711617.500443) can0 020001FD#7FA17F9C7FFF010E
(1789711617.500766) can1 0200FD02#0100000000000000
(1789711617.500827) can0 0200FD02#0100000000000000
(1789711617.501008) can1 020002FD#80037F967FFF010E
(1789711617.501062) can0 020002FD#80017F5E7FFF0118
(1789711617.501385) can1 0200FD03#0100000000000000
(1789711617.501461) can0 0200FD03#0100000000000000
(1789711617.501561) can1 020003FD#82B880C57FFF010E
(1789711617.501693) can0 020003FD#800080127FFF0118
(1789711617.502012) can1 0200FD04#0100000000000000
(1789711617.502044) can0 0200FD04#0100000000000000
(1789711617.502238) can0 020004FD#80017FFC7FFF0104
(1789711617.502271) can1 020004FD#7FFE80097FFF010E
(1789711617.502624) can0 0200FD05#0100000000000000
(1789711617.502656) can1 0200FD05#0100000000000000
(1789711617.502872) can0 020005FD#7E7880187FFF0122
(1789711617.502905) can1 020005FD#90BE7FE07FFF0118
(1789711617.503199) can0 0200FD06#0100000000000000
(1789711617.503329) can1 0200FD06#0100000000000000
(1789711617.503375) can0 020006FD#802D7FD47FFF0122
(1789711617.503443) can1 020006FD#7FBC80077FFF0118
(1789711617.503763) can0 0200FD07#0100000000000000
(1789711617.503891) can1 0200FD07#0100000000000000
(1789711617.503998) can0 020007FD#7A927FE67FFF0122
(1789711617.504225) can1 020007FD#7FEE80237FFF0118
(1789711617.504385) can0 0200FD08#0100000000000000
(1789711617.504500) can0 020008FD#7EC080037FFF0118
(1789711617.504533) can1 0200FD08#0100000000000000
(1789711617.504644) can1 020008FD#80897FBA7FFF010E
(1789711617.558511) can1 0200FD01#0100000000000000
(1789711617.558604) can0 0200FD01#0100000000000000
(1789711617.558684) can1 020001FD#806E7FB57FFF010E
(1789711617.558717) can0 020001FD#7FA2808B7FFF010E
(1789711617.559309) can1 0200FD02#0100000000000000
(1789711617.559341) can1 020002FD#80037FFD7FFF010E
(1789711617.559374) can0 0200FD02#0100000000000000
(1789711617.559497) can0 020002FD#8001801A7FFF0118
(1789711617.560111) can1 0200FD03#0100000000000000
(1789711617.560182) can0 0200FD03#0100000000000000
(1789711617.560303) can1 020003FD#82B880017FFF010E
(1789711617.560307) can0 020003FD#800180D77FFF0118
(1789711617.560877) can1 0200FD04#0100000000000000
(1789711617.561057) can1 020004FD#7FFE808D7FFF010E
(1789711617.561091) can0 0200FD04#0100000000000000
(1789711617.561176) can0 020004FD#80017FD17FFF0104
(1789711617.561719) can1 0200FD05#0100000000000000
(1789711617.561721) can1 020005FD#90BE800A7FFF0118
(1789711617.561862) can0 0200FD05#0100000000000000
(1789711617.561991) can0 020005FD#7E787FF37FFF0122
(1789711617.562497) can1 0200FD06#0100000000000000
(1789711617.562613) can0 0200FD06#0100000000000000
(1789711617.562614) can1 020006FD#7FBC7FFC7FFF0118
(1789711617.562739) can0 020006FD#802D7FF87FFF0122
(1789711617.563306) can1 0200FD07#0100000000000000
(1789711617.563338) can1 020007FD#7FEE801F7FFF0118
(1789711617.563371) can0 0200FD07#0100000000000000
(1789711617.563556) can0 020007FD#7A9280007FFF0122
(1789711617.564118) can1 0200FD08#0100000000000000
(1789711617.564179) can0 0200FD08#0100000000000000
(1789711617.564210) can1 020008FD#80897FE67FFF010E
(1789711617.564299) can0 020008FD#7EC07FF77FFF0118
(1789711617.617394) can1 0200FD01#0100000000000000
(1789711617.617396) can0 0200FD01#0100000000000000
(1789711617.617565) can1 020001FD#806F80057FFF010E
(1789711617.617664) can0 020001FD#7FA17FA67FFF010E
(1789711617.617952) can0 0200FD02#0100000000000000
(1789711617.617984) can1 0200FD02#0100000000000000
(1789711617.618244) can0 020002FD#80017FFA7FFF0118
(1789711617.618277) can1 020002FD#8003801C7FFF010E
(1789711617.618637) can0 0200FD03#0100000000000000
(1789711617.618639) can1 0200FD03#0100000000000000
(1789711617.618759) can0 020003FD#8000806B7FFF0118
(1789711617.618813) can1 020003FD#82B880317FFF010E
(1789711617.619265) can0 0200FD04#0100000000000000
(1789711617.619267) can1 0200FD04#0100000000000000
(1789711617.619433) can0 020004FD#800180217FFF0104
(1789711617.619465) can1 020004FD#7FFE7FE17FFF010E
(1789711617.619886) can0 0200FD05#0100000000000000
(1789711617.619887) can1 0200FD05#0100000000000000
(1789711617.620056) can0 020005FD#7E787FF37FFF0122
(1789711617.620090) can1 020005FD#90BE800D7FFF0118
(1789711617.620520) can1 0200FD06#0100000000000000
(1789711617.620520) can0 0200FD06#0100000000000000
(1789711617.620759) can1 020006FD#7FBC7FB07FFF0118
(1789711617.620761) can0 020006FD#802D7FE57FFF0122
(1789711617.621078) can0 0200FD07#0100000000000000
(1789711617.621120) can1 0200FD07#0100000000000000
(1789711617.621299) can1 020007FD#7FEE7FC07FFF0118
(1789711617.621332) can0 020007FD#7A927FF47FFF0122
(1789711617.621748) can1 0200FD08#0100000000000000
(1789711617.621867) can0 0200FD08#0100000000000000
(1789711617.621931) can1 020008FD#808980537FFF010E
(1789711617.621967) can0 020008FD#7EC080247FFF0118
(1789711617.680840) can1 0200FD01#0100000000000000
(1789711617.680895) can0 0200FD01#0100000000000000
(1789711617.680848) can1 020001FD#806F80077FFF010E
(1789711617.681064) can0 020001FD#7FA1801E7FFF010E
(1789711617.681568) can1 0200FD02#0100000000000000
(1789711617.681721) can0 0200FD02#0100000000000000
(1789711617.681754) can0 020002FD#80017F937FFF0118
(1789711617.681811) can1 020002FD#800380487FFF010E
(1789711617.682375) can1 0200FD03#0100000000000000
(1789711617.682493) can0 0200FD03#0100000000000000
(1789711617.682588) can1 020003FD#82B8802E7FFF010E
(1789711617.682621) can0 020003FD#800180327FFF0118
(1789711617.683192) can1 0200FD04#0100000000000000
(1789711617.683246) can0 0200FD04#0100000000000000
(1789711617.683312) can1 020004FD#7FFE7FF87FFF010E
(1789711617.683373) can0 020004FD#80017FF67FFF0104
(1789711617.683871) can1 0200FD05#0100000000000000
(1789711617.683918) can0 0200FD05#0100000000000000
(1789711617.684147) can1 020005FD#90BE80077FFF0118
(1789711617.684157) can0 020005FD#7E78802C7FFF0122
(1789711617.684459) can1 0200FD06#0100000000000000
(1789711617.684517) can0 0200FD06#0100000000000000
(1789711617.684695) can1 020006FD#7FBC800C7FFF0118
(1789711617.684764) can0 020006FD#802D7FE77FFF0122
(1789711617.685026) can1 0200FD07#0100000000000000
(1789711617.685076) can0 0200FD07#0100000000000000
(1789711617.685250) can1 020007FD#7FEE80237FFF0118
(1789711617.685307) can0 020007FD#7A9280177FFF0122
(1789711617.685629) can1 0200FD08#0100000000000000
(1789711617.685735) can0 0200FD08#0100000000000000
(1789711617.685776) can1 020008FD#808980037FFF010E
(1789711617.685841) can0 020008FD#7EC07FE57FFF0118
(1789711617.739759) can1 0200FD01#0100000000000000
(1789711617.739876) can1 020001FD#806F80777FFF010E
(1789711617.739879) can0 0200FD01#0100000000000000
(1789711617.740000) can0 020001FD#7FA17FAD7FFF010E
(1789711617.740697) can1 0200FD02#0100000000000000
(1789711617.740722) can1 020002FD#80037FD07FFF010E
(1789711617.740726) can0 0200FD02#0100000000000000
(1789711617.740754) can0 020002FD#8001802B7FFF0118
(1789711617.741513) can1 0200FD03#0100000000000000
(1789711617.741514) can0 0200FD03#0100000000000000
(1789711617.741607) can1 020003FD#82B87FD47FFF010E
(1789711617.741687) can0 020003FD#800080047FFF0118
(1789711617.742262) can1 0200FD04#0100000000000000
(1789711617.742263) can0 0200FD04#0100000000000000
(1789711617.742379) can1 020004FD#7FFE7FBB7FFF010E
(1789711617.742441) can0 020004FD#800280B97FFF0104
(1789711617.743106) can1 0200FD05#0100000000000000
(1789711617.743136) can0 0200FD05#0100000000000000
(1789711617.743190) can1 020005FD#90BE7FF17FFF0118
(1789711617.743261) can0 020005FD#7E7880307FFF0122
(1789711617.743884) can1 0200FD06#0100000000000000
(1789711617.743887) can0 0200FD06#0100000000000000
(1789711617.743990) can1 020006FD#7FBD80007FFF0118
(1789711617.744021) can0 020006FD#802D80077FFF0122
(1789711617.744765) can1 0200FD07#0100000000000000
(1789711617.744792) can0 0200FD07#0100000000000000
(1789711617.744777) can1 020007FD#7FEE80207FFF0118
(1789711617.744797) can0 020007FD#7A92802C7FFF0122
(1789711617.745504) can1 0200FD08#0100000000000000
(1789711617.745507) can0 0200FD08#0100000000000000
(1789711617.745578) can0 020008FD#7EC07FFC7FFF0118
(1789711617.745586) can1 020008FD#8089801E7FFF010E
(1789711617.803391) can1 0200FD01#0100000000000000
(1789711617.803393) can0 0200FD01#0100000000000000
(1789711617.803507) can1 020001FD#806F80287FFF010E
(1789711617.803572) can0 020001FD#7FA27FE67FFF010E
(1789711617.804121) can1 0200FD02#0100000000000000
(1789711617.804205) can0 0200FD02#0100000000000000
(1789711617.804258) can1 020002FD#80037F807FFF010E
(1789711617.804316) can0 020002FD#800180527FFF0118
(1789711617.804884) can1 0200FD03#0100000000000000
(1789711617.804992) can0 0200FD03#0100000000000000
(1789711617.805064) can1 020003FD#82B8802C7FFF010E
(1789711617.805190) can0 020003FD#800180047FFF0118
(1789711617.805733) can1 0200FD04#0100000000000000
(1789711617.805734) can1 020004FD#7FFE7FF97FFF010E
(1789711617.805763) can0 0200FD04#0100000000000000
(1789711617.805881) can0 020004FD#80017FF57FFF0104
(1789711617.806505) can1 0200FD05#0100000000000000
(1789711617.806617) can0 0200FD05#0100000000000000
(1789711617.806689) can1 020005FD#90BE80087FFF0118
(1789711617.806733) can0 020005FD#7E7880167FFF0122
(1789711617.807317) can1 0200FD06#0100000000000000
(1789711617.807377) can0 0200FD06#0100000000000000
(1789711617.807439) can1 020006FD#7FBD803B7FFF0118
(1789711617.807503) can0 020006FD#802D80127FFF0122
(1789711617.808077) can1 0200FD07#0100000000000000
(1789711617.808197) can0 0200FD07#0100000000000000
(1789711617.808229) can1 020007FD#7FEE80517FFF0118
(1789711617.808320) can0 020007FD#7A92800D7FFF0122
(1789711617.808889) can1 0200FD08#0100000000000000
(1789711617.808962) can1 020008FD#80897FDE7FFF010E
(1789711617.808994) can0 0200FD08#0100000000000000
(1789711617.809079) can0 020008FD#7EC07FCB7FFF0118
(1789711617.863133) can1 0200FD01#0100000000000000
(1789711617.863196) can0 0200FD01#0100000000000000
(1789711617.863258) can1 020001FD#806E80327FFF010E
(1789711617.863317) can0 020001FD#7FA180127FFF010E
(1789711617.863880) can1 0200FD02#0100000000000000
(1789711617.863948) can0 0200FD02#0100000000000000
(1789711617.864007) can1 020002FD#800380357FFF010E
(1789711617.864082) can0 020002FD#80017FF27FFF0118
(1789711617.864762) can1 0200FD03#0100000000000000
(1789711617.864766) can1 020003FD#82B880087FFF010E
(1789711617.864820) can0 0200FD03#0100000000000000
(1789711617.864878) can0 020003FD#80007FF37FFF0118
(1789711617.865507) can1 0200FD04#0100000000000000
(1789711617.865608) can1 020004FD#7FFE80587FFF010E
(1789711617.865641) can0 0200FD04#0100000000000000
(1789711617.865736) can0 020004FD#80017FF57FFF0104
(1789711617.866319) can1 0200FD05#0100000000000000
(1789711617.866386) can0 0200FD05#0100000000000000
(1789711617.866449) can1 020005FD#90BE802B7FFF0118
(1789711617.866599) can0 020005FD#7E78801D7FFF0122
(1789711617.867080) can1 0200FD06#0100000000000000
(1789711617.867207) can0 0200FD06#0100000000000000
(1789711617.867209) can1 020006FD#7FBC7FC37FFF0118
(1789711617.867329) can0 020006FD#802D80167FFF0122
(1789711617.867887) can1 0200FD07#0100000000000000
(1789711617.867990) can1 020007FD#7FEE80187FFF0118
(1789711617.868022) can0 0200FD07#0100000000000000
(1789711617.868240) can0 020007FD#7A927FEE7FFF0122
(1789711617.868634) can1 0200FD08#0100000000000000
(1789711617.868712) can1 020008FD#8089800C7FFF010E
(1789711617.868754) can0 0200FD08#0100000000000000
(1789711617.868831) can0 020008FD#7EC080037FFF0118
(1789711617.924016) can1 0200FD01#0100000000000000
(1789711617.924077) can0 0200FD01#0100000000000000
(1789711617.924201) can1 020001FD#806F7FD07FFF010E
(1789711617.924233) can0 020001FD#7FA17FE67FFF010E
(1789711617.924825) can1 0200FD02#0100000000000000
(1789711617.924827) can0 0200FD02#0100000000000000
(1789711617.924948) can1 020002FD#80037FD77FFF010E
(1789711617.924953) can0 020002FD#800180767FFF0118
(1789711617.925638) can1 0200FD03#0100000000000000
(1789711617.925640) can0 0200FD03#0100000000000000
(1789711617.925743) can1 020003FD#82B87FD27FFF010E
(1789711617.925777) can0 020003FD#80017F947FFF0118
(1789711617.926394) can1 0200FD04#0100000000000000
(1789711617.926396) can0 0200FD04#0100000000000000
(1789711617.926512) can1 020004FD#7FFE7FEC7FFF010E
(1789711617.926602) can0 020004FD#8001804C7FFF0104
(1789711617.927204) can1 0200FD05#0100000000000000
(1789711617.927205) can0 0200FD05#0100000000000000
(1789711617.927321) can1 020005FD#90BE7FC17FFF0118
(1789711617.927324) can0 020005FD#7E7880197FFF0122
(1789711617.927967) can0 0200FD06#0100000000000000
(1789711617.928004) can1 0200FD06#0100000000000000
(1789711617.928078) can0 020006FD#802D7FBC7FFF0122
(1789711617.928219) can1 020006FD#7FBC800E7FFF0118
(1789711617.928826) can0 0200FD07#0100000000000000
(1789711617.928859) can0 020007FD#7A927FCB7FFF0122
(1789711617.928863) can1 0200FD07#0100000000000000
(1789711617.928892) can1 020007FD#7FEE7FFE7FFF0118
(1789711617.929639) can1 0200FD08#0100000000000000
(1789711617.929642) can0 0200FD08#0100000000000000
(1789711617.929713) can1 020008FD#8089801C7FFF010E
(1789711617.929717) can0 020008FD#7EC0800D7FFF0118
(1789711617.981405) can1 0200FD01#0100000000000000
(1789711617.981584) can1 020001FD#806F802E7FFF010E
(1789711617.981589) can0 0200FD01#0100000000000000
(1789711617.981719) can0 020001FD#7FA17FA97FFF010E
(1789711617.982208) can1 0200FD02#0100000000000000
(1789711617.982330) can1 020002FD#80047FF57FFF010E
(1789711617.982386) can0 0200FD02#0100000000000000
(1789711617.982498) can0 020002FD#80007FB47FFF0118
(1789711617.982953) can1 0200FD03#0100000000000000
(1789711617.983077) can0 0200FD03#0100000000000000
(1789711617.983078) can1 020003FD#82B8800C7FFF010E
(1789711617.983327) can0 020003FD#80007F957FFF0118
(1789711617.983692) can1 0200FD04#0100000000000000
(1789711617.983750) can0 0200FD04#0100000000000000
(1789711617.983873) can1 020004FD#7FFE80017FFF010E
(1789711617.983988) can0 020004FD#80017FF27FFF0104
(1789711617.984286) can1 0200FD05#0100000000000000
(1789711617.984345) can0 0200FD05#0100000000000000
(1789711617.984521) can0 020005FD#7E7880237FFF0122
(1789711617.984554) can1 020005FD#90BE80097FFF0118
(1789711617.984893) can1 0200FD06#0100000000000000
(1789711617.984925) can0 0200FD06#0100000000000000
(1789711617.985077) can1 020006FD#7FBD801D7FFF0118
(1789711617.985224) can0 020006FD#802D7FF67FFF0122
(1789711617.985481) can1 0200FD07#0100000000000000
(1789711617.985530) can0 0200FD07#0100000000000000
(1789711617.985720) can1 020007FD#7FEE7FFE7FFF0118
(1789711617.985776) can0 020007FD#7A927FDA7FFF0122
(1789711617.986034) can1 0200FD08#0100000000000000
(1789711617.986114) can0 0200FD08#0100000000000000
(1789711617.986218) can1 020008FD#808980137FFF010E
(1789711617.986252) can0 020008FD#7EC07FF07FFF0118
(1789711618.040288) can1 0200FD01#0100000000000000
(1789711618.040333) can0 0200FD01#0100000000000000
(1789711618.040369) can0 020001FD#7FA180007FFF010E
(1789711618.040461) can1 020001FD#806E80317FFF010E
(1789711618.041085) can1 0200FD02#0100000000000000
(1789711618.041145) can0 0200FD02#0100000000000000
(1789711618.041225) can1 020002FD#80037FDE7FFF010E
(1789711618.041270) can0 020002FD#800180707FFF0118
(1789711618.041896) can1 0200FD03#0100000000000000
(1789711618.041898) can0 0200FD03#0100000000000000
(1789711618.042002) can1 020003FD#82B880207FFF010E
(1789711618.042035) can0 020003FD#800180507FFF0118
(1789711618.042740) can0 0200FD04#0100000000000000
(1789711618.042772) can0 020004FD#80017FCF7FFF0104
(1789711618.042778) can1 0200FD04#0100000000000000
(1789711618.042781) can1 020004FD#7FFE7FC97FFF010E
(1789711618.043526) can0 0200FD05#0100000000000000
(1789711618.043529) can1 0200FD05#0100000000000000
(1789711618.043625) can0 020005FD#7E787FF27FFF0122
(1789711618.043659) can1 020005FD#90BE7FF37FFF0118
(1789711618.044269) can1 0200FD06#0100000000000000
(1789711618.044339) can0 0200FD06#0100000000000000
(1789711618.044373) can0 020006FD#802D7FB07FFF0122
(1789711618.044381) can1 020006FD#7FBD80277FFF0118
(1789711618.045027) can1 0200FD07#0100000000000000
(1789711618.045090) can0 0200FD07#0100000000000000
(1789711618.045211) can1 020007FD#7FEE80047FFF0118
(1789711618.045240) can0 020007FD#7A92800C7FFF0122
(1789711618.045779) can1 0200FD08#0100000000000000
(1789711618.045850) can1 020008FD#80897FFC7FFF010E
(1789711618.045884) can0 0200FD08#0100000000000000
(1789711618.045972) can0 020008FD#7EC07FBC7FFF0118
(1789711618.101292) can1 0200FD01#0100000000000000
(1789711618.101397) can0 0200FD01#0100000000000000
(1789711618.101400) can1 020001FD#806F7F7D7FFF010E
(1789711618.101522) can0 020001FD#7FA180307FFF010E
(1789711618.102022) can1 0200FD02#0100000000000000
(1789711618.102211) can1 020002FD#80037FD77FFF010E
(1789711618.102243) can0 0200FD02#0100000000000000
(1789711618.102335) can0 020002FD#800180987FFF0118
(1789711618.102774) can1 0200FD03#0100000000000000
(1789711618.102967) can1 020003FD#82B87F5A7FFF010E
(1789711618.102972) can0 0200FD03#0100000000000000
(1789711618.103086) can0 020003FD#80017FF77FFF0118
(1789711618.103648) can1 0200FD04#0100000000000000
(1789711618.103750) can1 020004FD#7FFE7FF17FFF010E
(1789711618.103783) can0 0200FD04#0100000000000000
(1789711618.103958) can0 020004FD#80017FD97FFF0104
(1789711618.104398) can1 0200FD05#0100000000000000
(1789711618.104585) can1 020005FD#90BE7FFB7FFF0118
(1789711618.104747) can0 0200FD05#0100000000000000
(1789711618.104748) can0 020005FD#7E787FF37FFF0122
(1789711618.105219) can1 0200FD06#0100000000000000
(1789711618.105340) can1 020006FD#7FBD80467FFF0118
(1789711618.105464) can0 0200FD06#0100000000000000
(1789711618.105598) can0 020006FD#802D7FF57FFF0122
(1789711618.105968) can1 0200FD07#0100000000000000
(1789711618.106083) can1 020007FD#7FEE7FE27FFF0118
(1789711618.106216) can0 0200FD07#0100000000000000
(1789711618.106351) can0 020007FD#7A927FF57FFF0122
(1789711618.106834) can1 0200FD08#0100000000000000
(1789711618.106866) can1 020008FD#808980027FFF010E
(1789711618.107014) can0 0200FD08#0100000000000000
(1789711618.107098) can0 020008FD#7EC07FCC7FFF0118
(1789711618.160536) can1 0200FD01#0100000000000000
(1789711618.160539) can0 0200FD01#0100000000000000
(1789711618.160596) can1 020001FD#806F80447FFF010E
(1789711618.160713) can0 020001FD#7FA17FD07FFF010E
(1789711618.161344) can1 0200FD02#0100000000000000
(1789711618.161345) can0 0200FD02#0100000000000000
(1789711618.161373) can1 020002FD#80037FA07FFF010E
(1789711618.161378) can0 020002FD#80007FD07FFF0118
(1789711618.162096) can0 0200FD03#0100000000000000
(1789711618.162148) can1 0200FD03#0100000000000000
(1789711618.162228) can0 020003FD#80017FF37FFF0118
(1789711618.162337) can1 020003FD#82B880867FFF010E
(1789711618.162903) can0 0200FD04#0100000000000000
(1789711618.162905) can1 0200FD04#0100000000000000
(1789711618.163004) can0 020004FD#80017FA67FFF0104
(1789711618.163036) can1 020004FD#7FFE7F757FFF010E
(1789711618.163713) can1 0200FD05#0100000000000000
(1789711618.163747) can1 020005FD#90BE7FF07FFF0118
(1789711618.163751) can0 0200FD05#0100000000000000
(1789711618.163782) can0 020005FD#7E7880107FFF0122
(1789711618.164529) can1 0200FD06#0100000000000000
(1789711618.164531) can0 0200FD06#0100000000000000
(1789711618.164654) can1 020006FD#7FBD80317FFF0118
(1789711618.164713) can0 020006FD#802D80017FFF0122
(1789711618.165342) can1 0200FD07#0100000000000000
(1789711618.165344) can0 0200FD07#0100000000000000
(1789711618.165373) can0 020007FD#7A927FEE7FFF0122
(1789711618.165462) can1 020007FD#7FEE7FF07FFF0118
(1789711618.166098) can1 0200FD08#0100000000000000
(1789711618.166142) can0 0200FD08#0100000000000000
(1789711618.166212) can1 020008FD#80897FFC7FFF010E
(1789711618.166245) can0 020008FD#7EC07FFE7FFF0118
(1789711618.233016) can1 0200FD01#0100000000000000
(1789711618.233033) can0 0200FD01#0100000000000000
(1789711618.233021) can1 020001FD#806F80467FFF010E
(1789711618.233036) can0 020001FD#7FA17FE87FFF010E
(1789711618.233788) can0 0200FD02#0100000000000000
(1789711618.233789) can1 0200FD02#0100000000000000
(1789711618.233966) can0 020002FD#80017F627FFF0118
(1789711618.233969) can1 020002FD#8003805E7FFF010E
(1789711618.234533) can0 0200FD03#0100000000000000
(1789711618.234665) can1 0200FD03#0100000000000000
(1789711618.234714) can0 020003FD#80007F9A7FFF0118
(1789711618.234755) can1 020003FD#82B87FD27FFF010E
(1789711618.235344) can0 0200FD04#0100000000000000
(1789711618.235376) can0 020004FD#800180697FFF0104
(1789711618.235410) can1 0200FD04#0100000000000000
(1789711618.235591) can1 020004FD#7FFE7F7B7FFF010E
(1789711618.236156) can0 0200FD05#0100000000000000
(1789711618.236220) can1 0200FD05#0100000000000000
(1789711618.236279) can0 020005FD#7E78802C7FFF0122
(1789711618.236343) can1 020005FD#90BE80147FFF0118
(1789711618.236909) can0 0200FD06#0100000000000000
(1789711618.237029) can1 0200FD06#0100000000000000
(1789711618.237030) can0 020006FD#802D7FEC7FFF0122
(1789711618.237225) can1 020006FD#7FBC7FFD7FFF0118
(1789711618.237758) can0 0200FD07#0100000000000000
(1789711618.237760) can0 020007FD#7A92800C7FFF0122
(1789711618.237906) can1 0200FD07#0100000000000000
(1789711618.238029) can1 020007FD#7FEE7FD47FFF0118
(1789711618.238529) can0 0200FD08#0100000000000000
(1789711618.238630) can0 020008FD#7EC0803E7FFF0118
(1789711618.238658) can1 0200FD08#0100000000000000
(1789711618.238730) can1 020008FD#80897FF17FFF010E
(1789711618.289551) can0 0200FD01#0100000000000000
(1789711618.289555) can1 0200FD01#0100000000000000
(1789711618.289650) can0 020001FD#7FA17FAE7FFF010E
(1789711618.289680) can1 020001FD#806F7FF47FFF010E
(1789711618.290297) can0 0200FD02#0100000000000000
(1789711618.290299) can1 0200FD02#0100000000000000
(1789711618.290411) can0 020002FD#80017FF77FFF0118
(1789711618.290470) can1 020002FD#80037F997FFF010E
(1789711618.291040) can0 0200FD03#0100000000000000
(1789711618.291042) can1 0200FD03#0100000000000000
(1789711618.291221) can0 020003FD#800180337FFF0118
(1789711618.291252) can1 020003FD#82B87F5C7FFF010E
(1789711618.291788) can0 0200FD04#0100000000000000
(1789711618.291900) can1 0200FD04#0100000000000000
(1789711618.291975) can0 020004FD#800180B17FFF0104
(1789711618.292013) can1 020004FD#7FFE80157FFF010E
(1789711618.292652) can0 0200FD05#0100000000000000
(1789711618.292683) can1 0200FD05#0100000000000000
(1789711618.292756) can0 020005FD#7E7880067FFF0122
(1789711618.292844) can1 020005FD#90BE80117FFF0118
(1789711618.293419) can0 0200FD06#0100000000000000
(1789711618.293526) can1 0200FD06#0100000000000000
(1789711618.293557) can1 020006FD#7FBC7FF47FFF0118
(1789711618.293595) can0 020006FD#802D80507FFF0122
(1789711618.294283) can0 0200FD07#0100000000000000
(1789711618.294346) can1 0200FD07#0100000000000000
(1789711618.294349) can0 020007FD#7A9280087FFF0122
(1789711618.294469) can1 020007FD#7FED80127FFF0118
(1789711618.295029) can0 0200FD08#0100000000000000
(1789711618.295122) can1 0200FD08#0100000000000000
(1789711618.295228) can1 020008FD#808980357FFF010E
(1789711618.295247) can0 020008FD#7EC07FFF7FFF0118
(1789711618.346803) can1 0200FD01#0100000000000000
(1789711618.346913) can0 0200FD01#0100000000000000
(1789711618.347018) can1 020001FD#806E7F917FFF010E
(1789711618.347061) can0 020001FD#7FA180627FFF010E
(1789711618.347670) can1 0200FD02#0100000000000000
(1789711618.347672) can0 0200FD02#0100000000000000
(1789711618.347762) can1 020002FD#8004808C7FFF010E
(1789711618.347848) can0 020002FD#80007F8C7FFF0118
(1789711618.348416) can1 0200FD03#0100000000000000
(1789711618.348417) can0 0200FD03#0100000000000000
(1789711618.348598) can1 020003FD#82B880687FFF010E
(1789711618.348601) can0 020003FD#80007FE17FFF0118
(1789711618.349233) can1 0200FD04#0100000000000000
(1789711618.349235) can0 0200FD04#0100000000000000
(1789711618.349352) can1 020004FD#7FFE7F377FFF010E
(1789711618.349383) can0 020004FD#800180ED7FFF0104
(1789711618.349981) can0 0200FD05#0100000000000000
(1789711618.350022) can1 0200FD05#0100000000000000
(1789711618.350097) can0 020005FD#7E78800F7FFF0122
(1789711618.350222) can1 020005FD#90BE7FF07FFF0118
(1789711618.350647) can1 0200FD06#0100000000000000
(1789711618.350683) can0 0200FD06#0100000000000000
(1789711618.350881) can1 020006FD#7FBD80257FFF0118
(1789711618.350912) can0 020006FD#802D800A7FFF0122
(1789711618.351305) can1 0200FD07#0100000000000000
(1789711618.351306) can0 0200FD07#0100000000000000
(1789711618.351407) can0 020007FD#7A927FA57FFF0122
(1789711618.351440) can1 020007FD#7FEE7FF17FFF0118
(1789711618.351902) can0 0200FD08#0100000000000000
(1789711618.351935) can1 0200FD08#0100000000000000
(1789711618.351991) can0 020008FD#7EC07FFF7FFF0118
(1789711618.352024) can1 020008FD#80897FEA7FFF010E
(1789711618.408916) can1 0200FD01#0100000000000000
(1789711618.408929) can0 0200FD01#0100000000000000
(1789711618.408924) can1 020001FD#806F80707FFF010E
(1789711618.409043) can0 020001FD#7FA17FBA7FFF010E
(1789711618.409605) can1 0200FD02#0100000000000000
(1789711618.409757) can0 0200FD02#0100000000000000
(1789711618.409794) can0 020002FD#80007FC27FFF0118
(1789711618.409852) can1 020002FD#80037FCD7FFF010E
(1789711618.410435) can1 0200FD03#0100000000000000
(1789711618.410534) can0 0200FD03#0100000000000000
(1789711618.410651) can1 020003FD#82B8800E7FFF010E
(1789711618.410690) can0 020003FD#8001801C7FFF0118
(1789711618.411243) can1 0200FD04#0100000000000000
(1789711618.411287) can0 0200FD04#0100000000000000
(1789711618.411355) can1 020004FD#7FFE80287FFF010E
(1789711618.411389) can0 020004FD#800180397FFF0104
(1789711618.412046) can1 0200FD05#0100000000000000
(1789711618.412048) can0 0200FD05#0100000000000000
(1789711618.412225) can1 020005FD#90BE7FF57FFF0118
(1789711618.412230) can0 020005FD#7E7880457FFF0122
(1789711618.412796) can1 0200FD06#0100000000000000
(1789711618.412890) can0 0200FD06#0100000000000000
(1789711618.412922) can0 020006FD#802D80207FFF0122
(1789711618.412979) can1 020006FD#7FBC800B7FFF0118
(1789711618.413543) can1 0200FD07#0100000000000000
(1789711618.413648) can1 020007FD#7FEE80277FFF0118
(1789711618.413680) can0 0200FD07#0100000000000000
(1789711618.413764) can0 020007FD#7A927FF37FFF0122
(1789711618.414349) can1 0200FD08#0100000000000000
(1789711618.414381) can1 020008FD#808980057FFF010E
(1789711618.414414) can0 0200FD08#0100000000000000
(1789711618.414487) can0 020008FD#7EC07FE87FFF0118
(1789711618.471173) can1 0200FD01#0100000000000000
(1789711618.471236) can0 0200FD01#0100000000000000
(1789711618.471297) can1 020001FD#806F80187FFF010E
(1789711618.471355) can0 020001FD#7FA180657FFF010E
(1789711618.471920) can1 0200FD02#0100000000000000
(1789711618.472026) can1 020002FD#80037F787FFF010E
(1789711618.472062) can0 0200FD02#0100000000000000
(1789711618.472235) can0 020002FD#8001800C7FFF0118
(1789711618.472759) can1 0200FD03#0100000000000000
(1789711618.472791) can1 020003FD#82B880037FFF010E
(1789711618.472894) can0 0200FD03#0100000000000000
(1789711618.472895) can0 020003FD#800080277FFF0118
(1789711618.473540) can1 0200FD04#0100000000000000
(1789711618.473647) can1 020004FD#7FFE80B97FFF010E
(1789711618.473678) can0 0200FD04#0100000000000000
(1789711618.473771) can0 020004FD#800180257FFF0104
(1789711618.474308) can1 0200FD05#0100000000000000
(1789711618.474423) can0 0200FD05#0100000000000000
(1789711618.474426) can1 020005FD#90BE7FD27FFF0118
(1789711618.474682) can0 020005FD#7E78800D7FFF0122
(1789711618.475109) can1 0200FD06#0100000000000000
(1789711618.475236) can0 0200FD06#0100000000000000
(1789711618.475267) can1 020006FD#7FBD802C7FFF0118
(1789711618.475355) can0 020006FD#802D80377FFF0122
(1789711618.475921) can1 0200FD07#0100000000000000
(1789711618.476027) can1 020007FD#7FEE80007FFF0118
(1789711618.476058) can0 0200FD07#0100000000000000
(1789711618.476234) can0 020007FD#7A927FE97FFF0122
(1789711618.476796) can1 0200FD08#0100000000000000
(1789711618.476804) can0 0200FD08#0100000000000000
(1789711618.476799) can1 020008FD#808980017FFF010E
(1789711618.476867) can0 020008FD#7EC080467FFF0118
(1789711618.528933) can1 0200FD01#0100000000000000
(1789711618.528943) can0 0200FD01#0100000000000000
(1789711618.528937) can1 020001FD#806F7FFC7FFF010E
(1789711618.529109) can0 020001FD#7FA17FA77FFF010E
(1789711618.529737) can1 0200FD02#0100000000000000
(1789711618.529769) can1 020002FD#8004801D7FFF010E
(1789711618.529773) can0 0200FD02#0100000000000000
(1789711618.529802) can0 020002FD#800180397FFF0118
(1789711618.530492) can1 0200FD03#0100000000000000
(1789711618.530537) can0 0200FD03#0100000000000000
(1789711618.530651) can1 020003FD#82B87F417FFF010E
(1789711618.530672) can0 020003FD#8000801F7FFF0118
(1789711618.531307) can0 0200FD04#0100000000000000
(1789711618.531359) can1 0200FD04#0100000000000000
(1789711618.531391) can1 020004FD#7FFE7FB47FFF010E
(1789711618.531481) can0 020004FD#8001800F7FFF0104
(1789711618.532051) can0 0200FD05#0100000000000000
(1789711618.532164) can1 0200FD05#0100000000000000
(1789711618.532241) can0 020005FD#7E787FFB7FFF0122
(1789711618.532296) can1 020005FD#90BE7FC17FFF0118
(1789711618.532929) can1 0200FD06#0100000000000000
(1789711618.532930) can0 0200FD06#0100000000000000
(1789711618.533108) can1 020006FD#7FBD80107FFF0118
(1789711618.533112) can0 020006FD#802D7FEE7FFF0122
(1789711618.533738) can1 0200FD07#0100000000000000
(1789711618.533740) can0 0200FD07#0100000000000000
(1789711618.533768) can1 020007FD#7FEE80487FFF0118
(1789711618.533862) can0 020007FD#7A92802C7FFF0122
(1789711618.534551) can1 0200FD08#0100000000000000
(1789711618.534553) can0 0200FD08#0100000000000000
(1789711618.534655) can0 020008FD#7EC07FE27FFF0118
(1789711618.534662) can1 020008FD#80897FFB7FFF010E
(1789711618.584075) can1 0200FD01#0100000000000000
(1789711618.584162) can0 0200FD01#0100000000000000
(1789711618.584302) can1 020001FD#806F7FC27FFF010E
(1789711618.584355) can0 020001FD#7FA17FB87FFF010E
(1789711618.584678) can1 0200FD02#0100000000000000
(1789711618.584730) can0 0200FD02#0100000000000000
(1789711618.584917) can1 020002FD#800380487FFF010E
(1789711618.584966) can0 020002FD#80017FA07FFF0118
(1789711618.585316) can0 0200FD03#0100000000000000
(1789711618.585317) can1 0200FD03#0100000000000000
(1789711618.585420) can1 020003FD#82B87FCE7FFF010E
(1789711618.585485) can0 020003FD#80007F4D7FFF0118
(1789711618.585888) can0 0200FD04#0100000000000000
(1789711618.585920) can1 0200FD04#0100000000000000
(1789711618.586080) can1 020004FD#7FFE807E7FFF010E
(1789711618.586121) can0 020004FD#80017FB47FFF0104
(1789711618.586512) can0 0200FD05#0100000000000000
(1789711618.586514) can1 0200FD05#0100000000000000
(1789711618.586687) can0 020005FD#7E7880117FFF0122
(1789711618.586754) can1 020005FD#90BE800E7FFF0118
(1789711618.587067) can1 0200FD06#0100000000000000
(1789711618.587099) can0 0200FD06#0100000000000000
(1789711618.587296) can1 020006FD#7FBC7FDE7FFF0118
(1789711618.587329) can0 020006FD#802D80007FFF0122
(1789711618.587672) can0 0200FD07#0100000000000000
(1789711618.587706) can1 0200FD07#0100000000000000
(1789711618.587912) can0 020007FD#7A9280047FFF0122
(1789711618.587945) can1 020007FD#7FED7FD07FFF0118
(1789711618.588360) can1 0200FD08#0100000000000000
(1789711618.588361) can0 0200FD08#0100000000000000
(1789711618.588486) can0 020008FD#7EC07FDF7FFF0118
(1789711618.588488) can1 020008FD#80897FFB7FFF010E
(1789711618.641691) can1 0200FD01#0100000000000000
(1789711618.641738) can0 0200FD01#0100000000000000
(1789711618.641775) can0 020001FD#7FA17FA57FFF010E
(1789711618.641806) can1 020001FD#806F7FD77FFF010E
(1789711618.642442) can1 0200FD02#0100000000000000
(1789711618.642547) can0 0200FD02#0100000000000000
(1789711618.642646) can1 020002FD#800380257FFF010E
(1789711618.642681) can0 020002FD#800180307FFF0118
(1789711618.643281) can1 0200FD03#0100000000000000
(1789711618.643314) can0 0200FD03#0100000000000000
(1789711618.643377) can1 020003FD#82B880817FFF010E
(1789711618.643435) can0 020003FD#800180CF7FFF0118
(1789711618.644066) can1 0200FD04#0100000000000000
(1789711618.644115) can0 0200FD04#0100000000000000
(1789711618.644253) can1 020004FD#7FFE800C7FFF010E
(1789711618.644278) can0 020004FD#8001804E7FFF0104
(1789711618.644830) can1 0200FD05#0100000000000000
(1789711618.644921) can0 0200FD05#0100000000000000
(1789711618.644996) can1 020005FD#90BE7FBB7FFF0118
(1789711618.645036) can0 020005FD#7E787FD57FFF0122
(1789711618.645760) can1 020006FD#7FBD7FFD7FFF0118
(1789711618.645783) can0 0200FD06#0100000000000000
(1789711618.645778) can1 0200FD06#0100000000000000
(1789711618.645786) can0 020006FD#802D800C7FFF0122
(1789711618.646562) can0 0200FD07#0100000000000000
(1789711618.646565) can1 0200FD07#0100000000000000
(1789711618.646684) can0 020007FD#7A927FD07FFF0122
(1789711618.646739) can1 020007FD#7FEE80147FFF0118
(1789711618.647372) can0 0200FD08#0100000000000000
(1789711618.647374) can1 0200FD08#0100000000000000
(1789711618.647400) can1 020008FD#808980057FFF010E
(1789711618.647408) can0 020008FD#7EC080267FFF0118
(1789711618.714828) can1 0200FD01#0100000000000000
(1789711618.714911) can0 0200FD01#0100000000000000
(1789711618.714916) can0 020001FD#7FA180117FFF010E
(1789711618.714998) can1 020001FD#806F7FFF7FFF010E
(1789711618.715626) can1 0200FD02#0100000000000000
(1789711618.715677) can0 0200FD02#0100000000000000
(1789711618.715748) can1 020002FD#800380867FFF010E
(1789711618.715782) can0 020002FD#80007F6C7FFF0118
(1789711618.716368) can1 0200FD03#0100000000000000
(1789711618.716435) can0 0200FD03#0100000000000000
(1789711618.716494) can1 020003FD#82B87F997FFF010E
(1789711618.716619) can0 020003FD#8001804C7FFF0118
(1789711618.717072) can1 0200FD04#0100000000000000
(1789711618.717105) can0 0200FD04#0100000000000000
(1789711618.717308) can1 020004FD#7FFE7FF77FFF010E
(1789711618.717340) can0 020004FD#80017F5F7FFF0104
(1789711618.717714) can0 0200FD05#0100000000000000
(1789711618.717716) can1 0200FD05#0100000000000000
(1789711618.717877) can1 020005FD#90BE7FBD7FFF0118
(1789711618.717930) can0 020005FD#7E787FE07FFF0122
(1789711618.718322) can1 0200FD06#0100000000000000
(1789711618.718323) can0 0200FD06#0100000000000000
(1789711618.718493) can0 020006FD#802D7FEF7FFF0122
(1789711618.718526) can1 020006FD#7FBC7FD27FFF0118
(1789711618.718891) can0 0200FD07#0100000000000000
(1789711618.718935) can1 0200FD07#0100000000000000
(1789711618.719116) can1 020007FD#7FEE7FF67FFF0118
(1789711618.719144) can0 020007FD#7A927FF87FFF0122
(1789711618.719556) can1 0200FD08#0100000000000000
(1789711618.719582) can0 0200FD08#0100000000000000
(1789711618.719652) can1 020008FD#8089801F7FFF010E
(1789711618.719687) can0 020008FD#7EC080127FFF0118
(1789711618.785401) can1 0200FD01#0100000000000000
(1789711618.785462) can0 0200FD01#0100000000000000
(1789711618.785579) can1 020001FD#806F7FB87FFF010E
(1789711618.785631) can0 020001FD#7FA180057FFF010E
(1789711618.785951) can1 0200FD02#0100000000000000
(1789711618.786030) can0 0200FD02#0100000000000000
(1789711618.786226) can1 020002FD#800380097FFF010E
(1789711618.786311) can0 020002FD#8001801E7FFF0118
(1789711618.786530) can1 0200FD03#0100000000000000
(1789711618.786676) can0 0200FD03#0100000000000000
(1789711618.786760) can1 020003FD#82B87F597FFF010E
(1789711618.786854) can0 020003FD#800180897FFF0118
(1789711618.787083) can1 0200FD04#0100000000000000
(1789711618.787332) can1 020004FD#7FFE7F817FFF010E
(1789711618.787337) can0 0200FD04#0100000000000000
(1789711618.787434) can0 020004FD#8001800D7FFF0104
(1789711618.787752) can1 0200FD05#0100000000000000
(1789711618.787929) can1 020005FD#90BE7FEB7FFF0118
(1789711618.787932) can0 0200FD05#0100000000000000
(1789711618.788121) can0 020005FD#7E78804F7FFF0122
(1789711618.788440) can1 0200FD06#0100000000000000
(1789711618.788563) can1 020006FD#7FBD80397FFF0118
(1789711618.788811) can0 0200FD06#0100000000000000
(1789711618.788813) can0 020006FD#802D802B7FFF0122
(1789711618.789308) can1 0200FD07#0100000000000000
(1789711618.789370) can1 020007FD#7FEE80337FFF0118
(1789711618.789624) can0 0200FD07#0100000000000000
(1789711618.789749) can0 020007FD#7A92800C7FFF0122
(1789711618.790065) can1 0200FD08#0100000000000000
(1789711618.790250) can1 020008FD#8089801F7FFF010E
(1789711618.790371) can0 0200FD08#0100000000000000
(1789711618.790498) can0 020008FD#7EC07FFA7FFF0118
(1789711618.852462) can0 0200FD01#0100000000000000
(1789711618.852462) can1 0200FD01#0100000000000000
(1789711618.852577) can1 020001FD#806F80697FFF010E
(1789711618.852632) can0 020001FD#7FA17FFB7FFF010E
(1789711618.853026) can1 0200FD02#0100000000000000
(1789711618.853063) can0 0200FD02#0100000000000000
(1789711618.853297) can0 020002FD#800180577FFF0118
(1789711618.853348) can1 020002FD#800480047FFF010E
(1789711618.853633) can1 0200FD03#0100000000000000
(1789711618.853680) can0 0200FD03#0100000000000000
(1789711618.853874) can1 020003FD#82B87F987FFF010E
(1789711618.853905) can0 020003FD#80007F467FFF0118
(1789711618.854178) can1 0200FD04#0100000000000000
(1789711618.854210) can0 0200FD04#0100000000000000
(1789711618.854371) can1 020004FD#7FFE7F297FFF010E
(1789711618.854432) can0 020004FD#8001801E7FFF0104
(1789711618.854815) can0 0200FD05#0100000000000000
(1789711618.854841) can1 0200FD05#0100000000000000
(1789711618.855003) can0 020005FD#7E7880067FFF0122
(1789711618.855043) can1 020005FD#90BE7FEE7FFF0118
(1789711618.855567) can0 0200FD06#0100000000000000
(1789711618.855688) can0 020006FD#802D80047FFF0122
(1789711618.855753) can1 0200FD06#0100000000000000
(1789711618.855754) can1 020006FD#7FBD7FCB7FFF0118
(1789711618.856325) can0 0200FD07#0100000000000000
(1789711618.856513) can0 020007FD#7A927FF57FFF0122
(1789711618.856567) can1 0200FD07#0100000000000000
(1789711618.856767) can1 020007FD#7FEE7FFD7FFF0118
(1789711618.857261) can0 0200FD08#0100000000000000
(1789711618.857381) can0 020008FD#7EC080007FFF0118
(1789711618.857430) can1 0200FD08#0100000000000000
(1789711618.857516) can1 020008FD#80897FE37FFF010E
(1789711618.917462) can1 0200FD01#0100000000000000
(1789711618.917529) can0 0200FD01#0100000000000000
(1789711618.917693) can1 020001FD#806E7F947FFF010E
(1789711618.917776) can0 020001FD#7FA180267FFF010E
(1789711618.918026) can1 0200FD02#0100000000000000
(1789711618.918082) can0 0200FD02#0100000000000000
(1789711618.918315) can1 020002FD#800380367FFF010E
(1789711618.918348) can0 020002FD#8001806B7FFF0118
(1789711618.918684) can1 0200FD03#0100000000000000
(1789711618.918715) can0 0200FD03#0100000000000000
(1789711618.918861) can1 020003FD#82B87FA47FFF010E
(1789711618.918893) can0 020003FD#8001801B7FFF0118
(1789711618.919333) can0 0200FD04#0100000000000000
(1789711618.919334) can1 0200FD04#0100000000000000
(1789711618.919504) can0 020004FD#80017F7B7FFF0104
(1789711618.919572) can1 020004FD#7FFE7FE67FFF010E
(1789711618.919893) can1 0200FD05#0100000000000000
(1789711618.919947) can0 0200FD05#0100000000000000
(1789711618.920130) can0 020005FD#7E787FE67FFF0122
(1789711618.920161) can1 020005FD#90BE7FC77FFF0118
(1789711618.920468) can1 0200FD06#0100000000000000
(1789711618.920595) can0 0200FD06#0100000000000000
(1789711618.920708) can1 020006FD#7FBD80027FFF0118
(1789711618.920766) can0 020006FD#802D7FEE7FFF0122
(1789711618.921084) can1 0200FD07#0100000000000000
(1789711618.921158) can0 0200FD07#0100000000000000
(1789711618.921332) can1 020007FD#7FEE7FE47FFF0118
(1789711618.921379) can0 020007FD#7A92801D7FFF0122
(1789711618.921759) can1 0200FD08#0100000000000000
(1789711618.921881) can0 0200FD08#0100000000000000
(1789711618.921912) can1 020008FD#80897FE17FFF010E
(1789711618.922004) can0 020008FD#7EC0800D7FFF0118
(1789711618.981282) can1 0200FD01#0100000000000000
(1789711618.981283) can0 0200FD01#0100000000000000
(1789711618.981384) can1 020001FD#806F7FE17FFF010E
(1789711618.981414) can0 020001FD#7FA280177FFF010E
(1789711618.982008) can1 0200FD02#0100000000000000
(1789711618.982067) can0 0200FD02#0100000000000000
(1789711618.982134) can1 020002FD#800380157FFF010E
(1789711618.982257) can0 020002FD#800180057FFF0118
(1789711618.982830) can0 0200FD03#0100000000000000
(1789711618.982917) can1 0200FD03#0100000000000000
(1789711618.982951) can1 020003FD#82B87FFE7FFF010E
(1789711618.983012) can0 020003FD#800180317FFF0118
(1789711618.983617) can0 0200FD04#0100000000000000
(1789711618.983670) can1 0200FD04#0100000000000000
(1789711618.983726) can0 020004FD#800180377FFF0104
(1789711618.983778) can1 020004FD#7FFE80557FFF010E
(1789711618.984163) can0 0200FD05#0100000000000000
(1789711618.984275) can1 0200FD05#0100000000000000
(1789711618.984374) can0 020005FD#7E78800E7FFF0122
(1789711618.984434) can1 020005FD#90BE80447FFF0118
(1789711618.984765) can0 0200FD06#0100000000000000
(1789711618.984812) can1 0200FD06#0100000000000000
(1789711618.985013) can0 020006FD#802D7FFF7FFF0122
(1789711618.985046) can1 020006FD#7FBD803F7FFF0118
(1789711618.985336) can0 0200FD07#0100000000000000
(1789711618.985466) can1 0200FD07#0100000000000000
(1789711618.985510) can0 020007FD#7A927FE87FFF0122
(1789711618.985587) can1 020007FD#7FEE7FB67FFF0118
(1789711618.985904) can0 0200FD08#0100000000000000
(1789711618.986021) can1 0200FD08#0100000000000000
(1789711618.986054) can0 020008FD#7EC07FE57FFF0118
(1789711618.986247) can1 020008FD#808980257FFF010E
(1789711619.043273) can1 0200FD01#0100000000000000
(1789711619.043275) can0 0200FD01#0100000000000000
(1789711619.043389) can1 020001FD#806E80137FFF010E
(1789711619.043396) can0 020001FD#7FA17FEB7FFF010E
(1789711619.044095) can1 0200FD02#0100000000000000
(1789711619.044097) can0 0200FD02#0100000000000000
(1789711619.044278) can1 020002FD#8003803C7FFF010E
(1789711619.044295) can0 020002FD#80017FF37FFF0118
(1789711619.044892) can1 0200FD03#0100000000000000
(1789711619.044926) can0 0200FD03#0100000000000000
(1789711619.045019) can1 020003FD#82B87FDE7FFF010E
(1789711619.044981) can0 020003FD#80007F7A7FFF0118
(1789711619.045653) can1 0200FD04#0100000000000000
(1789711619.045701) can0 0200FD04#0100000000000000
(1789711619.045781) can1 020004FD#7FFE800F7FFF010E
(1789711619.045810) can0 020004FD#8001803B7FFF0104
(1789711619.046465) can1 0200FD05#0100000000000000
(1789711619.046467) can0 0200FD05#0100000000000000
(1789711619.046582) can1 020005FD#90BE7FE37FFF0118
(1789711619.046669) can0 020005FD#7E7880027FFF0122
(1789711619.047273) can1 0200FD06#0100000000000000
(1789711619.047276) can0 0200FD06#0100000000000000
(1789711619.047391) can1 020006FD#7FBC7FCB7FFF0118
(1789711619.047422) can0 020006FD#802D80337FFF0122
(1789711619.048075) can0 0200FD07#0100000000000000
(1789711619.048080) can1 0200FD07#0100000000000000
(1789711619.048157) can0 020007FD#7A917FD47FFF0122
(1789711619.048394) can1 020007FD#7FEE7FD07FFF0118
(1789711619.048910) can0 0200FD08#0100000000000000
(1789711619.048938) can1 0200FD08#0100000000000000
(1789711619.048926) can0 020008FD#7EC07FC57FFF0118
(1789711619.048982) can1 020008FD#80897FF67FFF010E
(1789711619.124282) can1 0200FD01#0100000000000000
(1789711619.124398) can1 020001FD#806F803E7FFF010E
(1789711619.124394) can0 0200FD01#0100000000000000
(1789711619.124427) can0 020001FD#7FA2801A7FFF010E
(1789711619.125091) can1 0200FD02#0100000000000000
(1789711619.125273) can1 020002FD#800380357FFF010E
(1789711619.125279) can0 0200FD02#0100000000000000
(1789711619.125395) can0 020002FD#800180307FFF0118
(1789711619.125849) can1 0200FD03#0100000000000000
(1789711619.126039) can1 020003FD#82B87F8E7FFF010E
(1789711619.126085) can0 0200FD03#0100000000000000
(1789711619.126275) can0 020003FD#800080957FFF0118
(1789711619.126711) can1 0200FD04#0100000000000000
(1789711619.126823) can1 020004FD#7FFE80557FFF010E
(1789711619.126853) can0 0200FD04#0100000000000000
(1789711619.126955) can0 020004FD#80017FE07FFF0104
(1789711619.127470) can1 0200FD05#0100000000000000
(1789711619.127650) can1 020005FD#90BE80147FFF0118
(1789711619.127655) can0 0200FD05#0100000000000000
(1789711619.127787) can0 020005FD#7E787FF87FFF0122
(1789711619.128291) can1 0200FD06#0100000000000000
(1789711619.128397) can1 020006FD#7FBC7FC37FFF0118
(1789711619.128458) can0 0200FD06#0100000000000000
(1789711619.128582) can0 020006FD#802D7FD67FFF0122
(1789711619.129088) can1 0200FD07#0100000000000000
(1789711619.129279) can1 020007FD#7FEE80347FFF0118
(1789711619.129288) can0 0200FD07#0100000000000000
(1789711619.129395) can0 020007FD#7A927FD47FFF0122
(1789711619.129834) can1 0200FD08#0100000000000000
(1789711619.129914) can1 020008FD#80897FF47FFF010E
(1789711619.130016) can0 0200FD08#0100000000000000
(1789711619.130066) can0 020008FD#7EC080037FFF0118
(1789711619.185741) can1 0200FD01#0100000000000000
(1789711619.185767) can0 0200FD01#0100000000000000
(1789711619.185975) can1 020001FD#806F7F6B7FFF010E
(1789711619.186005) can0 020001FD#7FA17F547FFF010E
(1789711619.186354) can1 0200FD02#0100000000000000
(1789711619.186355) can0 0200FD02#0100000000000000
(1789711619.186531) can0 020002FD#800180207FFF0118
(1789711619.186540) can1 020002FD#800380177FFF010E
(1789711619.186912) can0 0200FD03#0100000000000000
(1789711619.186969) can1 0200FD03#0100000000000000
(1789711619.187155) can1 020003FD#82B87FF17FFF010E
(1789711619.187163) can0 020003FD#80017FF87FFF0118
(1789711619.187554) can1 0200FD04#0100000000000000
(1789711619.187603) can0 0200FD04#0100000000000000
(1789711619.187774) can0 020004FD#800180477FFF0104
(1789711619.187805) can1 020004FD#7FFE80657FFF010E
(1789711619.188153) can1 0200FD05#0100000000000000
(1789711619.188305) can0 0200FD05#0100000000000000
(1789711619.188339) can1 020005FD#90BE80117FFF0118
(1789711619.188407) can0 020005FD#7E787FED7FFF0122
(1789711619.188973) can1 0200FD06#0100000000000000
(1789711619.189076) can0 0200FD06#0100000000000000
(1789711619.189143) can1 020006FD#7FBD80017FFF0118
(1789711619.189268) can0 020006FD#802D7FF97FFF0122
(1789711619.189817) can1 0200FD07#0100000000000000
(1789711619.189820) can1 020007FD#7FEE7FF47FFF0118
(1789711619.189843) can0 0200FD07#0100000000000000
(1789711619.190025) can0 020007FD#7A927FB77FFF0122
(1789711619.190598) can1 0200FD08#0100000000000000
(1789711619.190679) can1 020008FD#80897FE27FFF010E
(1789711619.190708) can0 0200FD08#0100000000000000
(1789711619.190812) can0 020008FD#7EC080207FFF0118
(1789711619.254486) can1 0200FD01#0100000000000000
(1789711619.254550) can0 0200FD01#0100000000000000
(1789711619.254657) can1 020001FD#806F80177FFF010E
(1789711619.254792) can0 020001FD#7FA280727FFF010E
(1789711619.255152) can1 0200FD02#0100000000000000
(1789711619.255290) can1 020002FD#800380487FFF010E
(1789711619.255332) can0 0200FD02#0100000000000000
(1789711619.255366) can0 020002FD#80007FBF7FFF0118
(1789711619.255974) can1 0200FD03#0100000000000000
(1789711619.256074) can1 020003FD#82B87FA67FFF010E
(1789711619.256105) can0 0200FD03#0100000000000000
(1789711619.256277) can0 020003FD#80017FE57FFF0118
(1789711619.256834) can1 0200FD04#0100000000000000
(1789711619.256841) can1 020004FD#7FFE80297FFF010E
(1789711619.256940) can0 0200FD04#0100000000000000
(1789711619.256981) can0 020004FD#80017FCD7FFF0104
(1789711619.257591) can1 0200FD05#0100000000000000
(1789711619.257698) can1 020005FD#90BE80127FFF0118
(1789711619.257818) can0 0200FD05#0100000000000000
(1789711619.257820) can0 020005FD#7E787FDD7FFF0122
(1789711619.258412) can1 0200FD06#0100000000000000
(1789711619.258433) can1 020006FD#7FBC80027FFF0118
(1789711619.258598) can0 0200FD06#0100000000000000
(1789711619.258782) can0 020006FD#802D802E7FFF0122
(1789711619.259221) can1 0200FD07#0100000000000000
(1789711619.259346) can1 020007FD#7FEE80137FFF0118
(1789711619.259401) can0 0200FD07#0100000000000000
(1789711619.259435) can0 020007FD#7A927FF07FFF0122
(1789711619.259974) can1 0200FD08#0100000000000000
(1789711619.260041) can1 020008FD#80897FFA7FFF010E
(1789711619.260093) can0 0200FD08#0100000000000000
(1789711619.260282) can0 020008FD#7EC080027FFF0118
(1789711619.324853) can1 0200FD01#0100000000000000
(1789711619.324873) can0 0200FD01#0100000000000000
(1789711619.324862) can1 020001FD#806E7FD77FFF010E
(1789711619.324982) can0 020001FD#7FA280337FFF010E
(1789711619.325602) can1 0200FD02#0100000000000000
(1789711619.325699) can0 0200FD02#0100000000000000
(1789711619.325718) can1 020002FD#80037FC77FFF010E
(1789711619.325793) can0 020002FD#80017F3E7FFF0118
(1789711619.326348) can1 0200FD03#0100000000000000
(1789711619.326465) can0 0200FD03#0100000000000000
(1789711619.326528) can1 020003FD#82B87F6D7FFF010E
(1789711619.326570) can0 020003FD#8001802F7FFF0118
(1789711619.327094) can1 0200FD04#0100000000000000
(1789711619.327214) can0 0200FD04#0100000000000000
(1789711619.327289) can1 020004FD#7FFE7FB87FFF010E
(1789711619.327342) can0 020004FD#800180457FFF0104
(1789711619.327977) can0 0200FD05#0100000000000000
(1789711619.327978) can1 0200FD05#0100000000000000
(1789711619.328069) can0 020005FD#7E7880227FFF0122
(1789711619.328113) can1 020005FD#90BE7FF37FFF0118
(1789711619.328785) can0 0200FD06#0100000000000000
(1789711619.328813) can0 020006FD#802D7FD47FFF0122
(1789711619.328820) can1 0200FD06#0100000000000000
(1789711619.328847) can1 020006FD#7FBC7FD57FFF0118
(1789711619.329594) can0 0200FD07#0100000000000000
(1789711619.329595) can1 0200FD07#0100000000000000
(1789711619.329693) can0 020007FD#7A927FDF7FFF0122
(1789711619.329776) can1 020007FD#7FEE800E7FFF0118
(1789711619.330353) can1 0200FD08#0100000000000000
(1789711619.330403) can0 0200FD08#0100000000000000
(1789711619.330437) can1 020008FD#808980007FFF010E
(1789711619.330441) can0 020008FD#7EC080027FFF0118
(1789711619.388605) can1 0200FD01#0100000000000000
(1789711619.388700) can1 020001FD#806F80657FFF010E
(1789711619.388731) can0 0200FD01#0100000000000000
(1789711619.388829) can0 020001FD#7FA180467FFF010E
(1789711619.389412) can1 0200FD02#0100000000000000
(1789711619.389476) can0 0200FD02#0100000000000000
(1789711619.389530) can1 020002FD#8003803B7FFF010E
(1789711619.389661) can0 020002FD#80007FB37FFF0118
(1789711619.390158) can1 0200FD03#0100000000000000
(1789711619.390293) can0 0200FD03#0100000000000000
(1789711619.390319) can1 020003FD#82B87F7B7FFF010E
(1789711619.390410) can0 020003FD#80007ED97FFF0118
(1789711619.390913) can1 0200FD04#0100000000000000
(1789711619.391040) can1 020004FD#7FFE803D7FFF010E
(1789711619.391047) can0 0200FD04#0100000000000000
(1789711619.391296) can0 020004FD#8001801A7FFF0104
(1789711619.391726) can1 0200FD05#0100000000000000
(1789711619.391830) can1 020005FD#90BE802C7FFF0118
(1789711619.391861) can0 0200FD05#0100000000000000
(1789711619.392008) can0 020005FD#7E787FD77FFF0122
(1789711619.392474) can1 0200FD06#0100000000000000
(1789711619.392598) can0 0200FD06#0100000000000000
(1789711619.392599) can1 020006FD#7FBC7FC27FFF0118
(1789711619.392780) can0 020006FD#802E80517FFF0122
(1789711619.393290) can1 0200FD07#0100000000000000
(1789711619.393415) can0 0200FD07#0100000000000000
(1789711619.393417) can1 020007FD#7FEE80397FFF0118
(1789711619.393530) can0 020007FD#7A92804A7FFF0122
(1789711619.394127) can1 0200FD08#0100000000000000
(1789711619.394134) can0 0200FD08#0100000000000000
(1789711619.394175) can0 020008FD#7EC080287FFF0118
(1789711619.394311) can1 020008FD#80897FF37FFF010E
(1789711619.451373) can1 0200FD01#0100000000000000
(1789711619.451495) can0 0200FD01#0100000000000000
(1789711619.451539) can1 020001FD#806E80137FFF010E
(1789711619.451616) can0 020001FD#7FA17FA67FFF010E
(1789711619.451932) can1 0200FD02#0100000000000000
(1789711619.452065) can0 0200FD02#0100000000000000
(1789711619.452164) can1 020002FD#8003800C7FFF010E
(1789711619.452363) can0 020002FD#800180697FFF0118
(1789711619.452491) can1 0200FD03#0100000000000000
(1789711619.452665) can1 020003FD#82B87F397FFF010E
(1789711619.452739) can0 0200FD03#0100000000000000
(1789711619.452920) can0 020003FD#80007F437FFF0118
(1789711619.453110) can1 0200FD04#0100000000000000
(1789711619.453347) can1 020004FD#7FFE802C7FFF010E
(1789711619.453380) can0 0200FD04#0100000000000000
(1789711619.453537) can0 020004FD#80017EF77FFF0104
(1789711619.453745) can1 0200FD05#0100000000000000
(1789711619.453915) can1 020005FD#90BE7FE47FFF0118
(1789711619.453948) can0 0200FD05#0100000000000000
(1789711619.454169) can0 020005FD#7E7880337FFF0122
(1789711619.454435) can1 0200FD06#0100000000000000
(1789711619.454543) can1 020006FD#7FBC7FF97FFF0118
(1789711619.454573) can0 0200FD06#0100000000000000
(1789711619.454799) can0 020006FD#802D7FE77FFF0122
(1789711619.455106) can1 0200FD07#0100000000000000
(1789711619.455319) can0 0200FD07#0100000000000000
(1789711619.455328) can1 020007FD#7FEE7FE97FFF0118
(1789711619.455419) can0 020007FD#7A917FC77FFF0122
(1789711619.455854) can1 0200FD08#0100000000000000
(1789711619.455928) can1 020008FD#808980217FFF010E
(1789711619.456038) can0 0200FD08#0100000000000000
(1789711619.456092) can0 020008FD#7EC080287FFF0118
(1789711619.514076) can1 0200FD01#0100000000000000
(1789711619.514080) can0 0200FD01#0100000000000000
(1789711619.514089) can1 020001FD#806E7FA37FFF010E
(1789711619.514170) can0 020001FD#7FA17FA57FFF010E
(1789711619.514847) can1 0200FD02#0100000000000000
(1789711619.514880) can0 0200FD02#0100000000000000
(1789711619.514951) can1 020002FD#80037F9F7FFF010E
(1789711619.515038) can0 020002FD#80017F947FFF0118
(1789711619.515600) can1 0200FD03#0100000000000000
(1789711619.515666) can0 0200FD03#0100000000000000
(1789711619.515726) can1 020003FD#82B880687FFF010E
(1789711619.515800) can0 020003FD#800180DC7FFF0118
(1789711619.516411) can1 0200FD04#0100000000000000
(1789711619.516537) can0 0200FD04#0100000000000000
(1789711619.516538) can1 020004FD#7FFE7FA97FFF010E
(1789711619.516569) can0 020004FD#80017FA67FFF0104
(1789711619.517030) can1 0200FD05#0100000000000000
(1789711619.517155) can0 0200FD05#0100000000000000
(1789711619.517301) can1 020005FD#90BE7FFE7FFF0118
(1789711619.517348) can0 020005FD#7E787FDB7FFF0122
(1789711619.517613) can1 0200FD06#0100000000000000
(1789711619.517724) can0 0200FD06#0100000000000000
(1789711619.517845) can1 020006FD#7FBC80077FFF0118
(1789711619.517957) can0 020006FD#802D7FFD7FFF0122
(1789711619.518143) can1 0200FD07#0100000000000000
(1789711619.518364) can0 0200FD07#0100000000000000
(1789711619.518410) can1 020007FD#7FEE80117FFF0118
(1789711619.518472) can0 020007FD#7A9280027FFF0122
(1789711619.518740) can1 0200FD08#0100000000000000
(1789711619.518882) can1 020008FD#80897FD57FFF010E
(1789711619.518916) can0 0200FD08#0100000000000000
(1789711619.519056) can0 020008FD#7EC0800C7FFF0118
(1789711619.579171) can1 0200FD01#0100000000000000
(1789711619.579172) can0 0200FD01#0100000000000000
(1789711619.579293) can1 020001FD#806E7FC37FFF010E
(1789711619.579326) can0 020001FD#7FA17FC97FFF010E
(1789711619.579974) can0 0200FD02#0100000000000000
(1789711619.579975) can1 0200FD02#0100000000000000
(1789711619.580084) can0 020002FD#80017FAF7FFF0118
(1789711619.580117) can1 020002FD#80037FBB7FFF010E
(1789711619.580828) can1 0200FD03#0100000000000000
(1789711619.580856) can1 020003FD#82B8806B7FFF010E
(1789711619.580861) can0 0200FD03#0100000000000000
(1789711619.580863) can0 020003FD#80007FD97FFF0118
(1789711619.581601) can1 0200FD04#0100000000000000
(1789711619.581602) can0 0200FD04#0100000000000000
(1789711619.581710) can1 020004FD#7FFE807B7FFF010E
(1789711619.581744) can0 020004FD#8002802E7FFF0104
(1789711619.582418) can1 0200FD05#0100000000000000
(1789711619.582418) can0 0200FD05#0100000000000000
(1789711619.582448) can0 020005FD#7E78800F7FFF0122
(1789711619.582545) can1 020005FD#90BE80087FFF0118
(1789711619.583174) can1 0200FD06#0100000000000000
(1789711619.583228) can0 0200FD06#0100000000000000
(1789711619.583305) can1 020006FD#7FBC80307FFF0118
(1789711619.583415) can0 020006FD#802D7FD17FFF0122
(1789711619.583833) can1 0200FD07#0100000000000000
(1789711619.583866) can0 0200FD07#0100000000000000
(1789711619.584067) can1 020007FD#7FEE80207FFF0118
(1789711619.584100) can0 020007FD#7A927FF97FFF0122
(1789711619.584441) can1 0200FD08#0100000000000000
(1789711619.584442) can0 0200FD08#0100000000000000
(1789711619.584532) can1 020008FD#80897FF27FFF010E
(1789711619.584566) can0 020008FD#7EC0800B7FFF0118
(1789711619.667503) can1 0200FD01#0100000000000000
(1789711619.667606) can0 0200FD01#0100000000000000
(1789711619.667677) can1 020001FD#806F805A7FFF010E
(1789711619.667718) can0 020001FD#7FA180117FFF010E
(1789711619.668304) can1 0200FD02#0100000000000000
(1789711619.668355) can0 0200FD02#0100000000000000
(1789711619.668425) can1 020002FD#8004810A7FFF010E
(1789711619.668468) can0 020002FD#80017F9B7FFF0118
(1789711619.669112) can1 0200FD03#0100000000000000
(1789711619.669114) can0 0200FD03#0100000000000000
(1789711619.669297) can1 020003FD#82B8805B7FFF010E
(1789711619.669301) can0 020003FD#80007FF57FFF0118
(1789711619.669883) can1 0200FD04#0100000000000000
(1789711619.669884) can0 0200FD04#0100000000000000
(1789711619.670047) can1 020004FD#7FFE804C7FFF010E
(1789711619.670051) can0 020004FD#80017F477FFF0104
(1789711619.670616) can1 0200FD05#0100000000000000
(1789711619.670739) can0 0200FD05#0100000000000000
(1789711619.670755) can1 020005FD#90BE80067FFF0118
(1789711619.670811) can0 020005FD#7E787FFC7FFF0122
(1789711619.671430) can1 0200FD06#0100000000000000
(1789711619.671432) can0 0200FD06#0100000000000000
(1789711619.671560) can0 020006FD#802D80047FFF0122
(1789711619.671565) can1 020006FD#7FBC7FFA7FFF0118
(1789711619.672119) can1 0200FD07#0100000000000000
(1789711619.672239) can0 0200FD07#0100000000000000
(1789711619.672314) can1 020007FD#7FEE800B7FFF0118
(1789711619.672359) can0 020007FD#7A92804A7FFF0122
(1789711619.672990) can0 0200FD08#0100000000000000
(1789711619.672992) can1 0200FD08#0100000000000000
(1789711619.673065) can1 020008FD#80897FF67FFF010E
(1789711619.673071) can0 020008FD#7EC07FF17FFF0118
(1789711619.736759) can0 0200FD01#0100000000000000
(1789711619.736761) can1 0200FD01#0100000000000000
(1789711619.736937) can0 020001FD#7FA180147FFF010E
(1789711619.736945) can1 020001FD#806E800D7FFF010E
(1789711619.737635) can0 0200FD02#0100000000000000
(1789711619.737639) can1 0200FD02#0100000000000000
(1789711619.737646) can0 020002FD#80017F867FFF0118
(1789711619.737757) can1 020002FD#800480817FFF010E
(1789711619.738366) can0 0200FD03#0100000000000000
(1789711619.738428) can1 0200FD03#0100000000000000
(1789711619.738466) can1 020003FD#82B87F6D7FFF010E
(1789711619.738497) can0 020003FD#80007FF27FFF0118
(1789711619.739119) can0 0200FD04#0100000000000000
(1789711619.739254) can1 0200FD04#0100000000000000
(1789711619.739309) can0 020004FD#80017FC57FFF0104
(1789711619.739430) can1 020004FD#7FFE7FF47FFF010E
(1789711619.739887) can0 0200FD05#0100000000000000
(1789711619.739998) can1 0200FD05#0100000000000000
(1789711619.740056) can0 020005FD#7E787FDF7FFF0122
(1789711619.740097) can1 020005FD#90BE80357FFF0118
(1789711619.740750) can0 0200FD06#0100000000000000
(1789711619.740805) can1 0200FD06#0100000000000000
(1789711619.740837) can1 020006FD#7FBC802B7FFF0118
(1789711619.740869) can0 020006FD#802D802A7FFF0122
(1789711619.741498) can0 0200FD07#0100000000000000
(1789711619.741621) can1 0200FD07#0100000000000000
(1789711619.741625) can0 020007FD#7A9280547FFF0122
(1789711619.741809) can1 020007FD#7FEE7FDA7FFF0118
(1789711619.742323) can0 0200FD08#0100000000000000
(1789711619.742432) can0 020008FD#7EC080207FFF0118
(1789711619.742442) can1 0200FD08#0100000000000000
(1789711619.742499) can1 020008FD#8089801C7FFF010E
(1789711619.805001) can1 0200FD01#0100000000000000
(1789711619.805115) can1 020001FD#806F7F897FFF010E
(1789711619.805137) can0 0200FD01#0100000000000000
(1789711619.805307) can0 020001FD#7FA17FEA7FFF010E
(1789711619.805810) can1 0200FD02#0100000000000000
(1789711619.805871) can0 0200FD02#0100000000000000
(1789711619.805931) can1 020002FD#80037FCE7FFF010E
(1789711619.806055) can0 020002FD#800180037FFF0118
(1789711619.806615) can1 0200FD03#0100000000000000
(1789711619.806705) can1 020003FD#82B87FA17FFF010E
(1789711619.806743) can0 0200FD03#0100000000000000
(1789711619.806872) can0 020003FD#800180447FFF0118
(1789711619.807319) can1 0200FD04#0100000000000000
(1789711619.807436) can1 020004FD#7FFE80737FFF010E
(1789711619.807499) can0 0200FD04#0100000000000000
(1789711619.807624) can0 020004FD#80017FC17FFF0104
(1789711619.808135) can1 0200FD05#0100000000000000
(1789711619.808314) can1 020005FD#90BE7FE87FFF0118
(1789711619.808363) can0 0200FD05#0100000000000000
(1789711619.808398) can0 020005FD#7E78802B7FFF0122
(1789711619.808881) can1 0200FD06#0100000000000000
(1789711619.809058) can1 020006FD#7FBC801B7FFF0118
(1789711619.809115) can0 0200FD06#0100000000000000
(1789711619.809305) can0 020006FD#802D7FDE7FFF0122
(1789711619.809686) can1 0200FD07#0100000000000000
(1789711619.809810) can1 020007FD#7FEE7FE17FFF0118
(1789711619.809875) can0 0200FD07#0100000000000000
(1789711619.810057) can0 020007FD#7A9280027FFF0122
(1789711619.810514) can1 0200FD08#0100000000000000
(1789711619.810620) can1 020008FD#8089800B7FFF010E
(1789711619.810702) can0 0200FD08#0100000000000000
(1789711619.810824) can0 020008FD#7EC07FFC7FFF0118
(1789711619.872635) can1 0200FD01#0100000000000000
(1789711619.872752) can0 0200FD01#0100000000000000
(1789711619.872763) can1 020001FD#806F801D7FFF010E
(1789711619.872873) can0 020001FD#7FA17FFD7FFF010E
(1789711619.873386) can1 0200FD02#0100000000000000
(1789711619.873518) can0 0200FD02#0100000000000000
(1789711619.873565) can1 020002FD#8004800C7FFF010E
(1789711619.873692) can0 020002FD#80017F937FFF0118
(1789711619.874190) can1 0200FD03#0100000000000000
(1789711619.874323) can0 0200FD03#0100000000000000
(1789711619.874352) can1 020003FD#82B87FAB7FFF010E
(1789711619.874438) can0 020003FD#800080227FFF0118
(1789711619.875087) can1 0200FD04#0100000000000000
(1789711619.875113) can0 0200FD04#0100000000000000
(1789711619.875185) can1 020004FD#7FFE800C7FFF010E
(1789711619.875327) can0 020004FD#800180187FFF0104
(1789711619.875858) can1 0200FD05#0100000000000000
(1789711619.875861) can1 020005FD#90BE80057FFF0118
(1789711619.875888) can0 0200FD05#0100000000000000
(1789711619.876004) can0 020005FD#7E7880207FFF0122
(1789711619.876633) can1 0200FD06#0100000000000000
(1789711619.876751) can1 020006FD#7FBD7FF57FFF0118
(1789711619.876811) can0 0200FD06#0100000000000000
(1789711619.876843) can0 020006FD#802D80067FFF0122
(1789711619.877384) can1 0200FD07#0100000000000000
(1789711619.877502) can1 020007FD#7FEE80127FFF0118
(1789711619.877666) can0 0200FD07#0100000000000000
(1789711619.877688) can0 020007FD#7A9280417FFF0122
(1789711619.878132) can1 0200FD08#0100000000000000
(1789711619.878315) can1 020008FD#808980117FFF010E
(1789711619.878344) can0 0200FD08#0100000000000000
(1789711619.878446) can0 020008FD#7EC0804D7FFF0118
(1789711619.937719) can1 0200FD01#0100000000000000
(1789711619.937745) can0 0200FD01#0100000000000000
(1789711619.937828) can1 020001FD#806F806A7FFF010E
(1789711619.937890) can0 020001FD#7FA17FEB7FFF010E
(1789711619.938505) can1 0200FD02#0100000000000000
(1789711619.938506) can0 0200FD02#0100000000000000
(1789711619.938630) can1 020002FD#8003808E7FFF010E
(1789711619.938718) can0 020002FD#800180BB7FFF0118
(1789711619.939252) can1 0200FD03#0100000000000000
(1789711619.939325) can0 0200FD03#0100000000000000
(1789711619.939442) can1 020003FD#82B87F9A7FFF010E
(1789711619.939471) can0 020003FD#800180657FFF0118
(1789711619.940002) can1 0200FD04#0100000000000000
(1789711619.940126) can0 0200FD04#0100000000000000
(1789711619.940129) can1 020004FD#7FFE7FE77FFF010E
(1789711619.940321) can0 020004FD#80017F987FFF0104
(1789711619.940759) can1 0200FD05#0100000000000000
(1789711619.940890) can0 0200FD05#0100000000000000
(1789711619.940986) can1 020005FD#90BE7FBF7FFF0118
(1789711619.941071) can0 020005FD#7E78801D7FFF0122
(1789711619.941646) can1 0200FD06#0100000000000000
(1789711619.941741) can1 020006FD#7FBD7FD97FFF0118
(1789711619.941773) can0 0200FD06#0100000000000000
(1789711619.941870) can0 020006FD#802D7FF07FFF0122
(1789711619.942410) can1 0200FD07#0100000000000000
(1789711619.942514) can0 0200FD07#0100000000000000
(1789711619.942519) can1 020007FD#7FEE7FFC7FFF0118
(1789711619.942792) can0 020007FD#7A927FAF7FFF0122
(1789711619.943230) can1 0200FD08#0100000000000000
(1789711619.943311) can1 020008FD#80897FDC7FFF010E
(1789711619.943438) can0 0200FD08#0100000000000000
(1789711619.943473) can0 020008FD#7EC07FC17FFF0118
(1789711620.003412) can0 0200FD01#0100000000000000
(1789711620.003416) can1 0200FD01#0100000000000000
(1789711620.003570) can0 020001FD#7FA17FD17FFF010E
(1789711620.003602) can1 020001FD#806F80537FFF010E
(1789711620.004138) can0 0200FD02#0100000000000000
(1789711620.004139) can1 0200FD02#0100000000000000
(1789711620.004324) can0 020002FD#80017FA17FFF0118
(1789711620.004350) can1 020002FD#8003800F7FFF010E
(1789711620.004888) can0 0200FD03#0100000000000000
(1789711620.005002) can1 0200FD03#0100000000000000
(1789711620.005067) can0 020003FD#80007FBA7FFF0118
(1789711620.005109) can1 020003FD#82B880487FFF010E
(1789711620.005823) can0 0200FD04#0100000000000000
(1789711620.005826) can0 020004FD#8001803A7FFF0104
(1789711620.005853) can1 0200FD04#0100000000000000
(1789711620.005888) can1 020004FD#7FFE809B7FFF010E
(1789711620.006516) can0 0200FD05#0100000000000000
(1789711620.006625) can1 0200FD05#0100000000000000
(1789711620.006721) can0 020005FD#7E78800F7FFF0122
(1789711620.006754) can1 020005FD#90BE80077FFF0118
(1789711620.007342) can0 0200FD06#0100000000000000
(1789711620.007381) can1 0200FD06#0100000000000000
(1789711620.007447) can0 020006FD#802D7FDC7FFF0122
(1789711620.007510) can1 020006FD#7FBC7FE87FFF0118
(1789711620.008139) can0 0200FD07#0100000000000000
(1789711620.008143) can1 0200FD07#0100000000000000
(1789711620.008371) can0 020007FD#7A927FDF7FFF0122
(1789711620.008378) can1 020007FD#7FEE80467FFF0118
(1789711620.008987) can0 0200FD08#0100000000000000
(1789711620.008994) can0 020008FD#7EC07FDD7FFF0118
(1789711620.009018) can1 0200FD08#0100000000000000
(1789711620.009081) can1 020008FD#80897FF37FFF010E
(1789711620.073142) can1 0200FD01#0100000000000000
(1789711620.073323) can1 020001FD#806F7FF27FFF010E
(1789711620.073329) can0 0200FD01#0100000000000000
(1789711620.073453) can0 020001FD#7FA17FD87FFF010E
(1789711620.073891) can1 0200FD02#0100000000000000
(1789711620.074010) can1 020002FD#80037F767FFF010E
(1789711620.074128) can0 0200FD02#0100000000000000
(1789711620.074324) can0 020002FD#800180167FFF0118
(1789711620.074760) can1 0200FD03#0100000000000000
(1789711620.074945) can1 020003FD#82B87FE37FFF010E
(1789711620.074978) can0 0200FD03#0100000000000000
(1789711620.075011) can0 020003FD#80007FAD7FFF0118
(1789711620.075641) can1 0200FD04#0100000000000000
(1789711620.075646) can1 020004FD#7FFE803A7FFF010E
(1789711620.075758) can0 0200FD04#0100000000000000
(1789711620.075871) can0 020004FD#800180837FFF0104
(1789711620.076332) can1 0200FD05#0100000000000000
(1789711620.076464) can1 020005FD#90BE80167FFF0118
(1789711620.076503) can0 0200FD05#0100000000000000
(1789711620.076611) can0 020005FD#7E78801E7FFF0122
(1789711620.077135) can1 0200FD06#0100000000000000
(1789711620.077320) can1 020006FD#7FBD7FDB7FFF0118
(1789711620.077350) can0 0200FD06#0100000000000000
(1789711620.077446) can0 020006FD#802D80187FFF0122
(1789711620.077889) can1 0200FD07#0100000000000000
(1789711620.078074) can1 020007FD#7FEE7FF67FFF0118
(1789711620.078103) can0 0200FD07#0100000000000000
(1789711620.078211) can0 020007FD#7A9280007FFF0122
(1789711620.078750) can1 0200FD08#0100000000000000
(1789711620.078835) can1 020008FD#80897FE87FFF010E
(1789711620.078884) can0 0200FD08#0100000000000000
(1789711620.078956) can0 020008FD#7EC0800E7FFF0118
(1789711620.138179) can1 0200FD01#0100000000000000
(1789711620.138336) can1 020001FD#806F7FF77FFF010E
(1789711620.138343) can0 0200FD01#0100000000000000
(1789711620.138454) can0 020001FD#7FA17FA27FFF010E
(1789711620.139014) can1 0200FD02#0100000000000000
(1789711620.139019) can1 020002FD#80037F3E7FFF010E
(1789711620.139138) can0 0200FD02#0100000000000000
(1789711620.139364) can0 020002FD#80017F927FFF0118
(1789711620.139839) can1 0200FD03#0100000000000000
(1789711620.139862) can1 020003FD#82B87FA77FFF010E
(1789711620.139893) can0 0200FD03#0100000000000000
(1789711620.140093) can0 020003FD#80007FD87FFF0118
(1789711620.140647) can1 0200FD04#0100000000000000
(1789711620.140775) can0 0200FD04#0100000000000000
(1789711620.140768) can1 020004FD#7FFE7FCF7FFF010E
(1789711620.140915) can0 020004FD#80017FD37FFF0104
(1789711620.141459) can1 0200FD05#0100000000000000
(1789711620.141526) can0 0200FD05#0100000000000000
(1789711620.141576) can1 020005FD#90BE7FEC7FFF0118
(1789711620.141704) can0 020005FD#7E787FF27FFF0122
(1789711620.142143) can1 0200FD06#0100000000000000
(1789711620.142332) can0 0200FD06#0100000000000000
(1789711620.142365) can1 020006FD#7FBC801B7FFF0118
(1789711620.142487) can0 020006FD#802D7FF27FFF0122
(1789711620.142968) can1 0200FD07#0100000000000000
(1789711620.143078) can1 020007FD#7FEE80217FFF0118
(1789711620.143084) can0 0200FD07#0100000000000000
(1789711620.143201) can0 020007FD#7A927FE37FFF0122
(1789711620.143756) can1 0200FD08#0100000000000000
(1789711620.143837) can1 020008FD#80897FEE7FFF010E
(1789711620.143878) can0 0200FD08#0100000000000000
(1789711620.144015) can0 020008FD#7EC080367FFF0118
(1789711620.204605) can1 0200FD01#0100000000000000
(1789711620.204610) can0 0200FD01#0100000000000000
(1789711620.204637) can1 020001FD#806F7FF67FFF010E
(1789711620.204705) can0 020001FD#7FA2801E7FFF010E
(1789711620.205274) can0 0200FD02#0100000000000000
(1789711620.205276) can1 0200FD02#0100000000000000
(1789711620.205393) can1 020002FD#8003807B7FFF010E
(1789711620.205454) can0 020002FD#80007F977FFF0118
(1789711620.206045) can0 0200FD03#0100000000000000
(1789711620.206046) can1 0200FD03#0100000000000000
(1789711620.206207) can0 020003FD#80017FDB7FFF0118
(1789711620.206215) can1 020003FD#82B880257FFF010E
(1789711620.206861) can0 0200FD04#0100000000000000
(1789711620.206895) can0 020004FD#80017F5D7FFF0104
(1789711620.206904) can1 0200FD04#0100000000000000
(1789711620.206995) can1 020004FD#7FFE7F967FFF010E
(1789711620.207646) can0 0200FD05#0100000000000000
(1789711620.207753) can0 020005FD#7E787FDC7FFF0122
(1789711620.207784) can1 0200FD05#0100000000000000
(1789711620.207869) can1 020005FD#90BE7FD47FFF0118
(1789711620.208394) can0 0200FD06#0100000000000000
(1789711620.208521) can1 0200FD06#0100000000000000
(1789711620.208578) can0 020006FD#802D7FFF7FFF0122
(1789711620.208703) can1 020006FD#7FBC7FE97FFF0118
(1789711620.209145) can0 0200FD07#0100000000000000
(1789711620.209338) can1 0200FD07#0100000000000000
(1789711620.209340) can0 020007FD#7A9280137FFF0122
(1789711620.209458) can1 020007FD#7FEE80277FFF0118
(1789711620.210018) can0 0200FD08#0100000000000000
(1789711620.210079) can1 0200FD08#0100000000000000
(1789711620.210112) can0 020008FD#7EC07FCF7FFF0118
(1789711620.210230) can1 020008FD#8089801F7FFF010E
(1789711620.272927) can1 0200FD01#0100000000000000
(1789711620.272996) can0 0200FD01#0100000000000000
(1789711620.272937) can1 020001FD#806F80287FFF010E
(1789711620.272999) can0 020001FD#7FA180757FFF010E
(1789711620.273649) can1 0200FD02#0100000000000000
(1789711620.273771) can1 020002FD#800380157FFF010E
(1789711620.273832) can0 0200FD02#0100000000000000
(1789711620.273985) can0 020002FD#80017FF17FFF0118
(1789711620.274468) can1 0200FD03#0100000000000000
(1789711620.274592) can1 020003FD#82B880257FFF010E
(1789711620.274622) can0 0200FD03#0100000000000000
(1789711620.274655) can0 020003FD#80017FB17FFF0118
(1789711620.275218) can1 0200FD04#0100000000000000
(1789711620.275353) can1 020004FD#7FFE7F407FFF010E
(1789711620.275459) can0 0200FD04#0100000000000000
(1789711620.275601) can0 020004FD#800180CD7FFF0104
(1789711620.276019) can1 0200FD05#0100000000000000
(1789711620.276133) can1 020005FD#90BE7FF27FFF0118
(1789711620.276208) can0 0200FD05#0100000000000000
(1789711620.276370) can0 020005FD#7E78800E7FFF0122
(1789711620.276834) can1 0200FD06#0100000000000000
(1789711620.276865) can1 020006FD#7FBC80397FFF0118
(1789711620.277017) can0 0200FD06#0100000000000000
(1789711620.277130) can0 020006FD#802D800D7FFF0122
(1789711620.277587) can1 0200FD07#0100000000000000
(1789711620.277718) can1 020007FD#7FEE7FBB7FFF0118
(1789711620.277771) can0 0200FD07#0100000000000000
(1789711620.277954) can0 020007FD#7A9280037FFF0122
(1789711620.278341) can1 0200FD08#0100000000000000
(1789711620.278456) can1 020008FD#80897FF57FFF010E
(1789711620.278514) can0 0200FD08#0100000000000000
(1789711620.278594) can0 020008FD#7EC07FE07FFF0118
(1789711620.338140) can1 0200FD01#0100000000000000
(1789711620.338153) can0 0200FD01#0100000000000000
(1789711620.338173) can1 020001FD#806F80067FFF010E
(1789711620.338184) can0 020001FD#7FA180637FFF010E
(1789711620.338658) can1 0200FD02#0100000000000000
(1789711620.338776) can0 0200FD02#0100000000000000
(1789711620.338858) can1 020002FD#8004808A7FFF010E
(1789711620.338894) can0 020002FD#80007F6C7FFF0118
(1789711620.339551) can1 0200FD03#0100000000000000
(1789711620.339588) can0 0200FD03#0100000000000000
(1789711620.339564) can1 020003FD#82B880037FFF010E
(1789711620.339652) can0 020003FD#8001801A7FFF0118
(1789711620.340282) can1 0200FD04#0100000000000000
(1789711620.340365) can0 0200FD04#0100000000000000
(1789711620.340399) can1 020004FD#7FFE7F937FFF010E
(1789711620.340481) can0 020004FD#8002805A7FFF0104
(1789711620.341033) can1 0200FD05#0100000000000000
(1789711620.341145) can0 0200FD05#0100000000000000
(1789711620.341220) can1 020005FD#90BE7FBA7FFF0118
(1789711620.341338) can0 020005FD#7E787FE47FFF0122
(1789711620.341909) can1 0200FD06#0100000000000000
(1789711620.341911) can0 0200FD06#0100000000000000
(1789711620.342026) can1 020006FD#7FBD80207FFF0118
(1789711620.342084) can0 020006FD#802D800B7FFF0122
(1789711620.342779) can1 0200FD07#0100000000000000
(1789711620.342784) can0 0200FD07#0100000000000000
(1789711620.342838) can1 020007FD#7FEE7FC17FFF0118
(1789711620.342979) can0 020007FD#7A927FF67FFF0122
(1789711620.343554) can1 0200FD08#0100000000000000
(1789711620.343561) can0 0200FD08#0100000000000000
(1789711620.343624) can1 020008FD#80897FF87FFF010E
(1789711620.343607) can0 020008FD#7EC080117FFF0118
(1789711620.407292) can1 0200FD01#0100000000000000
(1789711620.407345) can0 0200FD01#0100000000000000
(1789711620.407475) can1 020001FD#806F80897FFF010E
(1789711620.407484) can0 020001FD#7FA180537FFF010E
(1789711620.408039) can1 0200FD02#0100000000000000
(1789711620.408147) can0 0200FD02#0100000000000000
(1789711620.408222) can1 020002FD#80037FF47FFF010E
(1789711620.408347) can0 020002FD#80017F877FFF0118
(1789711620.408914) can1 0200FD03#0100000000000000
(1789711620.408998) can0 0200FD03#0100000000000000
(1789711620.409031) can0 020003FD#80017FB97FFF0118
(1789711620.409092) can1 020003FD#82B87FD17FFF010E
(1789711620.409772) can0 0200FD04#0100000000000000
(1789711620.409840) can1 0200FD04#0100000000000000
(1789711620.409842) can1 020004FD#7FFE7FE37FFF010E
(1789711620.409891) can0 020004FD#800280197FFF0104
(1789711620.410527) can0 0200FD05#0100000000000000
(1789711620.410635) can1 0200FD05#0100000000000000
(1789711620.410693) can0 020005FD#7E787FC67FFF0122
(1789711620.410688) can1 020005FD#90BE801A7FFF0118
(1789711620.411354) can0 0200FD06#0100000000000000
(1789711620.411411) can1 0200FD06#0100000000000000
(1789711620.411471) can0 020006FD#802D80187FFF0122
(1789711620.411528) can1 020006FD#7FBC7FD67FFF0118
(1789711620.412154) can0 0200FD07#0100000000000000
(1789711620.412155) can1 0200FD07#0100000000000000
(1789711620.412358) can0 020007FD#7A92800E7FFF0122
(1789711620.412364) can1 020007FD#7FEE80387FFF0118
(1789711620.412975) can1 0200FD08#0100000000000000
(1789711620.413000) can1 020008FD#80897FE87FFF010E
(1789711620.413005) can0 0200FD08#0100000000000000
(1789711620.413032) can0 020008FD#7EC080417FFF0118
(1789711620.476566) can1 0200FD01#0100000000000000
(1789711620.476669) can1 020001FD#806F80087FFF010E
(1789711620.476661) can0 0200FD01#0100000000000000
(1789711620.476723) can0 020001FD#7FA180667FFF010E
(1789711620.477372) can1 0200FD02#0100000000000000
(1789711620.477475) can1 020002FD#8003801C7FFF010E
(1789711620.477481) can0 0200FD02#0100000000000000
(1789711620.477506) can0 020002FD#80007FF97FFF0118
(1789711620.478164) can1 0200FD03#0100000000000000
(1789711620.478275) can0 0200FD03#0100000000000000
(1789711620.478345) can1 020003FD#82B87FDE7FFF010E
(1789711620.478469) can0 020003FD#80007FE17FFF0118
(1789711620.478913) can1 0200FD04#0100000000000000
(1789711620.479020) can0 0200FD04#0100000000000000
(1789711620.479091) can1 020004FD#7FFE7F467FFF010E
(1789711620.479135) can0 020004FD#80017F9A7FFF0104
(1789711620.479849) can1 0200FD05#0100000000000000
(1789711620.479896) can0 0200FD05#0100000000000000
(1789711620.479855) can1 020005FD#90BE7FF57FFF0118
(1789711620.479984) can0 020005FD#7E78800E7FFF0122
(1789711620.480534) can1 0200FD06#0100000000000000
(1789711620.480535) can0 0200FD06#0100000000000000
(1789711620.480740) can1 020006FD#7FBC80127FFF0118
(1789711620.480755) can0 020006FD#802D7FEF7FFF0122
(1789711620.481357) can1 0200FD07#0100000000000000
(1789711620.481359) can0 0200FD07#0100000000000000
(1789711620.481472) can1 020007FD#7FEE80227FFF0118
(1789711620.481502) can0 020007FD#7A9280227FFF0122
(1789711620.482102) can0 0200FD08#0100000000000000
(1789711620.482144) can1 0200FD08#0100000000000000
(1789711620.482216) can0 020008FD#7EC07FC97FFF0118
(1789711620.482258) can1 020008FD#80897FF97FFF010E
(1789711620.548949) can1 0200FD01#0100000000000000
(1789711620.548982) can0 0200FD01#0100000000000000
(1789711620.548975) can1 020001FD#806F7FCF7FFF010E
(1789711620.549038) can0 020001FD#7FA17FE17FFF010E
(1789711620.549674) can1 0200FD02#0100000000000000
(1789711620.549729) can0 0200FD02#0100000000000000
(1789711620.549788) can1 020002FD#80037F757FFF010E
(1789711620.549918) can0 020002FD#800180267FFF0118
(1789711620.550460) can0 0200FD03#0100000000000000
(1789711620.550461) can1 0200FD03#0100000000000000
(1789711620.550527) can1 020003FD#82B8800D7FFF010E
(1789711620.550560) can0 020003FD#8001803C7FFF0118
(1789711620.550987) can0 0200FD04#0100000000000000
(1789711620.551035) can1 0200FD04#0100000000000000
(1789711620.551211) can1 020004FD#7FFE80C37FFF010E
(1789711620.551238) can0 020004FD#80017FFB7FFF0104
(1789711620.551583) can0 0200FD05#0100000000000000
(1789711620.551682) can1 0200FD05#0100000000000000
(1789711620.551810) can0 020005FD#7E7880397FFF0122
(1789711620.551857) can1 020005FD#90BE800D7FFF0118
(1789711620.552136) can0 0200FD06#0100000000000000
(1789711620.552293) can1 0200FD06#0100000000000000
(1789711620.552428) can0 020006FD#802D80077FFF0122
(1789711620.552471) can1 020006FD#7FBC7FDD7FFF0118
(1789711620.552743) can0 0200FD07#0100000000000000
(1789711620.552868) can1 0200FD07#0100000000000000
(1789711620.552917) can0 020007FD#7A927FE07FFF0122
(1789711620.553101) can1 020007FD#7FEE802B7FFF0118
(1789711620.553358) can0 0200FD08#0100000000000000
(1789711620.553467) can0 020008FD#7EC07FF57FFF0118
(1789711620.553499) can1 0200FD08#0100000000000000
(1789711620.553566) can1 020008FD#80897FF47FFF010E
(1789711620.614197) can1 0200FD01#0100000000000000
(1789711620.614435) can1 020001FD#806F80247FFF010E
(1789711620.614382) can0 0200FD01#0100000000000000
(1789711620.614492) can0 020001FD#7FA180257FFF010E
(1789711620.615014) can1 0200FD02#0100000000000000
(1789711620.615017) can1 020002FD#800380127FFF010E
(1789711620.615041) can0 0200FD02#0100000000000000
(1789711620.615163) can0 020002FD#800180127FFF0118
(1789711620.615852) can0 0200FD03#0100000000000000
(1789711620.615884) can0 020003FD#80017F8F7FFF0118
(1789711620.615886) can1 0200FD03#0100000000000000
(1789711620.615917) can1 020003FD#82B880637FFF010E
(1789711620.616670) can1 0200FD04#0100000000000000
(1789711620.616670) can0 0200FD04#0100000000000000
(1789711620.616791) can1 020004FD#7FFE802C7FFF010E
(1789711620.616849) can0 020004FD#800280267FFF0104
(1789711620.617364) can1 0200FD05#0100000000000000
(1789711620.617364) can0 0200FD05#0100000000000000
(1789711620.617538) can1 020005FD#90BE80487FFF0118
(1789711620.617607) can0 020005FD#7E78800D7FFF0122
(1789711620.617910) can1 0200FD06#0100000000000000
(1789711620.617943) can0 0200FD06#0100000000000000
(1789711620.618146) can1 020006FD#7FBC7FE07FFF0118
(1789711620.618179) can0 020006FD#802D80277FFF0122
(1789711620.618494) can0 0200FD07#0100000000000000
(1789711620.618495) can1 0200FD07#0100000000000000
(1789711620.618690) can0 020007FD#7A9280077FFF0122
(1789711620.618707) can1 020007FD#7FEE7FE77FFF0118
(1789711620.619040) can0 0200FD08#0100000000000000
(1789711620.619074) can1 0200FD08#0100000000000000
(1789711620.619193) can0 020008FD#7EC080147FFF0118
(1789711620.619225) can1 020008FD#808980187FFF010E
(1789711620.675175) can1 0200FD01#0100000000000000
(1789711620.675231) can0 0200FD01#0100000000000000
(1789711620.675362) can1 020001FD#806F804A7FFF010E
(1789711620.675369) can0 020001FD#7FA180307FFF010E
(1789711620.675982) can1 0200FD02#0100000000000000
(1789711620.676015) can1 020002FD#8003802C7FFF010E
(1789711620.676048) can0 0200FD02#0100000000000000
(1789711620.676235) can0 020002FD#8001801A7FFF0118
(1789711620.676862) can1 0200FD03#0100000000000000
(1789711620.676891) can1 020003FD#82B880177FFF010E
(1789711620.676894) can0 0200FD03#0100000000000000
(1789711620.676923) can0 020003FD#8000803A7FFF0118
(1789711620.677676) can1 0200FD04#0100000000000000
(1789711620.677679) can0 0200FD04#0100000000000000
(1789711620.677778) can1 020004FD#7FFE80457FFF010E
(1789711620.677854) can0 020004FD#8002808C7FFF0104
(1789711620.678483) can0 0200FD05#0100000000000000
(1789711620.678484) can1 0200FD05#0100000000000000
(1789711620.678607) can1 020005FD#90BE80007FFF0118
(1789711620.678639) can0 020005FD#7E78803B7FFF0122
(1789711620.679252) can0 0200FD06#0100000000000000
(1789711620.679297) can1 0200FD06#0100000000000000
(1789711620.679373) can0 020006FD#802D7FF97FFF0122
(1789711620.679484) can1 020006FD#7FBC7FE57FFF0118
(1789711620.679983) can0 0200FD07#0100000000000000
(1789711620.679985) can1 0200FD07#0100000000000000
(1789711620.680233) can0 020007FD#7A9280387FFF0122
(1789711620.680265) can1 020007FD#7FEE7FC77FFF0118
(1789711620.680792) can1 0200FD08#0100000000000000
(1789711620.680872) can1 020008FD#80897FF17FFF010E
(1789711620.680904) can0 0200FD08#0100000000000000
(1789711620.680905) can0 020008FD#7EC07FD87FFF0118
(1789711620.737125) can1 0200FD01#0100000000000000
(1789711620.737152) can1 020001FD#806F7FC67FFF010E
(1789711620.737157) can0 0200FD01#0100000000000000
(1789711620.737177) can0 020001FD#7FA17FEE7FFF010E
(1789711620.737937) can0 0200FD02#0100000000000000
(1789711620.737938) can1 0200FD02#0100000000000000
(1789711620.738112) can0 020002FD#80017F737FFF0118
(1789711620.738118) can1 020002FD#800380757FFF010E
