(1789710236.252155) can0 0200FD01#0100000000000000
(1789710236.252156) can1 0200FD01#0100000000000000
(1789710236.252264) can1 020001FD#80747FFC7FFF0104
(1789710236.252318) can0 020001FD#7F527FA27FFF0104
(1789710236.252713) can0 0200FD02#0100000000000000
(1789710236.252745) can1 0200FD02#0100000000000000
(1789710236.252947) can0 020002FD#7FDD801E7FFF0104
(1789710236.252979) can1 020002FD#80017FA27FFF0104
(1789710236.253277) can0 0200FD03#0100000000000000
(1789710236.253334) can1 0200FD03#0100000000000000
(1789710236.253521) can0 020003FD#7FFF7FE37FFF0104
(1789710236.253574) can1 020003FD#82B880257FFF0104
(1789710236.253849) can0 0200FD04#0100000000000000
(1789710236.253892) can1 0200FD04#0100000000000000
(1789710236.254133) can1 020004FD#7FFF81027FFF0104
(1789710236.254166) can0 020004FD#800580707FFF00FA
(1789710236.254503) can0 0200FD05#0100000000000000
(1789710236.254535) can1 0200FD05#0100000000000000
(1789710236.254671) can0 020005FD#7E617FF27FFF00FA
(1789710236.254751) can1 020005FD#90BE7FD27FFF0104
(1789710236.255154) can0 0200FD06#0100000000000000
(1789710236.255156) can1 0200FD06#0100000000000000
(1789710236.255269) can0 020006FD#83E380017FFF00FA
(1789710236.255328) can1 020006FD#7FBB7FC07FFF00FA
(1789710236.255716) can0 0200FD07#0100000000000000
(1789710236.255780) can1 0200FD07#0100000000000000
(1789710236.255949) can0 020007FD#7BFE7FFD7FFF00FA
(1789710236.255982) can1 020007FD#7FEB7FEE7FFF00FA
(1789710236.256345) can0 0200FD08#0100000000000000
(1789710236.256407) can1 0200FD08#0100000000000000
(1789710236.256494) can0 020008FD#8074800A7FFF00FA
(1789710236.256532) can1 020008FD#808980047FFF0104
(1789710236.329619) can1 0200FD01#0100000000000000
(1789710236.329675) can0 0200FD01#0100000000000000
(1789710236.329862) can1 020001FD#80747FFC7FFF0104
(1789710236.329919) can0 020001FD#7F5180527FFF0104
(1789710236.330216) can1 0200FD02#0100000000000000
(1789710236.330289) can0 0200FD02#0100000000000000
(1789710236.330394) can1 020002FD#800280607FFF0104
(1789710236.330462) can0 020002FD#7FDD7FD57FFF0104
(1789710236.330775) can1 0200FD03#0100000000000000
(1789710236.330846) can0 0200FD03#0100000000000000
(1789710236.331037) can1 020003FD#82B87FA37FFF0104
(1789710236.331131) can0 020003FD#7FFF7FD67FFF0104
(1789710236.331334) can1 0200FD04#0100000000000000
(1789710236.331436) can0 0200FD04#0100000000000000
(1789710236.331572) can1 020004FD#7FFE7F5A7FFF0104
(1789710236.331672) can0 020004FD#80047F697FFF00FA
(1789710236.331931) can1 0200FD05#0100000000000000
(1789710236.331983) can0 0200FD05#0100000000000000
(1789710236.332134) can1 020005FD#90BE7FEF7FFF0104
(1789710236.332194) can0 020005FD#7E6180067FFF0104
(1789710236.332524) can1 0200FD06#0100000000000000
(1789710236.332650) can0 0200FD06#0100000000000000
(1789710236.332769) can1 020006FD#7FBC80347FFF00FA
(1789710236.332828) can0 020006FD#83E47FF67FFF00FA
(1789710236.333155) can1 0200FD07#0100000000000000
(1789710236.333282) can0 0200FD07#0100000000000000
(1789710236.333331) can1 020007FD#7FEB7FE07FFF00FA
(1789710236.333458) can0 020007FD#7BFE800C7FFF00FA
(1789710236.333718) can1 0200FD08#0100000000000000
(1789710236.333838) can0 0200FD08#0100000000000000
(1789710236.333879) can1 020008FD#80897FD37FFF0104
(1789710236.334029) can0 020008FD#80747FE17FFF00FA
(1789710236.392421) can1 0200FD01#0100000000000000
(1789710236.392467) can0 0200FD01#0100000000000000
(1789710236.392654) can1 020001FD#807480367FFF0104
(1789710236.392699) can0 020001FD#7F5180597FFF0104
(1789710236.392969) can1 0200FD02#0100000000000000
(1789710236.393008) can0 0200FD02#0100000000000000
(1789710236.393202) can1 020002FD#800280D07FFF0104
(1789710236.393275) can0 020002FD#7FDD7FF67FFF0104
(1789710236.393582) can1 0200FD03#0100000000000000
(1789710236.393618) can0 0200FD03#0100000000000000
(1789710236.393817) can1 020003FD#82B8801E7FFF0104
(1789710236.393846) can0 020003FD#800080557FFF0104
(1789710236.394163) can1 0200FD04#0100000000000000
(1789710236.394217) can0 0200FD04#0100000000000000
(1789710236.394394) can0 020004FD#80047FD77FFF00FA
(1789710236.394423) can1 020004FD#7FFE7F597FFF0104
(1789710236.394730) can1 0200FD05#0100000000000000
(1789710236.394781) can0 0200FD05#0100000000000000
(1789710236.394982) can1 020005FD#90BE80327FFF0104
(1789710236.395044) can0 020005FD#7E607FE77FFF0104
(1789710236.395360) can1 0200FD06#0100000000000000
(1789710236.395363) can0 0200FD06#0100000000000000
(1789710236.395600) can1 020006FD#7FBB7FFB7FFF00FA
(1789710236.395615) can0 020006FD#83E37FD17FFF00FA
(1789710236.395916) can1 0200FD07#0100000000000000
(1789710236.395918) can0 0200FD07#0100000000000000
(1789710236.396142) can0 020007FD#7BFD7FCF7FFF00FA
(1789710236.396171) can1 020007FD#7FEC7FE27FFF00FA
(1789710236.396520) can1 0200FD08#0100000000000000
(1789710236.396561) can0 0200FD08#0100000000000000
(1789710236.396666) can0 020008FD#80747FE97FFF00FA
(1789710236.396698) can1 020008FD#80897FDD7FFF00FA
(1789710236.452631) can1 0200FD01#0100000000000000
(1789710236.452709) can0 0200FD01#0100000000000000
(1789710236.452805) can1 020001FD#80747F6E7FFF0104
(1789710236.452885) can0 020001FD#7F5180627FFF0104
(1789710236.453289) can1 0200FD02#0100000000000000
(1789710236.453317) can0 0200FD02#0100000000000000
(1789710236.453412) can1 020002FD#800280997FFF0104
(1789710236.453470) can0 020002FD#7FDD801A7FFF0104
(1789710236.453858) can0 0200FD03#0100000000000000
(1789710236.453859) can1 0200FD03#0100000000000000
(1789710236.454142) can0 020003FD#800080647FFF0104
(1789710236.454176) can1 020003FD#82B880827FFF0104
(1789710236.454471) can1 0200FD04#0100000000000000
(1789710236.454505) can0 0200FD04#0100000000000000
(1789710236.454682) can0 020004FD#80047F3D7FFF00FA
(1789710236.454715) can1 020004FD#7FFE7F717FFF0104
(1789710236.455102) can1 0200FD05#0100000000000000
(1789710236.455104) can0 0200FD05#0100000000000000
(1789710236.455280) can1 020005FD#90BE7FAC7FFF0104
(1789710236.455314) can0 020005FD#7E607FE67FFF00FA
(1789710236.455662) can1 0200FD06#0100000000000000
(1789710236.455664) can0 0200FD06#0100000000000000
(1789710236.455907) can1 020006FD#7FBB7FE57FFF00FA
(1789710236.455937) can0 020006FD#83E380527FFF00FA
(1789710236.456282) can1 0200FD07#0100000000000000
(1789710236.456314) can0 0200FD07#0100000000000000
(1789710236.456466) can1 020007FD#7FEB7FFE7FFF00FA
(1789710236.456471) can0 020007FD#7BFD80317FFF00FA
(1789710236.456847) can1 0200FD08#0100000000000000
(1789710236.456848) can0 0200FD08#0100000000000000
(1789710236.457038) can0 020008FD#807480267FFF00FA
(1789710236.457043) can1 020008FD#80897FFD7FFF00FA
(1789710236.510878) can1 0200FD01#0100000000000000
(1789710236.510988) can0 0200FD01#0100000000000000
(1789710236.511152) can0 020001FD#7F517FAB7FFF0104
(1789710236.511181) can1 020001FD#80747FB47FFF0104
(1789710236.511486) can1 0200FD02#0100000000000000
(1789710236.511637) can0 0200FD02#0100000000000000
(1789710236.511728) can1 020002FD#80027FD97FFF0104
(1789710236.511809) can0 020002FD#7FDD80297FFF0104
(1789710236.512103) can1 0200FD03#0100000000000000
(1789710236.512288) can1 020003FD#82B8802B7FFF0104
(1789710236.512292) can0 0200FD03#0100000000000000
(1789710236.512395) can0 020003FD#800080627FFF0104
(1789710236.512663) can1 0200FD04#0100000000000000
(1789710236.512830) can0 0200FD04#0100000000000000
(1789710236.512908) can1 020004FD#7FFF80EB7FFF0104
(1789710236.513134) can0 020004FD#80047F3B7FFF00FA
(1789710236.513294) can1 0200FD05#0100000000000000
(1789710236.513421) can1 020005FD#90BE7FC57FFF0104
(1789710236.513426) can0 0200FD05#0100000000000000
(1789710236.513661) can0 020005FD#7E6080217FFF0104
(1789710236.513931) can1 0200FD06#0100000000000000
(1789710236.513984) can0 0200FD06#0100000000000000
(1789710236.514148) can1 020006FD#7FBC7FDB7FFF00FA
(1789710236.514202) can0 020006FD#83E47FF27FFF00FA
(1789710236.514533) can1 0200FD07#0100000000000000
(1789710236.514642) can0 0200FD07#0100000000000000
(1789710236.514769) can1 020007FD#7FEB7FF17FFF00FA
(1789710236.514811) can0 020007FD#7BFD7FFD7FFF00FA
(1789710236.515170) can1 0200FD08#0100000000000000
(1789710236.515234) can1 020008FD#8089802C7FFF0104
(1789710236.515285) can0 0200FD08#0100000000000000
(1789710236.515350) can0 020008FD#8074800D7FFF00FA
(1789710236.568306) can1 0200FD01#0100000000000000
(1789710236.568383) can0 0200FD01#0100000000000000
(1789710236.568478) can1 020001FD#80747FD27FFF0104
(1789710236.568616) can0 020001FD#7F517F767FFF0104
(1789710236.568868) can1 0200FD02#0100000000000000
(1789710236.568940) can0 0200FD02#0100000000000000
(1789710236.569152) can0 020002FD#7FDD806F7FFF0104
(1789710236.569185) can1 020002FD#8002802C7FFF0104
(1789710236.569486) can1 0200FD03#0100000000000000
(1789710236.569552) can0 0200FD03#0100000000000000
(1789710236.569664) can1 020003FD#82B87F587FFF0104
(1789710236.569794) can0 020003FD#7FFF7FE87FFF0104
(1789710236.570106) can1 0200FD04#0100000000000000
(1789710236.570161) can0 0200FD04#0100000000000000
(1789710236.570287) can1 020004FD#7FFE80097FFF0104
(1789710236.570335) can0 020004FD#800581117FFF00FA
(1789710236.570691) can1 0200FD05#0100000000000000
(1789710236.570792) can0 0200FD05#0100000000000000
(1789710236.570864) can1 020005FD#90BE7FEC7FFF0104
(1789710236.570909) can0 020005FD#7E607FD17FFF0104
(1789710236.571309) can1 0200FD06#0100000000000000
(1789710236.571425) can0 0200FD06#0100000000000000
(1789710236.571479) can1 020006FD#7FBB7FE87FFF00FA
(1789710236.571660) can0 020006FD#83E380157FFF00FA
(1789710236.571863) can1 0200FD07#0100000000000000
(1789710236.571983) can0 0200FD07#0100000000000000
(1789710236.572148) can1 020007FD#7FEB7FE87FFF00FA
(1789710236.572202) can0 020007FD#7BFE7FFF7FFF00FA
(1789710236.572467) can1 0200FD08#0100000000000000
(1789710236.572634) can1 020008FD#80897FDE7FFF0104
(1789710236.572638) can0 0200FD08#0100000000000000
(1789710236.572747) can0 020008FD#80747FE67FFF00FA
(1789710236.623683) can0 0200FD01#0100000000000000
(1789710236.623685) can1 0200FD01#0100000000000000
(1789710236.623853) can1 020001FD#807480717FFF0104
(1789710236.623922) can0 020001FD#7F517FB27FFF0104
(1789710236.624299) can0 0200FD02#0100000000000000
(1789710236.624340) can1 0200FD02#0100000000000000
(1789710236.624470) can0 020002FD#7FDD7FE97FFF0104
(1789710236.624503) can1 020002FD#800280007FFF0104
(1789710236.624868) can0 0200FD03#0100000000000000
(1789710236.624940) can1 0200FD03#0100000000000000
(1789710236.625169) can1 020003FD#82B87FE57FFF0104
(1789710236.625199) can0 020003FD#7FFF7FBA7FFF0104
(1789710236.625548) can0 0200FD04#0100000000000000
(1789710236.625574) can1 0200FD04#0100000000000000
(1789710236.625717) can0 020004FD#80047FBD7FFF00FA
(1789710236.625794) can1 020004FD#7FFE80D07FFF0104
(1789710236.626175) can0 0200FD05#0100000000000000
(1789710236.626237) can1 0200FD05#0100000000000000
(1789710236.626347) can0 020005FD#7E607FDD7FFF00FA
(1789710236.626351) can1 020005FD#90BE7FED7FFF0104
(1789710236.626738) can0 0200FD06#0100000000000000
(1789710236.626812) can1 0200FD06#0100000000000000
(1789710236.626977) can0 020006FD#83E37FF47FFF00FA
(1789710236.627051) can1 020006FD#7FBB7FD97FFF00FA
(1789710236.627425) can0 0200FD07#0100000000000000
(1789710236.627464) can1 0200FD07#0100000000000000
(1789710236.627596) can0 020007FD#7BFD80037FFF00FA
(1789710236.627671) can1 020007FD#7FEB80207FFF00FA
(1789710236.627983) can0 0200FD08#0100000000000000
(1789710236.628013) can1 0200FD08#0100000000000000
(1789710236.628117) can0 020008FD#80747FF87FFF00FA
(1789710236.628149) can1 020008FD#80897FF77FFF00FA
(1789710236.691001) can1 0200FD01#0100000000000000
(1789710236.691115) can0 0200FD01#0100000000000000
(1789710236.691212) can1 020001FD#807480057FFF0104
(1789710236.691306) can0 020001FD#7F517F947FFF0104
(1789710236.691655) can1 0200FD02#0100000000000000
(1789710236.691687) can0 0200FD02#0100000000000000
(1789710236.691829) can1 020002FD#80017F8E7FFF0104
(1789710236.691924) can0 020002FD#7FDD805C7FFF0104
(1789710236.692245) can1 0200FD03#0100000000000000
(1789710236.692296) can0 0200FD03#0100000000000000
(1789710236.692426) can1 020003FD#82B87F477FFF0104
(1789710236.692475) can0 020003FD#7FFF7F687FFF0104
(1789710236.692805) can1 0200FD04#0100000000000000
(1789710236.692869) can0 0200FD04#0100000000000000
(1789710236.693114) can1 020004FD#7FFF806F7FFF0104
(1789710236.693159) can0 020004FD#80047F9B7FFF00FA
(1789710236.693434) can1 0200FD05#0100000000000000
(1789710236.693498) can0 0200FD05#0100000000000000
(1789710236.693669) can1 020005FD#90BF802D7FFF0104
(1789710236.693740) can0 020005FD#7E607FEF7FFF0104
(1789710236.693990) can1 0200FD06#0100000000000000
(1789710236.694112) can0 0200FD06#0100000000000000
(1789710236.694212) can1 020006FD#7FBB80147FFF00FA
(1789710236.694298) can0 020006FD#83E37FE77FFF00FA
(1789710236.694616) can1 0200FD07#0100000000000000
(1789710236.694684) can0 0200FD07#0100000000000000
(1789710236.694851) can1 020007FD#7FEB7FA97FFF00FA
(1789710236.694884) can0 020007FD#7BFD7FDD7FFF00FA
(1789710236.695242) can1 0200FD08#0100000000000000
(1789710236.695300) can0 0200FD08#0100000000000000
(1789710236.695334) can1 020008FD#80897FBC7FFF00FA
(1789710236.695401) can0 020008FD#8074804D7FFF00FA
(1789710236.748269) can1 0200FD01#0100000000000000
(1789710236.748316) can0 0200FD01#0100000000000000
(1789710236.748418) can1 020001FD#807480027FFF0104
(1789710236.748500) can0 020001FD#7F5180197FFF0104
(1789710236.748821) can1 0200FD02#0100000000000000
(1789710236.748877) can0 0200FD02#0100000000000000
(1789710236.749073) can1 020002FD#800280EE7FFF0104
(1789710236.749164) can0 020002FD#7FDD80AD7FFF0104
(1789710236.749443) can1 0200FD03#0100000000000000
(1789710236.749555) can0 0200FD03#0100000000000000
(1789710236.749617) can1 020003FD#82B87F207FFF0104
(1789710236.749741) can0 020003FD#80007FE67FFF0104
(1789710236.749999) can1 0200FD04#0100000000000000
(1789710236.750178) can0 0200FD04#0100000000000000
(1789710236.750224) can1 020004FD#7FFE7F777FFF0104
(1789710236.750348) can0 020004FD#800580807FFF00FA
(1789710236.750613) can1 0200FD05#0100000000000000
(1789710236.750734) can0 0200FD05#0100000000000000
(1789710236.750850) can1 020005FD#90BF80227FFF0104
(1789710236.750991) can0 020005FD#7E617FFE7FFF0104
(1789710236.751190) can1 0200FD06#0100000000000000
(1789710236.751366) can1 020006FD#7FBC80167FFF00FA
(1789710236.751394) can0 0200FD06#0100000000000000
(1789710236.751615) can0 020006FD#83E380297FFF00FA
(1789710236.751740) can1 0200FD07#0100000000000000
(1789710236.751944) can0 0200FD07#0100000000000000
(1789710236.751981) can1 020007FD#7FEB7FD37FFF00FA
(1789710236.752175) can0 020007FD#7BFD7FDA7FFF00FA
(1789710236.752302) can1 0200FD08#0100000000000000
(1789710236.752438) can1 020008FD#808980027FFF0104
(1789710236.752555) can0 0200FD08#0100000000000000
(1789710236.752702) can0 020008FD#8074801A7FFF00FA
(1789710236.810866) can1 0200FD01#0100000000000000
(1789710236.810988) can0 0200FD01#0100000000000000
(1789710236.811133) can1 020001FD#80747FDA7FFF0104
(1789710236.811225) can0 020001FD#7F5180437FFF0104
(1789710236.811463) can1 0200FD02#0100000000000000
(1789710236.811601) can0 0200FD02#0100000000000000
(1789710236.811679) can1 020002FD#80027F7B7FFF0104
(1789710236.811848) can0 020002FD#7FDD7F537FFF0104
(1789710236.812121) can1 0200FD03#0100000000000000
(1789710236.812190) can0 0200FD03#0100000000000000
(1789710236.812225) can1 020003FD#82B980C87FFF0104
(1789710236.812431) can0 020003FD#8000800B7FFF0104
(1789710236.812658) can1 0200FD04#0100000000000000
(1789710236.812744) can0 0200FD04#0100000000000000
(1789710236.812898) can1 020004FD#7FFE7FB97FFF0104
(1789710236.812985) can0 020004FD#8005809C7FFF00FA
(1789710236.813251) can1 0200FD05#0100000000000000
(1789710236.813373) can0 0200FD05#0100000000000000
(1789710236.813427) can1 020005FD#90BE7FD07FFF0104
(1789710236.813613) can0 020005FD#7E6180097FFF00FA
(1789710236.813815) can1 0200FD06#0100000000000000
(1789710236.813932) can0 0200FD06#0100000000000000
(1789710236.814123) can1 020006FD#7FBC80327FFF00FA
(1789710236.814163) can0 020006FD#83E37FE67FFF00FA
(1789710236.814431) can1 0200FD07#0100000000000000
(1789710236.814557) can0 0200FD07#0100000000000000
(1789710236.814676) can1 020007FD#7FEB7F917FFF00FA
(1789710236.814791) can0 020007FD#7BFE7FC07FFF00FA
(1789710236.814987) can1 0200FD08#0100000000000000
(1789710236.815154) can1 020008FD#80897FCD7FFF00FA
(1789710236.815178) can0 0200FD08#0100000000000000
(1789710236.815262) can0 020008FD#80737FC17FFF00FA
(1789710236.875418) can1 0200FD01#0100000000000000
(1789710236.875421) can0 0200FD01#0100000000000000
(1789710236.875600) can0 020001FD#7F517FB47FFF0104
(1789710236.875636) can1 020001FD#807480147FFF0104
(1789710236.875942) can1 0200FD02#0100000000000000
(1789710236.875978) can0 0200FD02#0100000000000000
(1789710236.876172) can0 020002FD#7FDD80407FFF0104
(1789710236.876205) can1 020002FD#800280227FFF0104
(1789710236.876546) can0 0200FD03#0100000000000000
(1789710236.876579) can1 0200FD03#0100000000000000
(1789710236.876792) can0 020003FD#7FFF7F987FFF0104
(1789710236.876825) can1 020003FD#82B87FA07FFF0104
(1789710236.877188) can1 0200FD04#0100000000000000
(1789710236.877189) can0 0200FD04#0100000000000000
(1789710236.877313) can0 020004FD#800480AE7FFF00FA
(1789710236.877360) can1 020004FD#7FFE800D7FFF0104
(1789710236.877751) can1 0200FD05#0100000000000000
(1789710236.877783) can0 0200FD05#0100000000000000
(1789710236.877990) can1 020005FD#90BE7FEA7FFF0104
(1789710236.878022) can0 020005FD#7E60801C7FFF0104
(1789710236.878380) can1 0200FD06#0100000000000000
(1789710236.878441) can0 0200FD06#0100000000000000
(1789710236.878617) can0 020006FD#83E37FC67FFF00FA
(1789710236.878651) can1 020006FD#7FBC80037FFF00FA
(1789710236.878943) can1 0200FD07#0100000000000000
(1789710236.879004) can0 0200FD07#0100000000000000
(1789710236.879180) can1 020007FD#7FEC80257FFF00FA
(1789710236.879231) can0 020007FD#7BFD80057FFF00FA
(1789710236.879559) can1 0200FD08#0100000000000000
(1789710236.879650) can0 0200FD08#0100000000000000
(1789710236.879696) can1 020008FD#80897FC47FFF0104
(1789710236.879751) can0 020008FD#8074804A7FFF00FA
(1789710236.932451) can1 0200FD01#0100000000000000
(1789710236.932499) can0 0200FD01#0100000000000000
(1789710236.932687) can1 020001FD#80747FC77FFF0104
(1789710236.932742) can0 020001FD#7F52804C7FFF0104
(1789710236.933011) can1 0200FD02#0100000000000000
(1789710236.933126) can0 0200FD02#0100000000000000
(1789710236.933234) can1 020002FD#80027F9A7FFF0104
(1789710236.933295) can0 020002FD#7FDD804C7FFF0104
(1789710236.933672) can0 0200FD03#0100000000000000
(1789710236.933706) can1 0200FD03#0100000000000000
(1789710236.933858) can1 020003FD#82B8801F7FFF0104
(1789710236.933904) can0 020003FD#80007FD47FFF0104
(1789710236.934260) can1 0200FD04#0100000000000000
(1789710236.934260) can0 0200FD04#0100000000000000
(1789710236.934438) can0 020004FD#80047F4E7FFF00FA
(1789710236.934491) can1 020004FD#7FFE7FEB7FFF0104
(1789710236.934822) can1 0200FD05#0100000000000000
(1789710236.934823) can0 0200FD05#0100000000000000
(1789710236.934991) can1 020005FD#90BE80277FFF0104
(1789710236.935130) can0 020005FD#7E6180027FFF00FA
(1789710236.935441) can0 0200FD06#0100000000000000
(1789710236.935475) can1 0200FD06#0100000000000000
(1789710236.935684) can0 020006FD#83E480147FFF00FA
(1789710236.935717) can1 020006FD#7FBC7FD27FFF00FA
(1789710236.936001) can0 0200FD07#0100000000000000
(1789710236.936035) can1 0200FD07#0100000000000000
(1789710236.936230) can0 020007FD#7BFD7FD07FFF00FA
(1789710236.936266) can1 020007FD#7FEB803A7FFF00FA
(1789710236.936624) can0 0200FD08#0100000000000000
(1789710236.936626) can1 0200FD08#0100000000000000
(1789710236.936756) can1 020008FD#80897FDC7FFF00FA
(1789710236.936759) can0 020008FD#8074801F7FFF00FA
(1789710236.988199) can1 0200FD01#0100000000000000
(1789710236.988338) can0 0200FD01#0100000000000000
(1789710236.988372) can1 020001FD#8074803F7FFF0104
(1789710236.988499) can0 020001FD#7F517FC17FFF0104
(1789710236.988758) can1 0200FD02#0100000000000000
(1789710236.988884) can0 0200FD02#0100000000000000
(1789710236.988932) can1 020002FD#80027FF27FFF0104
(1789710236.989181) can0 020002FD#7FDE80B37FFF0104
(1789710236.989388) can1 0200FD03#0100000000000000
(1789710236.989480) can0 0200FD03#0100000000000000
(1789710236.989620) can1 020003FD#82B880187FFF0104
(1789710236.989721) can0 020003FD#80007FDE7FFF0104
(1789710236.989944) can1 0200FD04#0100000000000000
(1789710236.990024) can0 0200FD04#0100000000000000
(1789710236.990189) can1 020004FD#7FFE80027FFF0104
(1789710236.990235) can0 020004FD#800580617FFF00FA
(1789710236.990564) can1 0200FD05#0100000000000000
(1789710236.990671) can0 0200FD05#0100000000000000
(1789710236.990815) can1 020005FD#90BE7FFF7FFF0104
(1789710236.990847) can0 020005FD#7E60801C7FFF0104
(1789710236.991135) can1 0200FD06#0100000000000000
(1789710236.991256) can0 0200FD06#0100000000000000
(1789710236.991317) can1 020006FD#7FBB7FFA7FFF00FA
(1789710236.991439) can0 020006FD#83E380157FFF00FA
(1789710236.991705) can1 0200FD07#0100000000000000
(1789710236.991825) can0 0200FD07#0100000000000000
(1789710236.991880) can1 020007FD#7FEB80037FFF00FA
(1789710236.992135) can0 020007FD#7BFD7FD17FFF00FA
(1789710236.992328) can1 0200FD08#0100000000000000
(1789710236.992415) can1 020008FD#80897FBA7FFF0104
(1789710236.992448) can0 0200FD08#0100000000000000
(1789710236.992597) can0 020008FD#80747FFC7FFF00FA
(1789710237.047925) can0 0200FD01#0100000000000000
(1789710237.047968) can1 0200FD01#0100000000000000
(1789710237.048140) can1 020001FD#8074805B7FFF0104
(1789710237.048194) can0 020001FD#7F517FD97FFF0104
(1789710237.048510) can1 0200FD02#0100000000000000
(1789710237.048550) can0 0200FD02#0100000000000000
(1789710237.048728) can0 020002FD#7FDD801F7FFF0104
(1789710237.048760) can1 020002FD#800280427FFF0104
(1789710237.049043) can1 0200FD03#0100000000000000
(1789710237.049198) can0 0200FD03#0100000000000000
(1789710237.049296) can1 020003FD#82B980927FFF0104
(1789710237.049373) can0 020003FD#7FFF80377FFF0104
(1789710237.049678) can1 0200FD04#0100000000000000
(1789710237.049764) can0 0200FD04#0100000000000000
(1789710237.049858) can1 020004FD#7FFF7FE37FFF0104
(1789710237.050002) can0 020004FD#800480167FFF00FA
(1789710237.050274) can1 0200FD05#0100000000000000
(1789710237.050403) can0 0200FD05#0100000000000000
(1789710237.050444) can1 020005FD#90BF7FDF7FFF0104
(1789710237.050646) can0 020005FD#7E6080067FFF0104
(1789710237.050832) can1 0200FD06#0100000000000000
(1789710237.050955) can0 0200FD06#0100000000000000
(1789710237.051134) can1 020006FD#7FBB7FEC7FFF00FA
(1789710237.051190) can0 020006FD#83E37FF87FFF00FA
(1789710237.051451) can1 0200FD07#0100000000000000
(1789710237.051574) can0 0200FD07#0100000000000000
(1789710237.051693) can1 020007FD#7FEC7FE57FFF00FA
(1789710237.051748) can0 020007FD#7BFE80527FFF00FA
(1789710237.052125) can1 0200FD08#0100000000000000
(1789710237.052178) can0 0200FD08#0100000000000000
(1789710237.052213) can1 020008FD#8089800D7FFF0104
(1789710237.052278) can0 020008FD#807480077FFF00FA
(1789710237.110532) can1 0200FD01#0100000000000000
(1789710237.110594) can0 0200FD01#0100000000000000
(1789710237.110770) can1 020001FD#80747FA67FFF0104
(1789710237.110838) can0 020001FD#7F517FAD7FFF0104
(1789710237.111144) can1 0200FD02#0100000000000000
(1789710237.111209) can0 0200FD02#0100000000000000
(1789710237.111323) can1 020002FD#80027F8A7FFF0104
(1789710237.111384) can0 020002FD#7FDD7FA77FFF0104
(1789710237.111703) can1 0200FD03#0100000000000000
(1789710237.111777) can0 0200FD03#0100000000000000
(1789710237.111955) can1 020003FD#82B880F17FFF0104
(1789710237.112086) can0 020003FD#800080387FFF0104
(1789710237.112322) can1 0200FD04#0100000000000000
(1789710237.112390) can0 0200FD04#0100000000000000
(1789710237.112493) can1 020004FD#7FFE7FFD7FFF0104
(1789710237.112627) can0 020004FD#80057FF27FFF00FA
(1789710237.112901) can1 0200FD05#0100000000000000
(1789710237.112969) can0 0200FD05#0100000000000000
(1789710237.113170) can1 020005FD#90BE80107FFF0104
(1789710237.113205) can0 020005FD#7E607FD17FFF00FA
(1789710237.113516) can1 0200FD06#0100000000000000
(1789710237.113576) can0 0200FD06#0100000000000000
(1789710237.113752) can1 020006FD#7FBB7FDD7FFF00FA
(1789710237.113813) can0 020006FD#83E37FCA7FFF00FA
(1789710237.114138) can1 0200FD07#0100000000000000
(1789710237.114202) can0 0200FD07#0100000000000000
(1789710237.114312) can1 020007FD#7FEC7FE27FFF00FA
(1789710237.114374) can0 020007FD#7BFD80457FFF00FA
(1789710237.114676) can1 0200FD08#0100000000000000
(1789710237.114765) can0 0200FD08#0100000000000000
(1789710237.114845) can1 020008FD#808980007FFF0104
(1789710237.114899) can0 020008FD#80747FEB7FFF00FA
(1789710237.175499) can1 0200FD01#0100000000000000
(1789710237.175544) can0 0200FD01#0100000000000000
(1789710237.175716) can1 020001FD#807480117FFF0104
(1789710237.175766) can0 020001FD#7F517FB47FFF0104
(1789710237.176056) can1 0200FD02#0100000000000000
(1789710237.176149) can0 0200FD02#0100000000000000
(1789710237.176256) can1 020002FD#80027FDA7FFF0104
(1789710237.176331) can0 020002FD#7FDD7FD37FFF0104
(1789710237.176709) can1 0200FD03#0100000000000000
(1789710237.176710) can0 0200FD03#0100000000000000
(1789710237.176872) can1 020003FD#82B87F997FFF0104
(1789710237.176954) can0 020003FD#8000803E7FFF0104
(1789710237.177335) can0 0200FD04#0100000000000000
(1789710237.177370) can1 0200FD04#0100000000000000
(1789710237.177455) can1 020004FD#7FFE7FCC7FFF0104
(1789710237.177510) can0 020004FD#80047FBE7FFF00FA
(1789710237.177904) can0 0200FD05#0100000000000000
(1789710237.177939) can1 0200FD05#0100000000000000
(1789710237.178194) can1 020005FD#90BE80227FFF0104
(1789710237.178229) can0 020005FD#7E6080047FFF0104
(1789710237.178511) can0 0200FD06#0100000000000000
(1789710237.178566) can1 0200FD06#0100000000000000
(1789710237.178744) can1 020006FD#7FBC7FCE7FFF00FA
(1789710237.178777) can0 020006FD#83E37FF57FFF00FA
(1789710237.179151) can0 0200FD07#0100000000000000
(1789710237.179220) can1 0200FD07#0100000000000000
(1789710237.179332) can1 020007FD#7FEC803E7FFF00FA
(1789710237.179365) can0 020007FD#7BFD7FE87FFF00FA
(1789710237.179720) can0 0200FD08#0100000000000000
(1789710237.179783) can1 0200FD08#0100000000000000
(1789710237.179848) can0 020008FD#807480137FFF00FA
(1789710237.179933) can1 020008FD#808980077FFF00FA
(1789710237.241596) can1 0200FD01#0100000000000000
(1789710237.241729) can0 0200FD01#0100000000000000
(1789710237.241836) can1 020001FD#80747FF57FFF0104
(1789710237.241902) can0 020001FD#7F5180857FFF0104
(1789710237.242226) can1 0200FD02#0100000000000000
(1789710237.242345) can0 0200FD02#0100000000000000
(1789710237.242406) can1 020002FD#80017F677FFF0104
(1789710237.242523) can0 020002FD#7FDD7FB67FFF0104
(1789710237.242785) can1 0200FD03#0100000000000000
(1789710237.242899) can0 0200FD03#0100000000000000
(1789710237.243017) can1 020003FD#82B87F757FFF0104
(1789710237.243196) can0 020003FD#800080057FFF0104
(1789710237.243400) can1 0200FD04#0100000000000000
(1789710237.243500) can0 0200FD04#0100000000000000
(1789710237.243635) can1 020004FD#7FFE80A67FFF0104
(1789710237.243743) can0 020004FD#80047EFE7FFF00FA
(1789710237.243996) can1 0200FD05#0100000000000000
(1789710237.244051) can0 0200FD05#0100000000000000
(1789710237.244209) can1 020005FD#90BE80267FFF0104
(1789710237.244256) can0 020005FD#7E607FDC7FFF0104
(1789710237.244587) can1 0200FD06#0100000000000000
(1789710237.244628) can0 0200FD06#0100000000000000
(1789710237.244832) can1 020006FD#7FBC803E7FFF00FA
(1789710237.244869) can0 020006FD#83E380157FFF00FA
(1789710237.245145) can1 0200FD07#0100000000000000
(1789710237.245212) can0 0200FD07#0100000000000000
(1789710237.245322) can1 020007FD#7FEB80047FFF00FA
(1789710237.245388) can0 020007FD#7BFD7FE77FFF00FA
(1789710237.245695) can1 0200FD08#0100000000000000
(1789710237.245772) can0 0200FD08#0100000000000000
(1789710237.245844) can1 020008FD#808980087FFF0104
(1789710237.245907) can0 020008FD#807480267FFF00FA
(1789710237.304484) can1 0200FD01#0100000000000000
(1789710237.304652) can1 020001FD#80747FD47FFF0104
(1789710237.304688) can0 0200FD01#0100000000000000
(1789710237.304839) can0 020001FD#7F517FF67FFF0104
(1789710237.305033) can1 0200FD02#0100000000000000
(1789710237.305253) can1 020002FD#80027FE07FFF0104
(1789710237.305286) can0 0200FD02#0100000000000000
(1789710237.305459) can0 020002FD#7FDD806E7FFF0104
(1789710237.305685) can1 0200FD03#0100000000000000
(1789710237.305839) can0 0200FD03#0100000000000000
(1789710237.305872) can1 020003FD#82B8802E7FFF0104
(1789710237.306097) can0 020003FD#800080967FFF0104
(1789710237.306287) can1 0200FD04#0100000000000000
(1789710237.306409) can0 0200FD04#0100000000000000
(1789710237.306463) can1 020004FD#7FFE7F9E7FFF0104
(1789710237.306651) can0 020004FD#800580207FFF00FA
(1789710237.306843) can1 0200FD05#0100000000000000
(1789710237.306963) can0 0200FD05#0100000000000000
(1789710237.307156) can1 020005FD#90BE7FF27FFF0104
(1789710237.307199) can0 020005FD#7E607FFA7FFF0104
(1789710237.307458) can1 0200FD06#0100000000000000
(1789710237.307565) can0 0200FD06#0100000000000000
(1789710237.307690) can1 020006FD#7FBB80187FFF00FA
(1789710237.307801) can0 020006FD#83E37FEB7FFF00FA
(1789710237.308054) can1 0200FD07#0100000000000000
(1789710237.308149) can0 0200FD07#0100000000000000
(1789710237.308256) can1 020007FD#7FEB7FE77FFF00FA
(1789710237.308318) can0 020007FD#7BFE80097FFF00FA
(1789710237.308664) can1 0200FD08#0100000000000000
(1789710237.308727) can0 0200FD08#0100000000000000
(1789710237.308793) can1 020008FD#80897FFD7FFF00FA
(1789710237.308853) can0 020008FD#807480187FFF00FA
(1789710237.363863) can1 0200FD01#0100000000000000
(1789710237.363910) can0 0200FD01#0100000000000000
(1789710237.364146) can0 020001FD#7F527FF17FFF0104
(1789710237.364162) can1 020001FD#80747FF47FFF0104
(1789710237.364466) can0 0200FD02#0100000000000000
(1789710237.364499) can1 0200FD02#0100000000000000
(1789710237.364707) can0 020002FD#7FDD7FFF7FFF0104
(1789710237.364741) can1 020002FD#8002802F7FFF0104
(1789710237.365017) can0 0200FD03#0100000000000000
(1789710237.365050) can1 0200FD03#0100000000000000
(1789710237.365256) can0 020003FD#80007FBE7FFF0104
(1789710237.365260) can1 020003FD#82B880187FFF0104
(1789710237.365637) can0 0200FD04#0100000000000000
(1789710237.365671) can1 0200FD04#0100000000000000
(1789710237.365870) can0 020004FD#800580397FFF00FA
(1789710237.365902) can1 020004FD#7FFE80347FFF0104
(1789710237.366221) can0 0200FD05#0100000000000000
(1789710237.366222) can1 0200FD05#0100000000000000
(1789710237.366397) can0 020005FD#7E6180167FFF0104
(1789710237.366463) can1 020005FD#90BE7FBD7FFF0104
(1789710237.366784) can0 0200FD06#0100000000000000
(1789710237.366818) can1 0200FD06#0100000000000000
(1789710237.367019) can0 020006FD#83E47FF67FFF00FA
(1789710237.367052) can1 020006FD#7FBC80287FFF00FA
(1789710237.367348) can0 0200FD07#0100000000000000
(1789710237.367409) can1 0200FD07#0100000000000000
(1789710237.367588) can0 020007FD#7BFE80037FFF00FA
(1789710237.367644) can1 020007FD#7FEB80077FFF00FA
(1789710237.367916) can0 0200FD08#0100000000000000
(1789710237.367969) can1 0200FD08#0100000000000000
(1789710237.368110) can0 020008FD#80747FE97FFF00FA
(1789710237.368154) can1 020008FD#80897FF67FFF00FA
(1789710237.421978) can1 0200FD01#0100000000000000
(1789710237.422043) can0 0200FD01#0100000000000000
(1789710237.422208) can1 020001FD#80747F887FFF0104
(1789710237.422241) can0 020001FD#7F517F797FFF0104
(1789710237.422594) can1 0200FD02#0100000000000000
(1789710237.422713) can0 0200FD02#0100000000000000
(1789710237.422832) can1 020002FD#8002812F7FFF0104
(1789710237.422884) can0 020002FD#7FDE807C7FFF0104
(1789710237.423234) can1 0200FD03#0100000000000000
(1789710237.423294) can0 0200FD03#0100000000000000
(1789710237.423409) can1 020003FD#82B880227FFF0104
(1789710237.423467) can0 020003FD#7FFF806E7FFF0104
(1789710237.423798) can1 0200FD04#0100000000000000
(1789710237.423855) can0 0200FD04#0100000000000000
(1789710237.424117) can1 020004FD#7FFE80057FFF0104
(1789710237.424156) can0 020004FD#80047FDA7FFF00FA
(1789710237.424416) can1 0200FD05#0100000000000000
(1789710237.424478) can0 0200FD05#0100000000000000
(1789710237.424654) can0 020005FD#7E60801D7FFF0104
(1789710237.424688) can1 020005FD#90BE7FE17FFF0104
(1789710237.424976) can1 0200FD06#0100000000000000
(1789710237.425037) can0 0200FD06#0100000000000000
(1789710237.425219) can1 020006FD#7FBC80117FFF00FA
(1789710237.425264) can0 020006FD#83E37FFF7FFF00FA
(1789710237.425612) can1 0200FD07#0100000000000000
(1789710237.425697) can0 0200FD07#0100000000000000
(1789710237.425784) can1 020007FD#7FEB80297FFF00FA
(1789710237.425872) can0 020007FD#7BFD7FEC7FFF00FA
(1789710237.426222) can1 0200FD08#0100000000000000
(1789710237.426314) can1 020008FD#808980317FFF0104
(1789710237.426355) can0 0200FD08#0100000000000000
(1789710237.426410) can0 020008FD#80747FF47FFF00FA
(1789710237.479343) can1 0200FD01#0100000000000000
(1789710237.479430) can0 0200FD01#0100000000000000
(1789710237.479499) can1 020001FD#80747FD97FFF0104
(1789710237.479668) can0 020001FD#7F517FEE7FFF0104
(1789710237.479860) can1 0200FD02#0100000000000000
(1789710237.479986) can0 0200FD02#0100000000000000
(1789710237.480173) can1 020002FD#800280177FFF0104
(1789710237.480211) can0 020002FD#7FDD80307FFF0104
(1789710237.480479) can1 0200FD03#0100000000000000
(1789710237.480606) can0 0200FD03#0100000000000000
(1789710237.480728) can1 020003FD#82B87FB47FFF0104
(1789710237.480782) can0 020003FD#7FFF7FB47FFF0104
(1789710237.481047) can1 0200FD04#0100000000000000
(1789710237.481228) can0 0200FD04#0100000000000000
(1789710237.481273) can1 020004FD#7FFE80637FFF0104
(1789710237.481399) can0 020004FD#80057FEB7FFF00FA
(1789710237.481708) can1 0200FD05#0100000000000000
(1789710237.481782) can0 0200FD05#0100000000000000
(1789710237.481879) can1 020005FD#90BE7FE47FFF0104
(1789710237.482033) can0 020005FD#7E607FF77FFF0104
(1789710237.482304) can1 0200FD06#0100000000000000
(1789710237.482363) can0 0200FD06#0100000000000000
(1789710237.482479) can1 020006FD#7FBB7FEC7FFF00FA
(1789710237.482607) can0 020006FD#83E480037FFF00FA
(1789710237.482867) can1 0200FD07#0100000000000000
(1789710237.482927) can0 0200FD07#0100000000000000
(1789710237.483172) can1 020007FD#7FEB800E7FFF00FA
(1789710237.483208) can0 020007FD#7BFD7FAB7FFF00FA
(1789710237.483478) can1 0200FD08#0100000000000000
(1789710237.483528) can0 0200FD08#0100000000000000
(1789710237.483646) can1 020008FD#808980197FFF0104
(1789710237.483693) can0 020008FD#807480547FFF00FA
(1789710237.542697) can1 0200FD01#0100000000000000
(1789710237.542724) can0 0200FD01#0100000000000000
(1789710237.542862) can1 020001FD#80747FBF7FFF0104
(1789710237.542900) can0 020001FD#7F5180257FFF0104
(1789710237.543360) can1 0200FD02#0100000000000000
(1789710237.543392) can0 0200FD02#0100000000000000
(1789710237.543480) can1 020002FD#80017F967FFF0104
(1789710237.543511) can0 020002FD#7FDD7FB17FFF0104
(1789710237.543927) can1 0200FD03#0100000000000000
(1789710237.543928) can0 0200FD03#0100000000000000
(1789710237.544216) can0 020003FD#80007FC17FFF0104
(1789710237.544248) can1 020003FD#82B8800A7FFF0104
(1789710237.544546) can1 0200FD04#0100000000000000
(1789710237.544585) can0 0200FD04#0100000000000000
(1789710237.544758) can0 020004FD#80047FA67FFF00FA
(1789710237.544791) can1 020004FD#7FFE7F8E7FFF0104
(1789710237.545160) can1 0200FD05#0100000000000000
(1789710237.545162) can0 0200FD05#0100000000000000
(1789710237.545331) can1 020005FD#90BE7FF17FFF0104
(1789710237.545411) can0 020005FD#7E617FE27FFF0104
(1789710237.545703) can1 0200FD06#0100000000000000
(1789710237.545734) can0 0200FD06#0100000000000000
(1789710237.545942) can1 020006FD#7FBC80257FFF00FA
(1789710237.546003) can0 020006FD#83E380207FFF00FA
(1789710237.546351) can0 0200FD07#0100000000000000
(1789710237.546386) can1 0200FD07#0100000000000000
(1789710237.546473) can1 020007FD#7FEB803B7FFF00FA
(1789710237.546523) can0 020007FD#7BFD7FD67FFF00FA
(1789710237.546926) can0 0200FD08#0100000000000000
(1789710237.546967) can1 0200FD08#0100000000000000
(1789710237.547111) can1 020008FD#80887FCE7FFF00FA
(1789710237.547116) can0 020008FD#807480077FFF00FA
(1789710237.602060) can1 0200FD01#0100000000000000
(1789710237.602231) can0 0200FD01#0100000000000000
(1789710237.602278) can1 020001FD#807480227FFF0104
(1789710237.602346) can0 020001FD#7F517F877FFF0104
(1789710237.602710) can1 0200FD02#0100000000000000
(1789710237.602794) can0 0200FD02#0100000000000000
(1789710237.602882) can1 020002FD#80027F277FFF0104
(1789710237.603034) can0 020002FD#7FDD7FD17FFF0104
(1789710237.603307) can1 0200FD03#0100000000000000
(1789710237.603369) can0 0200FD03#0100000000000000
(1789710237.603489) can1 020003FD#82B880577FFF0104
(1789710237.603543) can0 020003FD#8000804E7FFF0104
(1789710237.603866) can1 0200FD04#0100000000000000
(1789710237.603926) can0 0200FD04#0100000000000000
(1789710237.604170) can1 020004FD#7FFF7F8E7FFF0104
(1789710237.604219) can0 020004FD#800580117FFF00FA
(1789710237.604509) can1 0200FD05#0100000000000000
(1789710237.604612) can0 0200FD05#0100000000000000
(1789710237.604733) can0 020005FD#7E61803F7FFF0104
(1789710237.604766) can1 020005FD#90BE7FB57FFF0104
(1789710237.605054) can1 0200FD06#0100000000000000
(1789710237.605234) can0 0200FD06#0100000000000000
(1789710237.605272) can1 020006FD#7FBC80127FFF00FA
(1789710237.605405) can0 020006FD#83E37FB07FFF00FA
(1789710237.605664) can1 0200FD07#0100000000000000
(1789710237.605861) can0 0200FD07#0100000000000000
(1789710237.605901) can1 020007FD#7FEB801D7FFF00FA
(1789710237.606039) can0 020007FD#7BFD7FCA7FFF00FA
(1789710237.606234) can1 0200FD08#0100000000000000
(1789710237.606373) can1 020008FD#808980377FFF00FA
(1789710237.606481) can0 0200FD08#0100000000000000
(1789710237.606620) can0 020008FD#80747FEB7FFF00FA
(1789710237.677346) can1 0200FD01#0100000000000000
(1789710237.677383) can0 0200FD01#0100000000000000
(1789710237.677501) can1 020001FD#80747FED7FFF0104
(1789710237.677561) can0 020001FD#7F5180107FFF0104
(1789710237.677878) can1 0200FD02#0100000000000000
(1789710237.678007) can0 0200FD02#0100000000000000
(1789710237.678189) can1 020002FD#800280417FFF0104
(1789710237.678222) can0 020002FD#7FDD7FFA7FFF0104
(1789710237.678503) can1 0200FD03#0100000000000000
(1789710237.678608) can0 0200FD03#0100000000000000
(1789710237.678741) can1 020003FD#82B87F4A7FFF0104
(1789710237.678843) can0 020003FD#80007F8B7FFF0104
(1789710237.679166) can1 0200FD04#0100000000000000
(1789710237.679234) can0 0200FD04#0100000000000000
(1789710237.679281) can1 020004FD#7FFF7F827FFF0104
(1789710237.679345) can0 020004FD#80047FDD7FFF00FA
(1789710237.679740) can1 0200FD05#0100000000000000
(1789710237.679791) can0 0200FD05#0100000000000000
(1789710237.679918) can1 020005FD#90BE7FEA7FFF0104
(1789710237.680038) can0 020005FD#7E607FE37FFF0104
(1789710237.680375) can1 0200FD06#0100000000000000
(1789710237.680406) can0 0200FD06#0100000000000000
(1789710237.680542) can1 020006FD#7FBB7FEB7FFF00FA
(1789710237.680575) can0 020006FD#83E3801F7FFF00FA
(1789710237.680952) can0 0200FD07#0100000000000000
(1789710237.680999) can1 0200FD07#0100000000000000
(1789710237.681236) can1 020007FD#7FEB7FDF7FFF00FA
(1789710237.681269) can0 020007FD#7BFD80077FFF00FA
(1789710237.681631) can1 0200FD08#0100000000000000
(1789710237.681633) can0 0200FD08#0100000000000000
(1789710237.681719) can0 020008FD#80747FEC7FFF00FA
(1789710237.681751) can1 020008FD#80897FED7FFF00FA
(1789710237.740848) can1 0200FD01#0100000000000000
(1789710237.740889) can0 0200FD01#0100000000000000
(1789710237.741017) can1 020001FD#80747F8E7FFF0104
(1789710237.741135) can0 020001FD#7F517FD67FFF0104
(1789710237.741443) can1 0200FD02#0100000000000000
(1789710237.741444) can0 0200FD02#0100000000000000
(1789710237.741680) can0 020002FD#7FDD80567FFF0104
(1789710237.741712) can1 020002FD#80027F997FFF0104
(1789710237.742009) can0 0200FD03#0100000000000000
(1789710237.742011) can1 0200FD03#0100000000000000
(1789710237.742226) can0 020003FD#7FFF7F4C7FFF0104
(1789710237.742260) can1 020003FD#82B87FC77FFF0104
(1789710237.742600) can1 0200FD04#0100000000000000
(1789710237.742601) can0 0200FD04#0100000000000000
(1789710237.742829) can1 020004FD#7FFE805B7FFF0104
(1789710237.742863) can0 020004FD#80047F6B7FFF00FA
(1789710237.743249) can1 0200FD05#0100000000000000
(1789710237.743250) can0 0200FD05#0100000000000000
(1789710237.743370) can1 020005FD#90BE7FF77FFF0104
(1789710237.743376) can0 020005FD#7E6180177FFF0104
(1789710237.743814) can0 0200FD06#0100000000000000
(1789710237.743865) can1 0200FD06#0100000000000000
(1789710237.744040) can1 020006FD#7FBC802D7FFF00FA
(1789710237.744072) can0 020006FD#83E380117FFF00FA
(1789710237.744439) can1 0200FD07#0100000000000000
(1789710237.744501) can0 0200FD07#0100000000000000
(1789710237.744673) can1 020007FD#7FEB7FFF7FFF00FA
(1789710237.744705) can0 020007FD#7BFE7FE17FFF00FA
(1789710237.745001) can1 0200FD08#0100000000000000
(1789710237.745066) can0 0200FD08#0100000000000000
(1789710237.745180) can1 020008FD#808980027FFF00FA
(1789710237.745211) can0 020008FD#807480177FFF00FA
(1789710237.807444) can1 0200FD01#0100000000000000
(1789710237.807573) can0 0200FD01#0100000000000000
(1789710237.807689) can1 020001FD#80747FA37FFF0104
(1789710237.807804) can0 020001FD#7F5180627FFF0104
(1789710237.808026) can1 0200FD02#0100000000000000
(1789710237.808176) can0 0200FD02#0100000000000000
(1789710237.808239) can1 020002FD#800280017FFF0104
(1789710237.808351) can0 020002FD#7FDE802C7FFF0104
(1789710237.808608) can1 0200FD03#0100000000000000
(1789710237.808750) can0 0200FD03#0100000000000000
(1789710237.808852) can1 020003FD#82B87FED7FFF0104
(1789710237.808931) can0 020003FD#80007FD47FFF0104
(1789710237.809181) can1 0200FD04#0100000000000000
(1789710237.809372) can1 020004FD#7FFE7FD47FFF0104
(1789710237.809376) can0 0200FD04#0100000000000000
(1789710237.809547) can0 020004FD#80047FAE7FFF00FA
(1789710237.809730) can1 0200FD05#0100000000000000
(1789710237.809977) can1 020005FD#90BF7FB97FFF0104
(1789710237.810003) can0 0200FD05#0100000000000000
(1789710237.810237) can0 020005FD#7E6180097FFF0104
(1789710237.810307) can1 0200FD06#0100000000000000
(1789710237.810484) can1 020006FD#7FBC7FF87FFF00FA
(1789710237.810623) can0 0200FD06#0100000000000000
(1789710237.810858) can1 0200FD07#0100000000000000
(1789710237.810894) can0 020006FD#83E380007FFF00FA
(1789710237.811153) can1 020007FD#7FEB801B7FFF00FA
(1789710237.811249) can0 0200FD07#0100000000000000
(1789710237.811441) can1 0200FD08#0100000000000000
(1789710237.811375) can0 020007FD#7BFE800D7FFF00FA
(1789710237.811626) can1 020008FD#8089801F7FFF0104
(1789710237.811818) can0 0200FD08#0100000000000000
(1789710237.811974) can0 020008FD#807480257FFF00FA
(1789710237.871410) can1 0200FD01#0100000000000000
(1789710237.871496) can0 0200FD01#0100000000000000
(1789710237.871560) can1 020001FD#807480587FFF0104
(1789710237.871624) can0 020001FD#7F5180287FFF0104
(1789710237.872196) can1 0200FD02#0100000000000000
(1789710237.872241) can0 0200FD02#0100000000000000
(1789710237.872319) can1 020002FD#80027F737FFF0104
(1789710237.872363) can0 020002FD#7FDD7F607FFF0104
(1789710237.872985) can1 0200FD03#0100000000000000
(1789710237.872986) can0 0200FD03#0100000000000000
(1789710237.873175) can0 020003FD#80007FF87FFF0104
(1789710237.873180) can1 020003FD#82B8802D7FFF0104
(1789710237.873800) can0 0200FD04#0100000000000000
(1789710237.873832) can0 020004FD#80057FCE7FFF00FA
(1789710237.873835) can1 0200FD04#0100000000000000
(1789710237.873865) can1 020004FD#7FFE7F427FFF0104
(1789710237.874615) can1 0200FD05#0100000000000000
(1789710237.874675) can0 0200FD05#0100000000000000
(1789710237.874707) can0 020005FD#7E6180027FFF00FA
(1789710237.874742) can1 020005FD#90BE80017FFF0104
(1789710237.875372) can1 0200FD06#0100000000000000
(1789710237.875487) can0 0200FD06#0100000000000000
(1789710237.875554) can1 020006FD#7FBB7FFC7FFF00FA
(1789710237.875593) can0 020006FD#83E4801B7FFF00FA
(1789710237.876175) can1 0200FD07#0100000000000000
(1789710237.876229) can0 0200FD07#0100000000000000
(1789710237.876299) can1 020007FD#7FEC80097FFF00FA
(1789710237.876333) can0 020007FD#7BFE800F7FFF00FA
(1789710237.876981) can1 0200FD08#0100000000000000
(1789710237.876982) can0 0200FD08#0100000000000000
(1789710237.877060) can0 020008FD#8074801A7FFF00FA
(1789710237.877173) can1 020008FD#808980357FFF0104
(1789710237.932751) can1 0200FD01#0100000000000000
(1789710237.932865) can0 0200FD01#0100000000000000
(1789710237.932869) can1 020001FD#80747FFB7FFF0104
(1789710237.933056) can0 020001FD#7F517FEE7FFF0104
(1789710237.933612) can1 0200FD02#0100000000000000
(1789710237.933721) can1 020002FD#800280337FFF0104
(1789710237.933751) can0 0200FD02#0100000000000000
(1789710237.933842) can0 020002FD#7FDD7FB87FFF0104
(1789710237.934364) can1 0200FD03#0100000000000000
(1789710237.934490) can1 020003FD#82B87F907FFF0104
(1789710237.934609) can0 0200FD03#0100000000000000
(1789710237.934727) can0 020003FD#80007FB77FFF0104
(1789710237.935234) can1 0200FD04#0100000000000000
(1789710237.935301) can1 020004FD#7FFE800E7FFF0104
(1789710237.935370) can0 0200FD04#0100000000000000
(1789710237.935555) can0 020004FD#800580857FFF00FA
(1789710237.935989) can1 0200FD05#0100000000000000
(1789710237.936176) can1 020005FD#90BE80077FFF0104
(1789710237.936245) can0 0200FD05#0100000000000000
(1789710237.936426) can0 020005FD#7E607FE77FFF0104
(1789710237.936746) can1 0200FD06#0100000000000000
(1789710237.936935) can1 020006FD#7FBC80197FFF00FA
(1789710237.937053) can0 0200FD06#0100000000000000
(1789710237.937193) can0 020006FD#83E3800B7FFF00FA
(1789710237.937556) can1 0200FD07#0100000000000000
(1789710237.937678) can1 020007FD#7FEB80127FFF00FA
(1789710237.937743) can0 0200FD07#0100000000000000
(1789710237.937989) can0 020007FD#7BFE7FFA7FFF00FA
(1789710237.938370) can1 0200FD08#0100000000000000
(1789710237.938451) can1 020008FD#80897FEB7FFF0104
(1789710237.938698) can0 020008FD#8074800D7FFF00FA
(1789710237.938712) can0 0200FD08#0100000000000000
(1789710237.997202) can1 0200FD01#0100000000000000
(1789710237.997246) can0 0200FD01#0100000000000000
(1789710237.997330) can1 020001FD#807480317FFF0104
(1789710237.997436) can0 020001FD#7F517FF47FFF0104
(1789710237.998007) can1 0200FD02#0100000000000000
(1789710237.998057) can0 0200FD02#0100000000000000
(1789710237.998194) can0 020002FD#7FDD7F767FFF0104
(1789710237.998231) can1 020002FD#80017FD97FFF0104
(1789710237.998869) can0 0200FD03#0100000000000000
(1789710237.998870) can1 0200FD03#0100000000000000
(1789710237.998971) can0 020003FD#80007FDD7FFF0104
(1789710237.999005) can1 020003FD#82B87FDA7FFF0104
(1789710237.999682) can1 0200FD04#0100000000000000
(1789710237.999714) can1 020004FD#7FFE7FD07FFF0104
(1789710237.999717) can0 0200FD04#0100000000000000
(1789710237.999748) can0 020004FD#800580257FFF00FA
(1789710238.000496) can0 0200FD05#0100000000000000
(1789710238.000497) can1 0200FD05#0100000000000000
(1789710238.000620) can0 020005FD#7E607FBD7FFF0104
(1789710238.000678) can1 020005FD#90BE7FE87FFF0104
(1789710238.001308) can1 0200FD06#0100000000000000
(1789710238.001310) can0 0200FD06#0100000000000000
(1789710238.001337) can0 020006FD#83E380137FFF00FA
(1789710238.001433) can1 020006FD#7FBB80107FFF00FA
(1789710238.002062) can1 0200FD07#0100000000000000
(1789710238.002107) can0 0200FD07#0100000000000000
(1789710238.002198) can1 020007FD#7FEB7FCE7FFF00FA
(1789710238.002244) can0 020007FD#7BFE801A7FFF00FA
(1789710238.002867) can1 0200FD08#0100000000000000
(1789710238.002869) can0 0200FD08#0100000000000000
(1789710238.002943) can0 020008FD#8074800D7FFF00FA
(1789710238.002948) can1 020008FD#80897FE37FFF0104
(1789710238.055844) can1 0200FD01#0100000000000000
(1789710238.055873) can0 0200FD01#0100000000000000
(1789710238.056042) can1 020001FD#80747FAF7FFF0104
(1789710238.056047) can0 020001FD#7F517F947FFF0104
(1789710238.056468) can0 0200FD02#0100000000000000
(1789710238.056518) can1 0200FD02#0100000000000000
(1789710238.056696) can1 020002FD#80027FA97FFF0104
(1789710238.056729) can0 020002FD#7FDD80047FFF0104
(1789710238.057017) can0 0200FD03#0100000000000000
(1789710238.057076) can1 0200FD03#0100000000000000
(1789710238.057250) can0 020003FD#80007FA87FFF0104
(1789710238.057304) can1 020003FD#82B87FDE7FFF0104
(1789710238.057628) can0 0200FD04#0100000000000000
(1789710238.057815) can1 0200FD04#0100000000000000
(1789710238.057872) can0 020004FD#8005808F7FFF00FA
(1789710238.057937) can1 020004FD#7FFE7F747FFF0104
(1789710238.058490) can0 0200FD05#0100000000000000
(1789710238.058520) can0 020005FD#7E607FF87FFF0104
(1789710238.058617) can1 0200FD05#0100000000000000
(1789710238.058729) can1 020005FD#90BE7FC77FFF0104
(1789710238.059247) can0 0200FD06#0100000000000000
(1789710238.059349) can0 020006FD#83E380467FFF00FA
(1789710238.059383) can1 0200FD06#0100000000000000
(1789710238.059498) can1 020006FD#7FBC801E7FFF00FA
(1789710238.059998) can0 0200FD07#0100000000000000
(1789710238.060185) can0 020007FD#7BFD7FDC7FFF00FA
(1789710238.060219) can1 0200FD07#0100000000000000
(1789710238.060310) can1 020007FD#7FEB80037FFF00FA
(1789710238.060752) can0 0200FD08#0100000000000000
(1789710238.060825) can0 020008FD#8074803A7FFF00FA
(1789710238.060934) can1 0200FD08#0100000000000000
(1789710238.061057) can1 020008FD#808980047FFF00FA
(1789710238.113889) can1 0200FD01#0100000000000000
(1789710238.113891) can0 0200FD01#0100000000000000
(1789710238.114004) can1 020001FD#80747FC27FFF0104
(1789710238.114063) can0 020001FD#7F517FC97FFF0104
(1789710238.114691) can1 0200FD02#0100000000000000
(1789710238.114727) can1 020002FD#800280137FFF0104
(1789710238.114731) can0 0200FD02#0100000000000000
(1789710238.114756) can0 020002FD#7FDD801A7FFF0104
(1789710238.115499) can1 0200FD03#0100000000000000
(1789710238.115500) can0 0200FD03#0100000000000000
(1789710238.115605) can1 020003FD#82B8807E7FFF0104
(1789710238.115639) can0 020003FD#80007FFF7FFF0104
(1789710238.116262) can1 0200FD04#0100000000000000
(1789710238.116315) can0 0200FD04#0100000000000000
(1789710238.116349) can0 020004FD#800580137FFF00FA
(1789710238.116441) can1 020004FD#7FFE7FA57FFF0104
(1789710238.117009) can1 0200FD05#0100000000000000
(1789710238.117118) can0 0200FD05#0100000000000000
(1789710238.117209) can1 020005FD#90BE7FD17FFF0104
(1789710238.117248) can0 020005FD#7E6180027FFF0104
(1789710238.117884) can1 0200FD06#0100000000000000
(1789710238.117885) can0 0200FD06#0100000000000000
(1789710238.118064) can1 020006FD#7FBB7FBF7FFF00FA
(1789710238.118099) can0 020006FD#83E380007FFF00FA
(1789710238.118692) can1 0200FD07#0100000000000000
(1789710238.118723) can0 0200FD07#0100000000000000
(1789710238.118763) can0 020007FD#7BFD7FE27FFF00FA
(1789710238.118814) can1 020007FD#7FEB80137FFF00FA
(1789710238.119438) can1 0200FD08#0100000000000000
(1789710238.119489) can0 0200FD08#0100000000000000
(1789710238.119523) can1 020008FD#8089801E7FFF00FA
(1789710238.119557) can0 020008FD#807480357FFF00FA
(1789710238.171892) can0 0200FD01#0100000000000000
(1789710238.171894) can1 0200FD01#0100000000000000
(1789710238.171988) can0 020001FD#7F517FC67FFF0104
(1789710238.172094) can1 020001FD#807480A07FFF0104
(1789710238.172701) can1 0200FD02#0100000000000000
(1789710238.172731) can1 020002FD#8002801E7FFF0104
(1789710238.172738) can0 0200FD02#0100000000000000
(1789710238.172763) can0 020002FD#7FDD7FFB7FFF0104
(1789710238.173512) can0 0200FD03#0100000000000000
(1789710238.173514) can1 0200FD03#0100000000000000
(1789710238.173632) can0 020003FD#7FFF7FE47FFF0104
(1789710238.173689) can1 020003FD#82B87FE87FFF0104
(1789710238.174320) can0 0200FD04#0100000000000000
(1789710238.174353) can0 020004FD#80047FFE7FFF00FA
(1789710238.174442) can1 020004FD#7FFF80657FFF0104
(1789710238.174444) can1 0200FD04#0100000000000000
(1789710238.175073) can0 0200FD05#0100000000000000
(1789710238.175204) can1 0200FD05#0100000000000000
(1789710238.175206) can0 020005FD#7E607FD17FFF00FA
(1789710238.175338) can1 020005FD#90BE7FFB7FFF0104
(1789710238.175822) can0 0200FD06#0100000000000000
(1789710238.175941) can0 020006FD#83E480527FFF00FA
(1789710238.176000) can1 0200FD06#0100000000000000
(1789710238.176194) can1 020006FD#7FBB7FF77FFF00FA
(1789710238.176698) can0 0200FD07#0100000000000000
(1789710238.176728) can0 020007FD#7BFE80137FFF00FA
(1789710238.176760) can1 0200FD07#0100000000000000
(1789710238.176947) can1 020007FD#7FEB7FE27FFF00FA
(1789710238.177508) can0 0200FD08#0100000000000000
(1789710238.177583) can0 020008FD#80747FC87FFF00FA
(1789710238.177693) can1 0200FD08#0100000000000000
(1789710238.177695) can1 020008FD#80897FFE7FFF0104
(1789710238.229388) can1 0200FD01#0100000000000000
(1789710238.229389) can0 0200FD01#0100000000000000
(1789710238.229575) can0 020001FD#7F517FDB7FFF0104
(1789710238.229582) can1 020001FD#807480737FFF0104
(1789710238.230203) can1 0200FD02#0100000000000000
(1789710238.230203) can0 0200FD02#0100000000000000
(1789710238.230323) can1 020002FD#80027FCF7FFF0104
(1789710238.230355) can0 020002FD#7FDD80407FFF0104
(1789710238.230952) can0 0200FD03#0100000000000000
(1789710238.231003) can1 0200FD03#0100000000000000
(1789710238.231084) can0 020003FD#80007FFF7FFF0104
(1789710238.231195) can1 020003FD#82B87F747FFF0104
(1789710238.231763) can0 0200FD04#0100000000000000
(1789710238.231764) can1 0200FD04#0100000000000000
(1789710238.231943) can0 020004FD#80057FD57FFF00FA
(1789710238.231975) can1 020004FD#7FFE80C47FFF0104
(1789710238.232509) can0 0200FD05#0100000000000000
(1789710238.232618) can0 020005FD#7E60801A7FFF0104
(1789710238.232654) can1 0200FD05#0100000000000000
(1789710238.232736) can1 020005FD#90BE80257FFF0104
(1789710238.233323) can0 0200FD06#0100000000000000
(1789710238.233384) can1 0200FD06#0100000000000000
(1789710238.233446) can0 020006FD#83E37FCE7FFF00FA
(1789710238.233511) can1 020006FD#7FBB800C7FFF00FA
(1789710238.234135) can0 0200FD07#0100000000000000
(1789710238.234203) can1 0200FD07#0100000000000000
(1789710238.234320) can0 020007FD#7BFE800A7FFF00FA
(1789710238.234323) can1 020007FD#7FEB80427FFF00FA
(1789710238.234885) can0 0200FD08#0100000000000000
(1789710238.234952) can1 0200FD08#0100000000000000
(1789710238.234984) can0 020008FD#807480057FFF00FA
(1789710238.235085) can1 020008FD#808980107FFF0104
(1789710238.285298) can1 0200FD01#0100000000000000
(1789710238.285422) can0 0200FD01#0100000000000000
(1789710238.285489) can1 020001FD#8074803E7FFF0104
(1789710238.285582) can0 020001FD#7F517FDD7FFF0104
(1789710238.286022) can1 0200FD02#0100000000000000
(1789710238.286214) can0 0200FD02#0100000000000000
(1789710238.286217) can1 020002FD#80017F977FFF0104
(1789710238.286334) can0 020002FD#7FDD7FC07FFF0104
(1789710238.286720) can1 0200FD03#0100000000000000
(1789710238.286853) can0 0200FD03#0100000000000000
(1789710238.286956) can1 020003FD#82B880267FFF0104
(1789710238.287029) can0 020003FD#8000807D7FFF0104
(1789710238.287279) can1 0200FD04#0100000000000000
(1789710238.287453) can1 020004FD#7FFE7FC37FFF0104
(1789710238.287487) can0 0200FD04#0100000000000000
(1789710238.287711) can0 020004FD#8004801D7FFF00FA
(1789710238.287842) can1 0200FD05#0100000000000000
(1789710238.288047) can0 0200FD05#0100000000000000
(1789710238.288080) can1 020005FD#90BE7FF37FFF0104
(1789710238.288276) can0 020005FD#7E607FE87FFF0104
(1789710238.288479) can1 0200FD06#0100000000000000
(1789710238.288636) can0 0200FD06#0100000000000000
(1789710238.288669) can1 020006FD#7FBC80407FFF00FA
(1789710238.288868) can0 020006FD#83E3801B7FFF00FA
(1789710238.289035) can1 0200FD07#0100000000000000
(1789710238.289280) can1 020007FD#7FEB7FF77FFF00FA
(1789710238.289285) can0 0200FD07#0100000000000000
(1789710238.289388) can0 020007FD#7BFE7FE97FFF00FA
(1789710238.289637) can1 0200FD08#0100000000000000
(1789710238.289807) can1 020008FD#80897FE27FFF0104
(1789710238.289842) can0 0200FD08#0100000000000000
(1789710238.289964) can0 020008FD#80747FD47FFF00FA
(1789710238.346017) can1 0200FD01#0100000000000000
(1789710238.346105) can0 0200FD01#0100000000000000
(1789710238.346208) can1 020001FD#80747FE17FFF0104
(1789710238.346241) can0 020001FD#7F51800D7FFF0104
(1789710238.346773) can1 0200FD02#0100000000000000
(1789710238.346886) can0 0200FD02#0100000000000000
(1789710238.346966) can1 020002FD#8002801D7FFF0104
(1789710238.347004) can0 020002FD#7FDD7FF37FFF0104
(1789710238.347638) can1 0200FD03#0100000000000000
(1789710238.347745) can1 020003FD#82B880227FFF0104
(1789710238.347778) can0 0200FD03#0100000000000000
(1789710238.347779) can0 020003FD#80007FFC7FFF0104
(1789710238.348394) can1 0200FD04#0100000000000000
(1789710238.348508) can0 0200FD04#0100000000000000
(1789710238.348575) can1 020004FD#7FFE7F647FFF0104
(1789710238.348619) can0 020004FD#80047FEC7FFF00FA
(1789710238.349218) can1 0200FD05#0100000000000000
(1789710238.349219) can0 0200FD05#0100000000000000
(1789710238.349332) can1 020005FD#90BF80187FFF0104
(1789710238.349364) can0 020005FD#7E607FF47FFF0104
(1789710238.350012) can1 0200FD06#0100000000000000
(1789710238.350013) can0 0200FD06#0100000000000000
(1789710238.350204) can1 020006FD#7FBC80127FFF00FA
(1789710238.350209) can0 020006FD#83E37FE27FFF00FA
(1789710238.350775) can0 0200FD07#0100000000000000
(1789710238.350777) can1 0200FD07#0100000000000000
(1789710238.350954) can0 020007FD#7BFE802A7FFF00FA
(1789710238.350985) can1 020007FD#7FEB7FB17FFF00FA
(1789710238.351644) can1 0200FD08#0100000000000000
(1789710238.351705) can0 0200FD08#0100000000000000
(1789710238.351707) can0 020008FD#80747FF17FFF00FA
(1789710238.351742) can1 020008FD#808980137FFF0104
(1789710238.403405) can1 0200FD01#0100000000000000
(1789710238.403507) can1 020001FD#8074805A7FFF0104
(1789710238.403538) can0 0200FD01#0100000000000000
(1789710238.403585) can0 020001FD#7F517FC47FFF0104
(1789710238.404210) can1 0200FD02#0100000000000000
(1789710238.404336) can1 020002FD#8002805A7FFF0104
(1789710238.404343) can0 0200FD02#0100000000000000
(1789710238.404459) can0 020002FD#7FDD7FE67FFF0104
(1789710238.405015) can1 0200FD03#0100000000000000
(1789710238.405048) can0 0200FD03#0100000000000000
(1789710238.405221) can1 020003FD#82B87FF17FFF0104
(1789710238.405241) can0 020003FD#8000805C7FFF0104
(1789710238.405874) can1 0200FD04#0100000000000000
(1789710238.405875) can1 020004FD#7FFF7FE97FFF0104
(1789710238.405906) can0 0200FD04#0100000000000000
(1789710238.406079) can0 020004FD#80047FB17FFF00FA
(1789710238.406721) can1 0200FD05#0100000000000000
(1789710238.406740) can1 020005FD#90BE7FDB7FFF0104
(1789710238.406743) can0 0200FD05#0100000000000000
(1789710238.406773) can0 020005FD#7E6080087FFF00FA
(1789710238.407466) can0 0200FD06#0100000000000000
(1789710238.407516) can1 0200FD06#0100000000000000
(1789710238.407592) can0 020006FD#83E37FD97FFF00FA
(1789710238.407644) can1 020006FD#7FBC80267FFF00FA
(1789710238.408279) can1 0200FD07#0100000000000000
(1789710238.408332) can0 0200FD07#0100000000000000
(1789710238.408456) can0 020007FD#7BFD7FD07FFF00FA
(1789710238.408487) can1 020007FD#7FEC80167FFF00FA
(1789710238.409028) can1 0200FD08#0100000000000000
(1789710238.409084) can0 0200FD08#0100000000000000
(1789710238.409117) can1 020008FD#80897FE17FFF0104
(1789710238.409210) can0 020008FD#80747FBC7FFF00FA
(1789710238.462761) can1 0200FD01#0100000000000000
(1789710238.462765) can1 020001FD#80747FEA7FFF0104
(1789710238.462786) can0 0200FD01#0100000000000000
(1789710238.462901) can0 020001FD#7F517FCA7FFF0104
(1789710238.463527) can1 0200FD02#0100000000000000
(1789710238.463592) can0 0200FD02#0100000000000000
(1789710238.463652) can1 020002FD#80027FE17FFF0104
(1789710238.463719) can0 020002FD#7FDD7FDB7FFF0104
(1789710238.464337) can1 0200FD03#0100000000000000
(1789710238.464397) can0 0200FD03#0100000000000000
(1789710238.464462) can1 020003FD#82B8801B7FFF0104
(1789710238.464524) can0 020003FD#80007FC77FFF0104
(1789710238.465090) can1 0200FD04#0100000000000000
(1789710238.465233) can0 0200FD04#0100000000000000
(1789710238.465248) can1 020004FD#7FFF7FB47FFF0104
(1789710238.465335) can0 020004FD#800580E97FFF00FA
(1789710238.465841) can1 0200FD05#0100000000000000
(1789710238.465966) can1 020005FD#90BE7FFE7FFF0104
(1789710238.465970) can0 0200FD05#0100000000000000
(1789710238.466225) can0 020005FD#7E61800E7FFF0104
(1789710238.466651) can1 0200FD06#0100000000000000
(1789710238.466753) can1 020006FD#7FBC7FC47FFF00FA
(1789710238.466787) can0 0200FD06#0100000000000000
(1789710238.466899) can0 020006FD#83E480397FFF00FA
(1789710238.467405) can1 0200FD07#0100000000000000
(1789710238.467526) can1 020007FD#7FEC7FEE7FFF00FA
(1789710238.467648) can0 0200FD07#0100000000000000
(1789710238.467752) can0 020007FD#7BFE7FF37FFF00FA
(1789710238.468216) can1 0200FD08#0100000000000000
(1789710238.468340) can1 020008FD#808980157FFF0104
(1789710238.468398) can0 0200FD08#0100000000000000
(1789710238.468475) can0 020008FD#80747FCD7FFF00FA
(1789710238.521504) can1 0200FD01#0100000000000000
(1789710238.521546) can0 0200FD01#0100000000000000
(1789710238.521672) can1 020001FD#80747FF37FFF0104
(1789710238.521797) can0 020001FD#7F5180817FFF0104
(1789710238.522058) can1 0200FD02#0100000000000000
(1789710238.522110) can0 0200FD02#0100000000000000
(1789710238.522295) can1 020002FD#80017FE67FFF0104
(1789710238.522339) can0 020002FD#7FDD7FED7FFF0104
(1789710238.522669) can1 0200FD03#0100000000000000
(1789710238.522777) can0 0200FD03#0100000000000000
(1789710238.522904) can1 020003FD#82B8801D7FFF0104
(1789710238.522946) can0 020003FD#80007FE47FFF0104
(1789710238.523296) can1 0200FD04#0100000000000000
(1789710238.523418) can0 0200FD04#0100000000000000
(1789710238.523419) can1 020004FD#7FFE800F7FFF0104
(1789710238.523541) can0 020004FD#80047F537FFF00FA
(1789710238.523856) can1 0200FD05#0100000000000000
(1789710238.524027) can0 0200FD05#0100000000000000
(1789710238.524094) can1 020005FD#90BE80097FFF0104
(1789710238.524338) can0 020005FD#7E61802C7FFF0104
(1789710238.524527) can1 0200FD06#0100000000000000
(1789710238.524637) can1 020006FD#7FBC7FEC7FFF00FA
(1789710238.524783) can0 0200FD06#0100000000000000
(1789710238.524969) can0 020006FD#83E37FE87FFF00FA
(1789710238.525363) can1 020007FD#7FEB804A7FFF00FA
(1789710238.525473) can1 0200FD07#0100000000000000
(1789710238.525760) can0 0200FD07#0100000000000000
(1789710238.525788) can0 020007FD#7BFD7FCF7FFF00FA
(1789710238.526346) can1 0200FD08#0100000000000000
(1789710238.526380) can1 020008FD#808980047FFF0104
(1789710238.526524) can0 0200FD08#0100000000000000
(1789710238.526605) can0 020008FD#80747FFC7FFF00FA
(1789710238.578428) can1 0200FD01#0100000000000000
(1789710238.578530) can0 0200FD01#0100000000000000
(1789710238.578602) can0 020001FD#7F51803E7FFF0104
(1789710238.578612) can1 020001FD#8074803C7FFF0104
(1789710238.579233) can1 0200FD02#0100000000000000
(1789710238.579282) can0 0200FD02#0100000000000000
(1789710238.579362) can1 020002FD#80017F747FFF0104
(1789710238.579407) can0 020002FD#7FDD802E7FFF0104
(1789710238.580040) can1 0200FD03#0100000000000000
(1789710238.580041) can0 0200FD03#0100000000000000
(1789710238.580221) can1 020003FD#82B880017FFF0104
(1789710238.580252) can0 020003FD#80007FB57FFF0104
(1789710238.580787) can1 0200FD04#0100000000000000
(1789710238.580899) can0 0200FD04#0100000000000000
(1789710238.580972) can1 020004FD#7FFE7FAF7FFF0104
(1789710238.581013) can0 020004FD#800580E97FFF00FA
(1789710238.581657) can1 0200FD05#0100000000000000
(1789710238.581718) can0 0200FD05#0100000000000000
(1789710238.581752) can0 020005FD#7E6180297FFF0104
(1789710238.581786) can1 020005FD#90BE80247FFF0104
(1789710238.582413) can1 0200FD06#0100000000000000
(1789710238.582530) can0 0200FD06#0100000000000000
(1789710238.582532) can1 020006FD#7FBC7FE87FFF00FA
(1789710238.582658) can0 020006FD#83E380087FFF00FA
(1789710238.583290) can1 0200FD07#0100000000000000
(1789710238.583348) can1 020007FD#7FEB7FFB7FFF00FA
(1789710238.583396) can0 0200FD07#0100000000000000
(1789710238.583430) can0 020007FD#7BFE800D7FFF00FA
(1789710238.584032) can1 0200FD08#0100000000000000
(1789710238.584123) can0 0200FD08#0100000000000000
(1789710238.584124) can1 020008FD#8089802A7FFF00FA
(1789710238.584234) can0 020008FD#80747FA67FFF00FA
(1789710238.636912) can1 0200FD01#0100000000000000
(1789710238.636977) can0 0200FD01#0100000000000000
(1789710238.637055) can1 020001FD#80747FBA7FFF0104
(1789710238.637116) can0 020001FD#7F517FA97FFF0104
(1789710238.637784) can1 0200FD02#0100000000000000
(1789710238.637785) can1 020002FD#800280637FFF0104
(1789710238.637847) can0 0200FD02#0100000000000000
(1789710238.637881) can0 020002FD#7FDD7FBB7FFF0104
(1789710238.638544) can1 0200FD03#0100000000000000
(1789710238.638609) can0 0200FD03#0100000000000000
(1789710238.638666) can1 020003FD#82B87FCA7FFF0104
(1789710238.638749) can0 020003FD#7FFF7F997FFF0104
(1789710238.639350) can1 0200FD04#0100000000000000
(1789710238.639381) can1 020004FD#7FFE7FBA7FFF0104
(1789710238.639414) can0 0200FD04#0100000000000000
(1789710238.639602) can0 020004FD#80057FBA7FFF00FA
(1789710238.640154) can1 0200FD05#0100000000000000
(1789710238.640229) can0 0200FD05#0100000000000000
(1789710238.640347) can1 020005FD#90BE80047FFF0104
(1789710238.640351) can0 020005FD#7E607FE17FFF0104
(1789710238.640909) can1 0200FD06#0100000000000000
(1789710238.640976) can0 0200FD06#0100000000000000
(1789710238.641034) can1 020006FD#7FBC7FE57FFF00FA
(1789710238.641099) can0 020006FD#83E37FE87FFF00FA
(1789710238.641755) can1 0200FD07#0100000000000000
(1789710238.641785) can1 020007FD#7FEB7FE77FFF00FA
(1789710238.641883) can0 0200FD07#0100000000000000
(1789710238.641916) can0 020007FD#7BFE7FE47FFF00FA
(1789710238.642534) can1 0200FD08#0100000000000000
(1789710238.642616) can1 020008FD#8089800D7FFF0104
(1789710238.642662) can0 0200FD08#0100000000000000
(1789710238.642733) can0 020008FD#8074803B7FFF00FA
(1789710238.697615) can1 0200FD01#0100000000000000
(1789710238.697683) can0 0200FD01#0100000000000000
(1789710238.697734) can1 020001FD#807480697FFF0104
(1789710238.697772) can0 020001FD#7F517FED7FFF0104
(1789710238.698422) can0 0200FD02#0100000000000000
(1789710238.698478) can1 0200FD02#0100000000000000
(1789710238.698481) can1 020002FD#80027F7B7FFF0104
(1789710238.698605) can0 020002FD#7FDD7FF47FFF0104
(1789710238.699235) can0 0200FD03#0100000000000000
(1789710238.699236) can1 0200FD03#0100000000000000
(1789710238.699350) can0 020003FD#7FFF7F3F7FFF0104
(1789710238.699354) can1 020003FD#82B87FCC7FFF0104
(1789710238.699981) can1 0200FD04#0100000000000000
(1789710238.700028) can0 0200FD04#0100000000000000
(1789710238.700131) can1 020004FD#7FFE7FFC7FFF0104
(1789710238.700227) can0 020004FD#80047FF27FFF00FA
(1789710238.700794) can1 0200FD05#0100000000000000
(1789710238.700796) can0 0200FD05#0100000000000000
(1789710238.700979) can0 020005FD#7E607FF17FFF0104
(1789710238.700984) can1 020005FD#90BF802B7FFF0104
(1789710238.701667) can0 0200FD06#0100000000000000
(1789710238.701727) can1 0200FD06#0100000000000000
(1789710238.701760) can1 020006FD#7FBB7FEC7FFF00FA
(1789710238.701792) can0 020006FD#83E47FED7FFF00FA
(1789710238.702425) can0 0200FD07#0100000000000000
(1789710238.702534) can1 0200FD07#0100000000000000
(1789710238.702568) can1 020007FD#7FEB7FDA7FFF00FA
(1789710238.702603) can0 020007FD#7BFE80207FFF00FA
(1789710238.703241) can0 0200FD08#0100000000000000
(1789710238.703297) can1 0200FD08#0100000000000000
(1789710238.703355) can0 020008FD#80747FA37FFF00FA
(1789710238.703386) can1 020008FD#808980057FFF00FA
(1789710238.755313) can1 0200FD01#0100000000000000
(1789710238.755314) can0 0200FD01#0100000000000000
(1789710238.755485) can1 020001FD#80747F977FFF0104
(1789710238.755517) can0 020001FD#7F517FC77FFF0104
(1789710238.755869) can0 0200FD02#0100000000000000
(1789710238.755925) can1 0200FD02#0100000000000000
(1789710238.756102) can1 020002FD#800280637FFF0104
(1789710238.756136) can0 020002FD#7FDE80AF7FFF0104
(1789710238.756505) can1 0200FD03#0100000000000000
(1789710238.756564) can0 0200FD03#0100000000000000
(1789710238.756740) can0 020003FD#800080D17FFF0104
(1789710238.756773) can1 020003FD#82B8802D7FFF0104
(1789710238.757067) can1 0200FD04#0100000000000000
(1789710238.757128) can0 0200FD04#0100000000000000
(1789710238.757309) can1 020004FD#7FFE7FFA7FFF0104
(1789710238.757349) can0 020004FD#80057FCE7FFF00FA
(1789710238.757789) can1 0200FD05#0100000000000000
(1789710238.757898) can1 020005FD#90BE7FD87FFF0104
(1789710238.757929) can0 0200FD05#0100000000000000
(1789710238.758023) can0 020005FD#7E617FD87FFF0104
(1789710238.758544) can1 0200FD06#0100000000000000
(1789710238.758647) can1 020006FD#7FBC7FF97FFF00FA
(1789710238.758767) can0 0200FD06#0100000000000000
(1789710238.758801) can0 020006FD#83E380047FFF00FA
(1789710238.759302) can1 0200FD07#0100000000000000
(1789710238.759418) can1 020007FD#7FEB80007FFF00FA
(1789710238.759551) can0 0200FD07#0100000000000000
(1789710238.759734) can0 020007FD#7BFE80297FFF00FA
(1789710238.760049) can1 0200FD08#0100000000000000
(1789710238.760229) can1 020008FD#80897FE77FFF0104
(1789710238.760356) can0 0200FD08#0100000000000000
(1789710238.760390) can0 020008FD#80747FC07FFF00FA
(1789710238.820118) can1 0200FD01#0100000000000000
(1789710238.820154) can0 0200FD01#0100000000000000
(1789710238.820360) can1 020001FD#80747FF97FFF0104
(1789710238.820420) can0 020001FD#7F5180337FFF0104
(1789710238.820676) can1 0200FD02#0100000000000000
(1789710238.820744) can0 0200FD02#0100000000000000
(1789710238.820921) can1 020002FD#80017F927FFF0104
(1789710238.820995) can0 020002FD#7FDD80597FFF0104
(1789710238.821316) can1 0200FD03#0100000000000000
(1789710238.821382) can0 0200FD03#0100000000000000
(1789710238.821490) can1 020003FD#82B880877FFF0104
(1789710238.821567) can0 020003FD#80007FF77FFF0104
(1789710238.821940) can1 0200FD04#0100000000000000
(1789710238.821972) can0 0200FD04#0100000000000000
(1789710238.822115) can1 020004FD#7FFE7FDB7FFF0104
(1789710238.822245) can0 020004FD#80047FDF7FFF00FA
(1789710238.822508) can1 0200FD05#0100000000000000
(1789710238.822568) can0 0200FD05#0100000000000000
(1789710238.822750) can1 020005FD#90BE7FCE7FFF0104
(1789710238.822811) can0 020005FD#7E6080187FFF0104
(1789710238.823065) can1 0200FD06#0100000000000000
(1789710238.823133) can0 0200FD06#0100000000000000
(1789710238.823297) can1 020006FD#7FBC80107FFF00FA
(1789710238.823353) can0 020006FD#83E47FC77FFF00FA
(1789710238.823687) can1 0200FD07#0100000000000000
(1789710238.823728) can0 0200FD07#0100000000000000
(1789710238.823923) can1 020007FD#7FEB7FFC7FFF00FA
(1789710238.823969) can0 020007FD#7BFE7FF77FFF00FA
(1789710238.824247) can1 0200FD08#0100000000000000
(1789710238.824361) can0 0200FD08#0100000000000000
(1789710238.824484) can1 020008FD#808980087FFF0104
(1789710238.824488) can0 020008FD#80747FCA7FFF00FA
(1789710238.880931) can1 0200FD01#0100000000000000
(1789710238.881055) can1 020001FD#807480337FFF0104
(1789710238.881116) can0 0200FD01#0100000000000000
(1789710238.881254) can0 020001FD#7F517FB97FFF0104
(1789710238.881776) can1 0200FD02#0100000000000000
(1789710238.881809) can1 020002FD#80027F827FFF0104
(1789710238.881926) can0 0200FD02#0100000000000000
(1789710238.882050) can0 020002FD#7FDD7F7E7FFF0104
(1789710238.882501) can1 0200FD03#0100000000000000
(1789710238.882633) can0 0200FD03#0100000000000000
(1789710238.882678) can1 020003FD#82B87FAD7FFF0104
(1789710238.882868) can0 020003FD#800080457FFF0104
(1789710238.883173) can1 0200FD04#0100000000000000
(1789710238.883361) can1 020004FD#7FFE7FAC7FFF0104
(1789710238.883429) can0 0200FD04#0100000000000000
(1789710238.883614) can0 020004FD#800580FB7FFF00FA
(1789710238.884024) can1 0200FD05#0100000000000000
(1789710238.884061) can1 020005FD#90BE7FD27FFF0104
(1789710238.884252) can0 0200FD05#0100000000000000
(1789710238.884381) can0 020005FD#7E6180117FFF0104
(1789710238.884809) can1 0200FD06#0100000000000000
(1789710238.884929) can1 020006FD#7FBB80117FFF00FA
(1789710238.885052) can0 0200FD06#0100000000000000
(1789710238.885247) can0 020006FD#83E37FE77FFF00FA
(1789710238.885674) can1 0200FD07#0100000000000000
(1789710238.885781) can1 020007FD#7FEB802A7FFF00FA
(1789710238.885904) can0 0200FD07#0100000000000000
(1789710238.885905) can0 020007FD#7BFE80107FFF00FA
(1789710238.886414) can1 0200FD08#0100000000000000
(1789710238.886479) can1 020008FD#80897FF17FFF0104
(1789710238.886540) can0 0200FD08#0100000000000000
(1789710238.886711) can0 020008FD#80747FF27FFF00FA
(1789710238.938958) can1 0200FD01#0100000000000000
(1789710238.938959) can0 0200FD01#0100000000000000
(1789710238.939135) can1 020001FD#8074806E7FFF0104
(1789710238.939139) can0 020001FD#7F517FE37FFF0104
(1789710238.939811) can1 0200FD02#0100000000000000
(1789710238.939820) can0 0200FD02#0100000000000000
(1789710238.939815) can1 020002FD#80017FDE7FFF0104
(1789710238.939914) can0 020002FD#7FDD7FA07FFF0104
(1789710238.940564) can1 0200FD03#0100000000000000
(1789710238.940687) can1 020003FD#82B880317FFF0104
(1789710238.940752) can0 0200FD03#0100000000000000
(1789710238.940756) can0 020003FD#8000805D7FFF0104
(1789710238.941370) can1 0200FD04#0100000000000000
(1789710238.941405) can1 020004FD#7FFE80107FFF0104
(1789710238.941554) can0 0200FD04#0100000000000000
(1789710238.941683) can0 020004FD#800580B57FFF00FA
(1789710238.942188) can1 0200FD05#0100000000000000
(1789710238.942311) can1 020005FD#90BE7FFC7FFF0104
(1789710238.942367) can0 0200FD05#0100000000000000
(1789710238.942498) can0 020005FD#7E6180177FFF0104
(1789710238.942938) can1 0200FD06#0100000000000000
(1789710238.943061) can1 020006FD#7FBC7FDF7FFF00FA
(1789710238.943069) can0 0200FD06#0100000000000000
(1789710238.943247) can0 020006FD#83E380007FFF00FA
(1789710238.943689) can1 0200FD07#0100000000000000
(1789710238.943809) can1 020007FD#7FEB800B7FFF00FA
(1789710238.943874) can0 0200FD07#0100000000000000
(1789710238.943907) can0 020007FD#7BFE80417FFF00FA
(1789710238.944438) can1 0200FD08#0100000000000000
(1789710238.944508) can1 020008FD#8089800A7FFF0104
(1789710238.944683) can0 0200FD08#0100000000000000
(1789710238.944754) can0 020008FD#80747FD57FFF00FA
(1789710239.011694) can0 0200FD01#0100000000000000
(1789710239.011746) can1 0200FD01#0100000000000000
(1789710239.011781) can1 020001FD#80747FCA7FFF0104
(1789710239.011814) can0 020001FD#7F5180427FFF0104
(1789710239.012440) can0 0200FD02#0100000000000000
(1789710239.012554) can1 0200FD02#0100000000000000
(1789710239.012588) can1 020002FD#8002802C7FFF0104
(1789710239.012623) can0 020002FD#7FDD80227FFF0104
(1789710239.013283) can1 0200FD03#0100000000000000
(1789710239.013256) can0 0200FD03#0100000000000000
(1789710239.013405) can1 020003FD#82B880127FFF0104
(1789710239.013375) can0 020003FD#8000802C7FFF0104
(1789710239.014057) can1 0200FD04#0100000000000000
(1789710239.014058) can0 0200FD04#0100000000000000
(1789710239.014247) can1 020004FD#7FFE7FB87FFF0104
(1789710239.014252) can0 020004FD#800580367FFF00FA
(1789710239.014817) can1 0200FD05#0100000000000000
(1789710239.014818) can0 0200FD05#0100000000000000
(1789710239.014996) can1 020005FD#90BE7FD97FFF0104
(1789710239.014999) can0 020005FD#7E607FF77FFF0104
(1789710239.015560) can1 0200FD06#0100000000000000
(1789710239.015635) can0 0200FD06#0100000000000000
(1789710239.015686) can1 020006FD#7FBC80167FFF00FA
(1789710239.015741) can0 020006FD#83E37FEF7FFF00FA
(1789710239.016373) can1 0200FD07#0100000000000000
(1789710239.016378) can0 0200FD07#0100000000000000
(1789710239.016375) can1 020007FD#7FEB7FF47FFF00FA
(1789710239.016499) can0 020007FD#7BFD7FCB7FFF00FA
(1789710239.017125) can1 0200FD08#0100000000000000
(1789710239.017127) can0 0200FD08#0100000000000000
(1789710239.017249) can0 020008FD#8074801C7FFF00FA
(1789710239.017253) can1 020008FD#80897FF47FFF00FA
(1789710239.070835) can1 0200FD01#0100000000000000
(1789710239.070934) can0 0200FD01#0100000000000000
(1789710239.071005) can1 020001FD#8074801D7FFF0104
(1789710239.071047) can0 020001FD#7F517FE77FFF0104
(1789710239.071693) can1 0200FD02#0100000000000000
(1789710239.071720) can0 0200FD02#0100000000000000
(1789710239.071799) can1 020002FD#8001803C7FFF0104
(1789710239.071883) can0 020002FD#7FDD7FCC7FFF0104
(1789710239.072445) can1 0200FD03#0100000000000000
(1789710239.072557) can0 0200FD03#0100000000000000
(1789710239.072591) can0 020003FD#7FFF7F897FFF0104
(1789710239.072626) can1 020003FD#82B87FF27FFF0104
(1789710239.073261) can1 0200FD04#0100000000000000
(1789710239.073318) can0 0200FD04#0100000000000000
(1789710239.073385) can1 020004FD#7FFE7FF67FFF0104
(1789710239.073470) can0 020004FD#8004805F7FFF00FA
(1789710239.074068) can1 0200FD05#0100000000000000
(1789710239.074071) can0 0200FD05#0100000000000000
(1789710239.074256) can1 020005FD#90BE7FC97FFF0104
(1789710239.074265) can0 020005FD#7E607FE17FFF0104
(1789710239.074822) can1 0200FD06#0100000000000000
(1789710239.074823) can0 0200FD06#0100000000000000
(1789710239.074942) can1 020006FD#7FBB7FD57FFF00FA
(1789710239.075001) can0 020006FD#83E37FEB7FFF00FA
(1789710239.075566) can1 0200FD07#0100000000000000
(1789710239.075691) can1 020007FD#7FEB802B7FFF00FA
(1789710239.075753) can0 0200FD07#0100000000000000
(1789710239.075755) can0 020007FD#7BFD7FB07FFF00FA
(1789710239.076384) can1 0200FD08#0100000000000000
(1789710239.076410) can1 020008FD#808980197FFF0104
(1789710239.076507) can0 0200FD08#0100000000000000
(1789710239.076626) can0 020008FD#8074800B7FFF00FA
(1789710239.128949) can1 0200FD01#0100000000000000
(1789710239.129010) can0 0200FD01#0100000000000000
(1789710239.129071) can1 020001FD#807480087FFF0104
(1789710239.129135) can0 020001FD#7F517FA67FFF0104
(1789710239.129795) can1 0200FD02#0100000000000000
(1789710239.129796) can1 020002FD#8002808E7FFF0104
(1789710239.129827) can0 0200FD02#0100000000000000
(1789710239.130003) can0 020002FD#7FDD7F957FFF0104
(1789710239.130568) can1 0200FD03#0100000000000000
(1789710239.130635) can0 0200FD03#0100000000000000
(1789710239.130695) can1 020003FD#82B87F1B7FFF0104
(1789710239.130759) can0 020003FD#8000801C7FFF0104
(1789710239.131389) can1 0200FD04#0100000000000000
(1789710239.131420) can1 020004FD#7FFE7FA17FFF0104
(1789710239.131453) can0 0200FD04#0100000000000000
(1789710239.131552) can0 020004FD#8004800C7FFF00FA
(1789710239.132187) can1 0200FD05#0100000000000000
(1789710239.132262) can0 0200FD05#0100000000000000
(1789710239.132321) can1 020005FD#90BE7FCD7FFF0104
(1789710239.132378) can0 020005FD#7E6080157FFF0104
(1789710239.132944) can1 0200FD06#0100000000000000
(1789710239.133011) can0 0200FD06#0100000000000000
(1789710239.133070) can1 020006FD#7FBB7FED7FFF00FA
(1789710239.133137) can0 020006FD#83E37FC77FFF00FA
(1789710239.133816) can1 0200FD07#0100000000000000
(1789710239.133848) can1 020007FD#7FEB802D7FFF00FA
(1789710239.133881) can0 0200FD07#0100000000000000
(1789710239.133915) can0 020007FD#7BFD7FE47FFF00FA
(1789710239.134569) can1 0200FD08#0100000000000000
(1789710239.134633) can0 0200FD08#0100000000000000
(1789710239.134668) can1 020008FD#8089803A7FFF0104
(1789710239.134770) can0 020008FD#807480257FFF00FA
(1789710239.196347) can1 0200FD01#0100000000000000
(1789710239.196535) can1 020001FD#807480607FFF0104
(1789710239.196577) can0 0200FD01#0100000000000000
(1789710239.196657) can0 020001FD#7F51803B7FFF0104
(1789710239.197084) can1 0200FD02#0100000000000000
(1789710239.197273) can1 020002FD#8002802F7FFF0104
(1789710239.197337) can0 0200FD02#0100000000000000
(1789710239.197520) can0 020002FD#7FDD7FFB7FFF0104
(1789710239.197957) can1 0200FD03#0100000000000000
(1789710239.198132) can1 020003FD#82B87FE97FFF0104
(1789710239.198165) can0 0200FD03#0100000000000000
(1789710239.198270) can0 020003FD#80007F997FFF0104
(1789710239.198803) can1 0200FD04#0100000000000000
(1789710239.198805) can1 020004FD#7FFE7F797FFF0104
(1789710239.198945) can0 0200FD04#0100000000000000
(1789710239.199057) can0 020004FD#800580957FFF00FA
(1789710239.199581) can1 0200FD05#0100000000000000
(1789710239.199761) can1 020005FD#90BF80387FFF0104
(1789710239.199790) can0 0200FD05#0100000000000000
(1789710239.199824) can0 020005FD#7E6080087FFF0104
(1789710239.200391) can1 0200FD06#0100000000000000
(1789710239.200512) can1 020006FD#7FBB7FB87FFF00FA
(1789710239.200570) can0 0200FD06#0100000000000000
(1789710239.200681) can0 020006FD#83E380077FFF00FA
(1789710239.201140) can1 0200FD07#0100000000000000
(1789710239.201278) can1 020007FD#7FEB7FC77FFF00FA
(1789710239.201388) can0 0200FD07#0100000000000000
(1789710239.201421) can0 020007FD#7BFD7FEA7FFF00FA
(1789710239.201948) can1 0200FD08#0100000000000000
(1789710239.202025) can1 020008FD#8089800C7FFF0104
(1789710239.202134) can0 0200FD08#0100000000000000
(1789710239.202275) can0 020008FD#807480107FFF00FA
(1789710239.268967) can1 0200FD01#0100000000000000
(1789710239.269057) can1 020001FD#807480057FFF0104
(1789710239.269089) can0 0200FD01#0100000000000000
(1789710239.269284) can0 020001FD#7F51804D7FFF0104
(1789710239.269808) can1 0200FD02#0100000000000000
(1789710239.269810) can1 020002FD#80027FCD7FFF0104
(1789710239.269925) can0 0200FD02#0100000000000000
(1789710239.269958) can0 020002FD#7FDD803E7FFF0104
(1789710239.270573) can1 0200FD03#0100000000000000
(1789710239.270704) can1 020003FD#82B87FD57FFF0104
(1789710239.270763) can0 0200FD03#0100000000000000
(1789710239.270894) can0 020003FD#80007FD17FFF0104
(1789710239.271394) can1 0200FD04#0100000000000000
(1789710239.271458) can0 0200FD04#0100000000000000
(1789710239.271523) can1 020004FD#7FFE80087FFF0104
(1789710239.271646) can0 020004FD#800581237FFF00FA
(1789710239.272168) can1 0200FD05#0100000000000000
(1789710239.272269) can0 0200FD05#0100000000000000
(1789710239.272305) can1 020005FD#90BF80167FFF0104
(1789710239.272390) can0 020005FD#7E60801B7FFF0104
(1789710239.272972) can1 0200FD06#0100000000000000
(1789710239.273068) can1 020006FD#7FBC80097FFF00FA
(1789710239.273099) can0 0200FD06#0100000000000000
(1789710239.273270) can0 020006FD#83E37FDE7FFF00FA
(1789710239.273824) can1 0200FD07#0100000000000000
(1789710239.273875) can0 0200FD07#0100000000000000
(1789710239.273865) can1 020007FD#7FEB80277FFF00FA
(1789710239.274035) can0 020007FD#7BFD800A7FFF00FA
(1789710239.274582) can1 0200FD08#0100000000000000
(1789710239.274659) can1 020008FD#808980057FFF0104
(1789710239.274764) can0 0200FD08#0100000000000000
(1789710239.274766) can0 020008FD#807480097FFF00FA
(1789710239.337928) can1 0200FD01#0100000000000000
(1789710239.338005) can0 0200FD01#0100000000000000
(1789710239.337939) can1 020001FD#8074808B7FFF0104
(1789710239.338156) can0 020001FD#7F5180987FFF0104
(1789710239.338713) can1 0200FD02#0100000000000000
(1789710239.338808) can0 0200FD02#0100000000000000
(1789710239.338810) can0 020002FD#7FDD7F867FFF0104
(1789710239.338897) can1 020002FD#80017F357FFF0104
(1789710239.339525) can1 0200FD03#0100000000000000
(1789710239.339584) can0 0200FD03#0100000000000000
(1789710239.339652) can1 020003FD#82B87FB57FFF0104
(1789710239.339706) can0 020003FD#7FFF7F5D7FFF0104
(1789710239.340278) can1 0200FD04#0100000000000000
(1789710239.340331) can0 0200FD04#0100000000000000
(1789710239.340405) can1 020004FD#7FFE80BA7FFF0104
(1789710239.340459) can0 020004FD#800480187FFF00FA
(1789710239.341116) can1 0200FD05#0100000000000000
(1789710239.341123) can0 0200FD05#0100000000000000
(1789710239.341277) can0 020005FD#7E6080217FFF0104
(1789710239.341294) can1 020005FD#90BE7FFC7FFF0104
(1789710239.341899) can0 0200FD06#0100000000000000
(1789710239.341929) can0 020006FD#83E380137FFF00FA
(1789710239.341935) can1 0200FD06#0100000000000000
(1789710239.341967) can1 020006FD#7FBB80127FFF00FA
(1789710239.342654) can0 0200FD07#0100000000000000
(1789710239.342711) can1 0200FD07#0100000000000000
(1789710239.342787) can0 020007FD#7BFD7FDF7FFF00FA
(1789710239.342815) can1 020007FD#7FEB7FEC7FFF00FA
(1789710239.343468) can0 0200FD08#0100000000000000
(1789710239.343536) can1 0200FD08#0100000000000000
(1789710239.343565) can0 020008FD#807480027FFF00FA
(1789710239.343573) can1 020008FD#80897FDB7FFF0104
(1789710239.407484) can1 0200FD01#0100000000000000
(1789710239.407487) can0 0200FD01#0100000000000000
(1789710239.407657) can1 020001FD#807480287FFF0104
(1789710239.407674) can0 020001FD#7F517FE97FFF0104
(1789710239.408279) can1 0200FD02#0100000000000000
(1789710239.408308) can0 0200FD02#0100000000000000
(1789710239.408406) can1 020002FD#800280417FFF0104
(1789710239.408416) can0 020002FD#7FDD803C7FFF0104
(1789710239.409098) can1 0200FD03#0100000000000000
(1789710239.409100) can0 0200FD03#0100000000000000
(1789710239.409277) can1 020003FD#82B87FC17FFF0104
(1789710239.409282) can0 020003FD#7FFF7F447FFF0104
(1789710239.409904) can1 0200FD04#0100000000000000
(1789710239.409939) can1 020004FD#7FFE7FAE7FFF0104
(1789710239.409943) can0 0200FD04#0100000000000000
(1789710239.409973) can0 020004FD#8004804B7FFF00FA
(1789710239.410788) can1 0200FD05#0100000000000000
(1789710239.410822) can0 0200FD05#0100000000000000
(1789710239.410812) can1 020005FD#90BF800C7FFF0104
(1789710239.410852) can0 020005FD#7E607FE97FFF0104
(1789710239.411530) can1 0200FD06#0100000000000000
(1789710239.411584) can0 0200FD06#0100000000000000
(1789710239.411657) can1 020006FD#7FBC800B7FFF00FA
(1789710239.411709) can0 020006FD#83E37FE47FFF00FA
(1789710239.412341) can0 0200FD07#0100000000000000
(1789710239.412399) can1 0200FD07#0100000000000000
(1789710239.412531) can1 020007FD#7FEB7FC37FFF00FA
(1789710239.412536) can0 020007FD#7BFE80077FFF00FA
(1789710239.413097) can0 0200FD08#0100000000000000
(1789710239.413153) can1 0200FD08#0100000000000000
(1789710239.413189) can0 020008FD#807480017FFF00FA
(1789710239.413311) can1 020008FD#80897FED7FFF00FA
(1789710239.476214) can1 0200FD01#0100000000000000
(1789710239.476344) can1 020001FD#807480597FFF0104
(1789710239.476407) can0 0200FD01#0100000000000000
(1789710239.476440) can0 020001FD#7F517FA67FFF0104
(1789710239.476987) can1 0200FD02#0100000000000000
(1789710239.477082) can1 020002FD#8002802F7FFF0104
(1789710239.477158) can0 0200FD02#0100000000000000
(1789710239.477301) can0 020002FD#7FDD80637FFF0104
(1789710239.477787) can1 0200FD03#0100000000000000
(1789710239.477814) can1 020003FD#82B87FEC7FFF0104
(1789710239.477971) can0 0200FD03#0100000000000000
(1789710239.478091) can0 020003FD#80007FE87FFF0104
(1789710239.478590) can1 0200FD04#0100000000000000
(1789710239.478717) can1 020004FD#7FFE80057FFF0104
(1789710239.478782) can0 0200FD04#0100000000000000
(1789710239.478815) can0 020004FD#80047F897FFF00FA
(1789710239.479407) can1 0200FD05#0100000000000000
(1789710239.479530) can1 020005FD#90BE7FDF7FFF0104
(1789710239.479602) can0 0200FD05#0100000000000000
(1789710239.479699) can0 020005FD#7E607FE97FFF0104
(1789710239.480194) can1 0200FD06#0100000000000000
(1789710239.480294) can1 020006FD#7FBC7FD27FFF00FA
(1789710239.480406) can0 0200FD06#0100000000000000
(1789710239.480539) can0 020006FD#83E37FF27FFF00FA
(1789710239.480962) can1 0200FD07#0100000000000000
(1789710239.481073) can1 020007FD#7FEC80407FFF00FA
(1789710239.481155) can0 0200FD07#0100000000000000
(1789710239.481295) can0 020007FD#7BFE7FFC7FFF00FA
(1789710239.481821) can1 0200FD08#0100000000000000
(1789710239.481823) can1 020008FD#8089800A7FFF00FA
(1789710239.481965) can0 0200FD08#0100000000000000
(1789710239.482044) can0 020008FD#8074803B7FFF00FA
(1789710239.541610) can1 0200FD01#0100000000000000
(1789710239.541725) can1 020001FD#80747F4D7FFF0104
(1789710239.541788) can0 0200FD01#0100000000000000
(1789710239.541823) can0 020001FD#7F51801E7FFF0104
(1789710239.542420) can1 0200FD02#0100000000000000
(1789710239.542444) can1 020002FD#80027F547FFF0104
(1789710239.542595) can0 0200FD02#0100000000000000
(1789710239.542721) can0 020002FD#7FDD7F6E7FFF0104
(1789710239.543163) can1 0200FD03#0100000000000000
(1789710239.543301) can1 020003FD#82B8802A7FFF0104
(1789710239.543345) can0 0200FD03#0100000000000000
(1789710239.543458) can0 020003FD#80007FC67FFF0104
(1789710239.544019) can1 0200FD04#0100000000000000
(1789710239.544102) can0 0200FD04#0100000000000000
(1789710239.544107) can1 020004FD#7FFE7FD87FFF0104
(1789710239.544298) can0 020004FD#8005813D7FFF00FA
(1789710239.544801) can1 0200FD05#0100000000000000
(1789710239.544803) can1 020005FD#90BE7FE77FFF0104
(1789710239.544849) can0 0200FD05#0100000000000000
(1789710239.545045) can0 020005FD#7E6080067FFF0104
(1789710239.545611) can1 0200FD06#0100000000000000
(1789710239.545727) can1 020006FD#7FBB7FDD7FFF00FA
(1789710239.545790) can0 0200FD06#0100000000000000
(1789710239.545793) can0 020006FD#83E3803A7FFF00FA
(1789710239.546427) can1 0200FD07#0100000000000000
(1789710239.546433) can1 020007FD#7FEB7FF07FFF00FA
(1789710239.546597) can0 0200FD07#0100000000000000
(1789710239.546703) can0 020007FD#7BFE7FB77FFF00FA
(1789710239.547114) can1 0200FD08#0100000000000000
(1789710239.547293) can1 020008FD#80897FE37FFF0104
(1789710239.547349) can0 0200FD08#0100000000000000
(1789710239.547425) can0 020008FD#80747FFD7FFF00FA
(1789710239.610301) can1 0200FD01#0100000000000000
(1789710239.610358) can0 0200FD01#0100000000000000
(1789710239.610425) can1 020001FD#80747FC27FFF0104
(1789710239.610543) can0 020001FD#7F5180057FFF0104
(1789710239.610978) can1 0200FD02#0100000000000000
(1789710239.611103) can1 020002FD#800280157FFF0104
(1789710239.611165) can0 0200FD02#0100000000000000
(1789710239.611288) can0 020002FD#7FDD800B7FFF0104
(1789710239.611853) can1 0200FD03#0100000000000000
(1789710239.611854) can1 020003FD#82B87FB67FFF0104
(1789710239.612039) can0 0200FD03#0100000000000000
(1789710239.612072) can0 020003FD#800080EB7FFF0104
(1789710239.612600) can1 0200FD04#0100000000000000
(1789710239.612728) can1 020004FD#7FFE7F947FFF0104
(1789710239.612855) can0 0200FD04#0100000000000000
(1789710239.612975) can0 020004FD#80047F957FFF00FA
(1789710239.613419) can1 0200FD05#0100000000000000
(1789710239.613541) can1 020005FD#90BF80237FFF0104
(1789710239.613829) can0 0200FD05#0100000000000000
(1789710239.613860) can0 020005FD#7E607FEF7FFF0104
(1789710239.614222) can1 0200FD06#0100000000000000
(1789710239.614413) can1 020006FD#7FBC802C7FFF00FA
(1789710239.614601) can0 0200FD06#0100000000000000
(1789710239.614710) can0 020006FD#83E37FF77FFF00FA
(1789710239.614975) can1 0200FD07#0100000000000000
(1789710239.615102) can1 020007FD#7FEB7FBC7FFF00FA
(1789710239.615413) can0 0200FD07#0100000000000000
(1789710239.615542) can0 020007FD#7BFE7FFB7FFF00FA
(1789710239.615828) can1 0200FD08#0100000000000000
(1789710239.615865) can1 020008FD#808980137FFF0104
(1789710239.616038) can0 0200FD08#0100000000000000
(1789710239.616287) can0 020008FD#807480047FFF00FA
(1789710239.677617) can1 0200FD01#0100000000000000
(1789710239.677793) can1 020001FD#807480297FFF0104
(1789710239.677823) can0 0200FD01#0100000000000000
(1789710239.677858) can0 020001FD#7F52807B7FFF0104
(1789710239.678425) can1 0200FD02#0100000000000000
(1789710239.678457) can1 020002FD#80027F677FFF0104
(1789710239.678599) can0 0200FD02#0100000000000000
(1789710239.678714) can0 020002FD#7FDD7FD87FFF0104
(1789710239.679168) can1 0200FD03#0100000000000000
(1789710239.679416) can1 020003FD#82B87F797FFF0104
(1789710239.679448) can0 0200FD03#0100000000000000
(1789710239.679449) can0 020003FD#800080CA7FFF0104
(1789710239.679987) can1 0200FD04#0100000000000000
(1789710239.680114) can1 020004FD#7FFE7FE47FFF0104
(1789710239.680299) can0 0200FD04#0100000000000000
(1789710239.680426) can0 020004FD#8004802A7FFF00FA
(1789710239.680734) can1 0200FD05#0100000000000000
(1789710239.680855) can1 020005FD#90BE7FF97FFF0104
(1789710239.681107) can0 0200FD05#0100000000000000
(1789710239.681294) can0 020005FD#7E607FDC7FFF0104
(1789710239.681479) can1 0200FD06#0100000000000000
(1789710239.681613) can1 020006FD#7FBC80007FFF00FA
(1789710239.681867) can0 0200FD06#0100000000000000
(1789710239.682050) can0 020006FD#83E37FDF7FFF00FA
(1789710239.682317) can1 0200FD07#0100000000000000
(1789710239.682407) can1 020007FD#7FEC80227FFF00FA
(1789710239.682561) can0 0200FD07#0100000000000000
(1789710239.682796) can0 020007FD#7BFE7FF67FFF00FA
(1789710239.682857) can1 0200FD08#0100000000000000
(1789710239.683044) can1 020008FD#808980117FFF0104
(1789710239.683299) can0 0200FD08#0100000000000000
(1789710239.683428) can0 020008FD#80747FEE7FFF00FA
(1789710239.739060) can1 0200FD01#0100000000000000
(1789710239.739065) can0 0200FD01#0100000000000000
(1789710239.739115) can1 020001FD#807480197FFF0104
(1789710239.739179) can0 020001FD#7F517FA67FFF0104
(1789710239.739833) can1 0200FD02#0100000000000000
(1789710239.739865) can1 020002FD#800180447FFF0104
(1789710239.739869) can0 0200FD02#0100000000000000
(1789710239.739985) can0 020002FD#7FDD7FAA7FFF0104
(1789710239.740638) can1 0200FD03#0100000000000000
(1789710239.740643) can0 0200FD03#0100000000000000
(1789710239.740753) can1 020003FD#82B87FC97FFF0104
(1789710239.740769) can0 020003FD#8000800F7FFF0104
(1789710239.741380) can1 0200FD04#0100000000000000
(1789710239.741423) can0 0200FD04#0100000000000000
(1789710239.741458) can0 020004FD#80047FF47FFF00FA
(1789710239.741547) can1 020004FD#7FFF807E7FFF0104
(1789710239.742177) can1 0200FD05#0100000000000000
(1789710239.742302) can0 0200FD05#0100000000000000
(1789710239.742343) can1 020005FD#90BE800F7FFF0104
(1789710239.742421) can0 020005FD#7E61800D7FFF0104
(1789710239.742929) can1 0200FD06#0100000000000000
(1789710239.743050) can1 020006FD#7FBC80117FFF00FA
(1789710239.743057) can0 0200FD06#0100000000000000
(1789710239.743314) can0 020006FD#83E37FC67FFF00FA
(1789710239.743745) can1 0200FD07#0100000000000000
(1789710239.743867) can1 020007FD#7FEB803B7FFF00FA
(1789710239.743930) can0 0200FD07#0100000000000000
(1789710239.743974) can0 020007FD#7BFE80087FFF00FA
(1789710239.744491) can1 0200FD08#0100000000000000
(1789710239.744562) can1 020008FD#8089800B7FFF00FA
(1789710239.744670) can0 0200FD08#0100000000000000
(1789710239.744809) can0 020008FD#80747FF77FFF00FA
(1789710239.805242) can1 0200FD01#0100000000000000
(1789710239.805321) can0 0200FD01#0100000000000000
(1789710239.805428) can1 020001FD#80747FC77FFF0104
(1789710239.805565) can0 020001FD#7F517FCF7FFF0104
(1789710239.805994) can1 0200FD02#0100000000000000
(1789710239.806113) can0 0200FD02#0100000000000000
(1789710239.806180) can1 020002FD#800280977FFF0104
(1789710239.806306) can0 020002FD#7FDD806C7FFF0104
(1789710239.806849) can1 0200FD03#0100000000000000
(1789710239.806851) can1 020003FD#82B87FF17FFF0104
(1789710239.806894) can0 0200FD03#0100000000000000
(1789710239.807050) can0 020003FD#800080457FFF0104
(1789710239.807632) can1 0200FD04#0100000000000000
(1789710239.807742) can0 0200FD04#0100000000000000
(1789710239.807804) can1 020004FD#7FFE804E7FFF0104
(1789710239.807931) can0 020004FD#80047F807FFF00FA
(1789710239.808427) can1 0200FD05#0100000000000000
(1789710239.808560) can1 020005FD#90BE7FF47FFF0104
(1789710239.808594) can0 0200FD05#0100000000000000
(1789710239.808633) can0 020005FD#7E617FF57FFF0104
(1789710239.809222) can1 0200FD06#0100000000000000
(1789710239.809316) can1 020006FD#7FBC7FFC7FFF00FA
(1789710239.809365) can0 0200FD06#0100000000000000
(1789710239.809491) can0 020006FD#83E3801F7FFF00FA
(1789710239.809989) can1 0200FD07#0100000000000000
(1789710239.810114) can1 020007FD#7FEB7FE27FFF00FA
(1789710239.810120) can0 0200FD07#0100000000000000
(1789710239.810302) can0 020007FD#7BFE7FF07FFF00FA
(1789710239.810832) can1 0200FD08#0100000000000000
(1789710239.810839) can1 020008FD#80897FC47FFF00FA
(1789710239.810882) can0 0200FD08#0100000000000000
(1789710239.810951) can0 020008FD#80747FFD7FFF00FA
(1789710239.875629) can1 0200FD01#0100000000000000
(1789710239.875638) can0 0200FD01#0100000000000000
(1789710239.875633) can1 020001FD#807480537FFF0104
(1789710239.875745) can0 020001FD#7F5180007FFF0104
(1789710239.876380) can0 0200FD02#0100000000000000
(1789710239.876433) can1 0200FD02#0100000000000000
(1789710239.876465) can1 020002FD#800280207FFF0104
(1789710239.876553) can0 020002FD#7FDD800E7FFF0104
(1789710239.877138) can0 0200FD03#0100000000000000
(1789710239.877240) can1 0200FD03#0100000000000000
(1789710239.877321) can0 020003FD#80007F9F7FFF0104
(1789710239.877371) can1 020003FD#82B880597FFF0104
(1789710239.877997) can1 0200FD04#0100000000000000
(1789710239.877998) can0 0200FD04#0100000000000000
(1789710239.878119) can1 020004FD#7FFF7FD27FFF0104
(1789710239.878182) can0 020004FD#800580777FFF00FA
(1789710239.878808) can0 0200FD05#0100000000000000
(1789710239.878845) can1 0200FD05#0100000000000000
(1789710239.878881) can1 020005FD#90BE7FFC7FFF0104
(1789710239.878990) can0 020005FD#7E607FF17FFF0104
(1789710239.879600) can0 0200FD06#0100000000000000
(1789710239.879658) can0 020006FD#83E47FEA7FFF00FA
(1789710239.879663) can1 0200FD06#0100000000000000
(1789710239.879729) can1 020006FD#7FBC80047FFF00FA
(1789710239.880365) can0 0200FD07#0100000000000000
(1789710239.880396) can1 0200FD07#0100000000000000
(1789710239.880478) can0 020007FD#7BFD7FFA7FFF00FA
(1789710239.880558) can1 020007FD#7FEC802E7FFF00FA
(1789710239.881120) can0 0200FD08#0100000000000000
(1789710239.881121) can1 0200FD08#0100000000000000
(1789710239.881192) can0 020008FD#80747FF87FFF00FA
(1789710239.881309) can1 020008FD#808980157FFF0104
(1789710239.940460) can1 0200FD01#0100000000000000
(1789710239.940479) can1 020001FD#8074802F7FFF0104
(1789710239.940628) can0 0200FD01#0100000000000000
(1789710239.940756) can0 020001FD#7F5280047FFF0104
(1789710239.941266) can1 0200FD02#0100000000000000
(1789710239.941378) can0 0200FD02#0100000000000000
(1789710239.941435) can1 020002FD#8002800B7FFF0104
(1789710239.941568) can0 020002FD#7FDD804C7FFF0104
(1789710239.942009) can1 0200FD03#0100000000000000
(1789710239.942188) can1 020003FD#82B880347FFF0104
(1789710239.942191) can0 0200FD03#0100000000000000
(1789710239.942436) can0 020003FD#7FFF7F997FFF0104
(1789710239.942814) can1 0200FD04#0100000000000000
(1789710239.942949) can1 020004FD#7FFF80CC7FFF0104
(1789710239.943004) can0 0200FD04#0100000000000000
(1789710239.943126) can0 020004FD#800580037FFF00FA
(1789710239.943632) can1 0200FD05#0100000000000000
(1789710239.943688) can1 020005FD#90BE7FD97FFF0104
(1789710239.943751) can0 0200FD05#0100000000000000
(1789710239.943946) can0 020005FD#7E607FE17FFF0104
(1789710239.944444) can1 0200FD06#0100000000000000
(1789710239.944470) can1 020006FD#7FBC80097FFF00FA
(1789710239.944505) can0 0200FD06#0100000000000000
(1789710239.944696) can0 020006FD#83E380167FFF00FA
(1789710239.945260) can1 0200FD07#0100000000000000
(1789710239.945313) can0 0200FD07#0100000000000000
(1789710239.945376) can1 020007FD#7FEB7FD37FFF00FA
(1789710239.945439) can0 020007FD#7BFE7FF77FFF00FA
(1789710239.946010) can1 0200FD08#0100000000000000
(1789710239.946079) can1 020008FD#80897FEA7FFF0104
(1789710239.946114) can0 0200FD08#0100000000000000
(1789710239.946205) can0 020008FD#80747FFE7FFF00FA
(1789710240.008934) can1 0200FD01#0100000000000000
(1789710240.009184) can0 0200FD01#0100000000000000
(1789710240.009171) can1 020001FD#80747FBF7FFF0104
(1789710240.009193) can0 020001FD#7F5180537FFF0104
(1789710240.009856) can0 0200FD02#0100000000000000
(1789710240.009888) can0 020002FD#7FDD7FA17FFF0104
(1789710240.009893) can1 0200FD02#0100000000000000
(1789710240.009894) can1 020002FD#800280977FFF0104
(1789710240.010636) can0 0200FD03#0100000000000000
(1789710240.010638) can1 0200FD03#0100000000000000
(1789710240.010742) can0 020003FD#80007FE87FFF0104
(1789710240.010773) can1 020003FD#82B87F9A7FFF0104
(1789710240.011401) can0 0200FD04#0100000000000000
(1789710240.011404) can1 0200FD04#0100000000000000
(1789710240.011508) can0 020004FD#80047FB67FFF00FA
(1789710240.011566) can1 020004FD#7FFF7FFE7FFF0104
(1789710240.012133) can0 0200FD05#0100000000000000
(1789710240.012243) can1 0200FD05#0100000000000000
(1789710240.012331) can0 020005FD#7E607FE07FFF0104
(1789710240.012438) can1 020005FD#90BE7FEC7FFF0104
(1789710240.013025) can0 0200FD06#0100000000000000
(1789710240.013027) can1 0200FD06#0100000000000000
(1789710240.013108) can0 020006FD#83E4800C7FFF00FA
(1789710240.013142) can1 020006FD#7FBB7FE17FFF00FA
(1789710240.013864) can1 0200FD07#0100000000000000
(1789710240.013902) can0 0200FD07#0100000000000000
(1789710240.013896) can1 020007FD#7FEB80527FFF00FA
(1789710240.013906) can0 020007FD#7BFD80107FFF00FA
(1789710240.014632) can1 0200FD08#0100000000000000
(1789710240.014633) can0 0200FD08#0100000000000000
(1789710240.014702) can0 020008FD#80747FDA7FFF00FA
(1789710240.014706) can1 020008FD#8089801E7FFF0104
(1789710240.077018) can1 0200FD01#0100000000000000
(1789710240.077132) can0 0200FD01#0100000000000000
(1789710240.077134) can1 020001FD#80747FC37FFF0104
(1789710240.077324) can0 020001FD#7F517F907FFF0104
(1789710240.077857) can1 0200FD02#0100000000000000
(1789710240.077889) can1 020002FD#800280347FFF0104
(1789710240.077978) can0 0200FD02#0100000000000000
(1789710240.078010) can0 020002FD#7FDD7FCC7FFF0104
