(1789710998.025944) can1 0200FD01#0100000000000000
(1789710998.025991) can0 0200FD01#0100000000000000
(1789710998.026240) can0 020001FD#7F507F547FFF010E
(1789710998.026247) can1 020001FD#807180037FFF0104
(1789710998.026607) can0 0200FD02#0100000000000000
(1789710998.026533) can1 0200FD02#0100000000000000
(1789710998.026849) can0 020002FD#8001803A7FFF010E
(1789710998.026785) can1 020002FD#800480057FFF010E
(1789710998.027229) can0 0200FD03#0100000000000000
(1789710998.027150) can1 0200FD03#0100000000000000
(1789710998.027406) can0 020003FD#80007FAB7FFF010E
(1789710998.027321) can1 020003FD#82B880D07FFF010E
(1789710998.027853) can0 0200FD04#0100000000000000
(1789710998.027693) can1 0200FD04#0100000000000000
(1789710998.028026) can0 020004FD#80057F9F7FFF00FA
(1789710998.027932) can1 020004FD#7FFE802C7FFF010E
(1789710998.028305) can1 0200FD05#0100000000000000
(1789710998.028480) can1 020005FD#90BF80397FFF010E
(1789710998.028513) can0 0200FD05#0100000000000000
(1789710998.028743) can0 020005FD#7E7A800C7FFF0118
(1789710998.028863) can1 0200FD06#0100000000000000
(1789710998.029044) can0 0200FD06#0100000000000000
(1789710998.029217) can1 020006FD#7FBC80007FFF010E
(1789710998.029272) can0 020006FD#802280097FFF010E
(1789710998.029503) can1 0200FD07#0100000000000000
(1789710998.029670) can0 0200FD07#0100000000000000
(1789710998.029672) can1 020007FD#7FED7FC77FFF010E
(1789710998.029855) can0 020007FD#7AED7FF27FFF010E
(1789710998.030173) can1 0200FD08#0100000000000000
(1789710998.030228) can1 020008FD#8089802C7FFF010E
(1789710998.030291) can0 0200FD08#0100000000000000
(1789710998.030397) can0 020008FD#7EC07FDE7FFF010E
(1789710998.103820) can1 0200FD01#0100000000000000
(1789710998.103857) can0 0200FD01#0100000000000000
(1789710998.104036) can1 020001FD#80707F877FFF0104
(1789710998.104119) can0 020001FD#7F5080057FFF010E
(1789710998.104372) can1 0200FD02#0100000000000000
(1789710998.104504) can0 0200FD02#0100000000000000
(1789710998.104546) can1 020002FD#80037F7F7FFF010E
(1789710998.104675) can0 020002FD#800180087FFF010E
(1789710998.104924) can1 0200FD03#0100000000000000
(1789710998.105061) can0 0200FD03#0100000000000000
(1789710998.105229) can1 020003FD#82B87F827FFF010E
(1789710998.105276) can0 020003FD#80007F967FFF010E
(1789710998.105540) can1 0200FD04#0100000000000000
(1789710998.105658) can0 0200FD04#0100000000000000
(1789710998.105778) can1 020004FD#7FFE7FBA7FFF010E
(1789710998.105904) can0 020004FD#80057F6C7FFF00FA
(1789710998.106176) can1 0200FD05#0100000000000000
(1789710998.106234) can0 0200FD05#0100000000000000
(1789710998.106356) can1 020005FD#90BF7FF77FFF010E
(1789710998.106403) can0 020005FD#7E7B80167FFF0118
(1789710998.106731) can1 0200FD06#0100000000000000
(1789710998.106847) can0 0200FD06#0100000000000000
(1789710998.106970) can1 020006FD#7FBC80237FFF010E
(1789710998.107025) can0 020006FD#80227FE77FFF010E
(1789710998.107373) can1 0200FD07#0100000000000000
(1789710998.107485) can1 020007FD#7FED7FD47FFF010E
(1789710998.107528) can0 0200FD07#0100000000000000
(1789710998.107665) can0 020007FD#7AED7FC67FFF010E
(1789710998.107932) can1 0200FD08#0100000000000000
(1789710998.108049) can0 0200FD08#0100000000000000
(1789710998.108113) can1 020008FD#808980137FFF010E
(1789710998.108186) can0 020008FD#7EC07FF47FFF010E
(1789710998.159823) can0 0200FD01#0100000000000000
(1789710998.159825) can1 0200FD01#0100000000000000
(1789710998.159997) can1 020001FD#80707F817FFF0104
(1789710998.160126) can0 020001FD#7F507FEB7FFF010E
(1789710998.160502) can1 0200FD02#0100000000000000
(1789710998.160532) can0 0200FD02#0100000000000000
(1789710998.160670) can1 020002FD#8004805E7FFF010E
(1789710998.160702) can0 020002FD#800180007FFF010E
(1789710998.161060) can1 0200FD03#0100000000000000
(1789710998.161093) can0 0200FD03#0100000000000000
(1789710998.161280) can0 020003FD#800080617FFF010E
(1789710998.161312) can1 020003FD#82B87F7C7FFF010E
(1789710998.161667) can0 0200FD04#0100000000000000
(1789710998.161722) can1 0200FD04#0100000000000000
(1789710998.161858) can0 020004FD#80057F5D7FFF00FA
(1789710998.161899) can1 020004FD#7FFE7FC77FFF010E
(1789710998.162304) can0 0200FD05#0100000000000000
(1789710998.162376) can1 0200FD05#0100000000000000
(1789710998.162479) can0 020005FD#7E7B801A7FFF0118
(1789710998.162507) can1 020005FD#90BE7FEF7FFF010E
(1789710998.162883) can0 0200FD06#0100000000000000
(1789710998.162948) can1 0200FD06#0100000000000000
(1789710998.163174) can0 020006FD#80227FF77FFF010E
(1789710998.163222) can1 020006FD#7FBC7FC07FFF010E
(1789710998.163497) can0 0200FD07#0100000000000000
(1789710998.163554) can1 0200FD07#0100000000000000
(1789710998.163679) can0 020007FD#7AED80467FFF010E
(1789710998.163735) can1 020007FD#7FED7FEE7FFF010E
(1789710998.164059) can0 0200FD08#0100000000000000
(1789710998.164177) can1 0200FD08#0100000000000000
(1789710998.164210) can0 020008FD#7EC0801C7FFF010E
(1789710998.164249) can1 020008FD#80897FD37FFF010E
(1789710998.217094) can1 0200FD01#0100000000000000
(1789710998.217125) can0 0200FD01#0100000000000000
(1789710998.217241) can1 020001FD#807080737FFF0104
(1789710998.217287) can0 020001FD#7F507FAC7FFF010E
(1789710998.217671) can1 0200FD02#0100000000000000
(1789710998.217724) can0 0200FD02#0100000000000000
(1789710998.217905) can0 020002FD#80017F577FFF010E
(1789710998.217938) can1 020002FD#800480637FFF010E
(1789710998.218302) can1 0200FD03#0100000000000000
(1789710998.218303) can0 0200FD03#0100000000000000
(1789710998.218474) can1 020003FD#82B87EE07FFF010E
(1789710998.218542) can0 020003FD#80007FE77FFF010E
(1789710998.218869) can1 0200FD04#0100000000000000
(1789710998.218900) can0 0200FD04#0100000000000000
(1789710998.219054) can0 020004FD#8005801B7FFF00FA
(1789710998.219122) can1 020004FD#7FFE7FE37FFF010E
(1789710998.219435) can1 0200FD05#0100000000000000
(1789710998.219501) can0 0200FD05#0100000000000000
(1789710998.219664) can1 020005FD#90BE7FF87FFF010E
(1789710998.219742) can0 020005FD#7E7B80187FFF0118
(1789710998.219993) can1 0200FD06#0100000000000000
(1789710998.220067) can0 0200FD06#0100000000000000
(1789710998.220226) can1 020006FD#7FBC804E7FFF010E
(1789710998.220279) can0 020006FD#802280097FFF010E
(1789710998.220628) can1 0200FD07#0100000000000000
(1789710998.220720) can0 0200FD07#0100000000000000
(1789710998.220864) can1 020007FD#7FEE802A7FFF010E
(1789710998.220897) can0 020007FD#7AED7FF57FFF010E
(1789710998.221257) can1 0200FD08#0100000000000000
(1789710998.221351) can1 020008FD#80897FE47FFF010E
(1789710998.221382) can0 0200FD08#0100000000000000
(1789710998.221439) can0 020008FD#7EC07FE87FFF010E
(1789710998.275530) can1 0200FD01#0100000000000000
(1789710998.275573) can0 0200FD01#0100000000000000
(1789710998.275763) can1 020001FD#80717FFD7FFF0104
(1789710998.275807) can0 020001FD#7F5080167FFF010E
(1789710998.276071) can1 0200FD02#0100000000000000
(1789710998.276185) can0 0200FD02#0100000000000000
(1789710998.276285) can1 020002FD#8004800A7FFF0104
(1789710998.276369) can0 020002FD#80017FD17FFF010E
(1789710998.276734) can1 0200FD03#0100000000000000
(1789710998.276766) can0 0200FD03#0100000000000000
(1789710998.276910) can1 020003FD#82B87FAB7FFF010E
(1789710998.276995) can0 020003FD#80007FC27FFF010E
(1789710998.277384) can0 0200FD04#0100000000000000
(1789710998.277385) can1 0200FD04#0100000000000000
(1789710998.277498) can1 020004FD#7FFE80837FFF010E
(1789710998.277557) can0 020004FD#80057FF37FFF00FA
(1789710998.277941) can0 0200FD05#0100000000000000
(1789710998.277973) can1 0200FD05#0100000000000000
(1789710998.278235) can1 020005FD#90BE7FFD7FFF010E
(1789710998.278264) can0 020005FD#7E7B80437FFF0118
(1789710998.278553) can0 0200FD06#0100000000000000
(1789710998.278610) can1 0200FD06#0100000000000000
(1789710998.278792) can1 020006FD#7FBC800B7FFF010E
(1789710998.278824) can0 020006FD#802280157FFF0118
(1789710998.279184) can0 0200FD07#0100000000000000
(1789710998.279246) can1 0200FD07#0100000000000000
(1789710998.279355) can0 020007FD#7AED801B7FFF010E
(1789710998.279422) can1 020007FD#7FED7FD17FFF010E
(1789710998.279755) can0 0200FD08#0100000000000000
(1789710998.279806) can1 0200FD08#0100000000000000
(1789710998.279886) can0 020008FD#7EC07FE67FFF010E
(1789710998.279941) can1 020008FD#808980017FFF010E
(1789710998.334651) can1 0200FD01#0100000000000000
(1789710998.334701) can0 0200FD01#0100000000000000
(1789710998.334891) can1 020001FD#8071801F7FFF0104
(1789710998.334947) can0 020001FD#7F507FAE7FFF010E
(1789710998.335252) can1 0200FD02#0100000000000000
(1789710998.335320) can0 0200FD02#0100000000000000
(1789710998.335430) can1 020002FD#80037FA07FFF0104
(1789710998.335498) can0 020002FD#8001801F7FFF010E
(1789710998.335824) can1 0200FD03#0100000000000000
(1789710998.335890) can0 0200FD03#0100000000000000
(1789710998.336071) can1 020003FD#82B880B57FFF010E
(1789710998.336200) can0 020003FD#800080907FFF010E
(1789710998.336444) can1 0200FD04#0100000000000000
(1789710998.336516) can0 0200FD04#0100000000000000
(1789710998.336686) can1 020004FD#7FFE7F967FFF010E
(1789710998.336754) can0 020004FD#800580717FFF00FA
(1789710998.337000) can1 0200FD05#0100000000000000
(1789710998.337074) can0 0200FD05#0100000000000000
(1789710998.337234) can1 020005FD#90BE7FE97FFF010E
(1789710998.337287) can0 020005FD#7E7A7FE67FFF0118
(1789710998.337622) can1 0200FD06#0100000000000000
(1789710998.337667) can0 0200FD06#0100000000000000
(1789710998.337860) can1 020006FD#7FBC80217FFF010E
(1789710998.337914) can0 020006FD#802280087FFF010E
(1789710998.338254) can1 0200FD07#0100000000000000
(1789710998.338255) can0 0200FD07#0100000000000000
(1789710998.338360) can1 020007FD#7FEE7FFE7FFF010E
(1789710998.338432) can0 020007FD#7AED7FCF7FFF010E
(1789710998.338825) can1 0200FD08#0100000000000000
(1789710998.338827) can0 0200FD08#0100000000000000
(1789710998.338946) can1 020008FD#808980037FFF010E
(1789710998.338978) can0 020008FD#7EC0802C7FFF010E
(1789710998.391724) can0 0200FD01#0100000000000000
(1789710998.391760) can1 0200FD01#0100000000000000
(1789710998.391903) can1 020001FD#80707FFA7FFF0104
(1789710998.391956) can0 020001FD#7F507FC17FFF010E
(1789710998.392326) can1 0200FD02#0100000000000000
(1789710998.392327) can0 0200FD02#0100000000000000
(1789710998.392504) can1 020002FD#80047FA87FFF010E
(1789710998.392511) can0 020002FD#80017FFA7FFF010E
(1789710998.392889) can0 0200FD03#0100000000000000
(1789710998.392930) can1 0200FD03#0100000000000000
(1789710998.393193) can0 020003FD#80007FF07FFF010E
(1789710998.393226) can1 020003FD#82B880647FFF010E
(1789710998.393509) can0 0200FD04#0100000000000000
(1789710998.393551) can1 0200FD04#0100000000000000
(1789710998.393748) can0 020004FD#800580ED7FFF00FA
(1789710998.393780) can1 020004FD#7FFE801E7FFF010E
(1789710998.394066) can0 0200FD05#0100000000000000
(1789710998.394108) can1 0200FD05#0100000000000000
(1789710998.394292) can1 020005FD#90BF7FFF7FFF010E
(1789710998.394325) can0 020005FD#7E7A7FDA7FFF0118
(1789710998.394677) can1 0200FD06#0100000000000000
(1789710998.394728) can0 0200FD06#0100000000000000
(1789710998.394902) can0 020006FD#80227FC37FFF0118
(1789710998.394935) can1 020006FD#7FBC7FE27FFF010E
(1789710998.395259) can1 0200FD07#0100000000000000
(1789710998.395323) can0 0200FD07#0100000000000000
(1789710998.395435) can1 020007FD#7FEE801D7FFF010E
(1789710998.395502) can0 020007FD#7AED802E7FFF010E
(1789710998.395820) can1 0200FD08#0100000000000000
(1789710998.395887) can0 0200FD08#0100000000000000
(1789710998.395988) can1 020008FD#80897FE17FFF010E
(1789710998.396033) can0 020008FD#7EC080327FFF010E
(1789710998.448669) can1 0200FD01#0100000000000000
(1789710998.448717) can0 0200FD01#0100000000000000
(1789710998.448904) can1 020001FD#80707FCE7FFF0104
(1789710998.448947) can0 020001FD#7F507FF67FFF010E
(1789710998.449286) can1 0200FD02#0100000000000000
(1789710998.449328) can0 0200FD02#0100000000000000
(1789710998.449461) can1 020002FD#8003804A7FFF010E
(1789710998.449504) can0 020002FD#80017FA67FFF010E
(1789710998.449830) can1 0200FD03#0100000000000000
(1789710998.449903) can0 0200FD03#0100000000000000
(1789710998.450064) can1 020003FD#82B87FB47FFF010E
(1789710998.450200) can0 020003FD#800080237FFF010E
(1789710998.450456) can1 0200FD04#0100000000000000
(1789710998.450519) can0 0200FD04#0100000000000000
(1789710998.450628) can1 020004FD#7FFE7FF97FFF010E
(1789710998.450758) can0 020004FD#8005800A7FFF00FA
(1789710998.451079) can0 0200FD05#0100000000000000
(1789710998.451110) can1 0200FD05#0100000000000000
(1789710998.451239) can1 020005FD#90BF80067FFF010E
(1789710998.451293) can0 020005FD#7E7B80147FFF0118
(1789710998.451699) can1 0200FD06#0100000000000000
(1789710998.451739) can0 0200FD06#0100000000000000
(1789710998.451926) can0 020006FD#802280037FFF0118
(1789710998.451961) can1 020006FD#7FBC7FDB7FFF010E
(1789710998.452325) can1 0200FD07#0100000000000000
(1789710998.452400) can0 0200FD07#0100000000000000
(1789710998.452507) can1 020007FD#7FED7FBE7FFF010E
(1789710998.452510) can0 020007FD#7AED802B7FFF010E
(1789710998.452900) can1 0200FD08#0100000000000000
(1789710998.452964) can0 0200FD08#0100000000000000
(1789710998.453036) can1 020008FD#808980137FFF010E
(1789710998.453140) can0 020008FD#7EC0800B7FFF010E
(1789710998.505790) can1 0200FD01#0100000000000000
(1789710998.505828) can0 0200FD01#0100000000000000
(1789710998.506032) can0 020001FD#7F50803E7FFF010E
(1789710998.506039) can1 020001FD#807080127FFF0104
(1789710998.506421) can1 0200FD02#0100000000000000
(1789710998.506423) can0 0200FD02#0100000000000000
(1789710998.506593) can1 020002FD#800380587FFF010E
(1789710998.506599) can0 020002FD#8001806C7FFF010E
(1789710998.506984) can1 0200FD03#0100000000000000
(1789710998.506986) can0 0200FD03#0100000000000000
(1789710998.507269) can1 020003FD#82B8800B7FFF010E
(1789710998.507276) can0 020003FD#800080A17FFF010E
(1789710998.507573) can1 0200FD04#0100000000000000
(1789710998.507603) can0 0200FD04#0100000000000000
(1789710998.507757) can0 020004FD#80057F987FFF00FA
(1789710998.507803) can1 020004FD#7FFE7FE57FFF010E
(1789710998.508119) can1 0200FD05#0100000000000000
(1789710998.508205) can0 0200FD05#0100000000000000
(1789710998.508381) can0 020005FD#7E7B7FDF7FFF0118
(1789710998.508415) can1 020005FD#90BF80467FFF010E
(1789710998.508708) can1 0200FD06#0100000000000000
(1789710998.508761) can0 0200FD06#0100000000000000
(1789710998.508946) can1 020006FD#7FBC802F7FFF010E
(1789710998.508998) can0 020006FD#80227FFA7FFF0118
(1789710998.509331) can1 0200FD07#0100000000000000
(1789710998.509389) can0 0200FD07#0100000000000000
(1789710998.509509) can1 020007FD#7FEE80167FFF010E
(1789710998.509562) can0 020007FD#7AED7FD47FFF010E
(1789710998.509893) can1 0200FD08#0100000000000000
(1789710998.509953) can0 0200FD08#0100000000000000
(1789710998.510031) can1 020008FD#808980097FFF010E
(1789710998.510152) can0 020008FD#7EC07FC77FFF010E
(1789710998.564100) can0 0200FD01#0100000000000000
(1789710998.564124) can1 0200FD01#0100000000000000
(1789710998.564260) can1 020001FD#80707FC27FFF0104
(1789710998.564306) can0 020001FD#7F5080217FFF010E
(1789710998.564746) can0 0200FD02#0100000000000000
(1789710998.564780) can1 0200FD02#0100000000000000
(1789710998.564912) can0 020002FD#800280A97FFF010E
(1789710998.564946) can1 020002FD#800480927FFF010E
(1789710998.565339) can1 0200FD03#0100000000000000
(1789710998.565341) can0 0200FD03#0100000000000000
(1789710998.565512) can0 020003FD#800080107FFF010E
(1789710998.565574) can1 020003FD#82B880067FFF010E
(1789710998.565894) can1 0200FD04#0100000000000000
(1789710998.565926) can0 0200FD04#0100000000000000
(1789710998.566207) can0 020004FD#800580D07FFF00FA
(1789710998.566238) can1 020004FD#7FFE7FB67FFF010E
(1789710998.566528) can0 0200FD05#0100000000000000
(1789710998.566529) can1 0200FD05#0100000000000000
(1789710998.566762) can0 020005FD#7E7A7FE47FFF0118
(1789710998.566794) can1 020005FD#90BE7FD27FFF010E
(1789710998.567086) can0 0200FD06#0100000000000000
(1789710998.567087) can1 0200FD06#0100000000000000
(1789710998.567304) can1 020006FD#7FBC800F7FFF010E
(1789710998.567336) can0 020006FD#802280107FFF010E
(1789710998.567682) can0 0200FD07#0100000000000000
(1789710998.567723) can1 0200FD07#0100000000000000
(1789710998.567925) can0 020007FD#7AED7FE17FFF010E
(1789710998.567956) can1 020007FD#7FEE80157FFF010E
(1789710998.568274) can1 0200FD08#0100000000000000
(1789710998.568275) can0 0200FD08#0100000000000000
(1789710998.568394) can1 020008FD#808980147FFF010E
(1789710998.568399) can0 020008FD#7EC180167FFF010E
(1789710998.624532) can0 0200FD01#0100000000000000
(1789710998.624534) can1 0200FD01#0100000000000000
(1789710998.624650) can1 020001FD#80717F967FFF0104
(1789710998.624771) can0 020001FD#7F507FAE7FFF010E
(1789710998.625092) can0 0200FD02#0100000000000000
(1789710998.625093) can1 0200FD02#0100000000000000
(1789710998.625309) can0 020002FD#80017F927FFF010E
(1789710998.625343) can1 020002FD#80047FCC7FFF010E
(1789710998.625748) can1 0200FD03#0100000000000000
(1789710998.625749) can0 0200FD03#0100000000000000
(1789710998.625926) can1 020003FD#82B87F8D7FFF010E
(1789710998.625961) can0 020003FD#800080487FFF010E
(1789710998.626334) can0 0200FD04#0100000000000000
(1789710998.626335) can1 0200FD04#0100000000000000
(1789710998.626515) can0 020004FD#800580B57FFF00FA
(1789710998.626549) can1 020004FD#7FFE7FB27FFF010E
(1789710998.626903) can1 0200FD05#0100000000000000
(1789710998.626904) can0 0200FD05#0100000000000000
(1789710998.627201) can0 020005FD#7E7B80357FFF0118
(1789710998.627234) can1 020005FD#90BE7FDE7FFF010E
(1789710998.627522) can0 0200FD06#0100000000000000
(1789710998.627555) can1 0200FD06#0100000000000000
(1789710998.627768) can0 020006FD#80227FF17FFF010E
(1789710998.627772) can1 020006FD#7FBC7FF77FFF010E
(1789710998.628090) can0 0200FD07#0100000000000000
(1789710998.628091) can1 0200FD07#0100000000000000
(1789710998.628306) can0 020007FD#7AED801C7FFF010E
(1789710998.628340) can1 020007FD#7FED80047FFF010E
(1789710998.628687) can0 0200FD08#0100000000000000
(1789710998.628720) can1 0200FD08#0100000000000000
(1789710998.628833) can1 020008FD#80897FB17FFF010E
(1789710998.628836) can0 020008FD#7EC07FC67FFF010E
(1789710998.682693) can1 0200FD01#0100000000000000
(1789710998.682696) can0 0200FD01#0100000000000000
(1789710998.682908) can1 020001FD#807180397FFF0104
(1789710998.682940) can0 020001FD#7F50802A7FFF010E
(1789710998.683278) can0 0200FD02#0100000000000000
(1789710998.683279) can1 0200FD02#0100000000000000
(1789710998.683450) can0 020002FD#800180587FFF010E
(1789710998.683455) can1 020002FD#80037FF97FFF010E
(1789710998.683834) can0 0200FD03#0100000000000000
(1789710998.683866) can1 0200FD03#0100000000000000
(1789710998.684064) can0 020003FD#800080057FFF010E
(1789710998.684099) can1 020003FD#82B880107FFF010E
(1789710998.684406) can0 0200FD04#0100000000000000
(1789710998.684465) can1 0200FD04#0100000000000000
(1789710998.684647) can0 020004FD#80057FC57FFF00FA
(1789710998.684700) can1 020004FD#7FFE7FEF7FFF010E
(1789710998.684967) can0 0200FD05#0100000000000000
(1789710998.685029) can1 0200FD05#0100000000000000
(1789710998.685252) can1 020005FD#90BF803A7FFF010E
(1789710998.685286) can0 020005FD#7E7B800C7FFF0118
(1789710998.685576) can0 0200FD06#0100000000000000
(1789710998.685647) can1 0200FD06#0100000000000000
(1789710998.685822) can1 020006FD#7FBC80037FFF010E
(1789710998.685856) can0 020006FD#802280097FFF010E
(1789710998.686211) can0 0200FD07#0100000000000000
(1789710998.686275) can1 0200FD07#0100000000000000
(1789710998.686392) can0 020007FD#7AED7FC97FFF010E
(1789710998.686454) can1 020007FD#7FEE80447FFF010E
(1789710998.686775) can0 0200FD08#0100000000000000
(1789710998.686844) can1 0200FD08#0100000000000000
(1789710998.686925) can0 020008FD#7EC0801F7FFF010E
(1789710998.686990) can1 020008FD#808980017FFF010E
(1789710998.739696) can1 0200FD01#0100000000000000
(1789710998.739699) can0 0200FD01#0100000000000000
(1789710998.739922) can1 020001FD#80717FEF7FFF0104
(1789710998.739949) can0 020001FD#7F507FF37FFF010E
(1789710998.740279) can0 0200FD02#0100000000000000
(1789710998.740307) can1 0200FD02#0100000000000000
(1789710998.740453) can0 020002FD#80017FB87FFF010E
(1789710998.740485) can1 020002FD#80047FC97FFF0104
(1789710998.740834) can0 0200FD03#0100000000000000
(1789710998.740835) can1 0200FD03#0100000000000000
(1789710998.741076) can0 020003FD#80007FEC7FFF010E
(1789710998.741078) can1 020003FD#82B880317FFF010E
(1789710998.741411) can0 0200FD04#0100000000000000
(1789710998.741481) can1 0200FD04#0100000000000000
(1789710998.741657) can0 020004FD#80057FDD7FFF00FA
(1789710998.741709) can1 020004FD#7FFE7FCC7FFF010E
(1789710998.741976) can0 0200FD05#0100000000000000
(1789710998.742028) can1 0200FD05#0100000000000000
(1789710998.742261) can0 020005FD#7E7B7FE77FFF0118
(1789710998.742292) can1 020005FD#90BE7FF87FFF010E
(1789710998.742631) can0 0200FD06#0100000000000000
(1789710998.742660) can1 0200FD06#0100000000000000
(1789710998.742800) can0 020006FD#8022801C7FFF010E
(1789710998.742898) can1 020006FD#7FBC80257FFF010E
(1789710998.743296) can0 0200FD07#0100000000000000
(1789710998.743302) can1 0200FD07#0100000000000000
(1789710998.743410) can0 020007FD#7AED800B7FFF010E
(1789710998.743470) can1 020007FD#7FEE80507FFF010E
(1789710998.743869) can1 0200FD08#0100000000000000
(1789710998.743874) can0 0200FD08#0100000000000000
(1789710998.743992) can1 020008FD#80897FE57FFF010E
(1789710998.744004) can0 020008FD#7EC080047FFF010E
(1789710998.801021) can1 0200FD01#0100000000000000
(1789710998.801055) can0 0200FD01#0100000000000000
(1789710998.801266) can1 020001FD#80707F7D7FFF0104
(1789710998.801296) can0 020001FD#7F5080397FFF010E
(1789710998.801659) can0 0200FD02#0100000000000000
(1789710998.801690) can1 0200FD02#0100000000000000
(1789710998.801778) can1 020002FD#80047F6D7FFF010E
(1789710998.801904) can0 020002FD#80017FDB7FFF010E
(1789710998.802286) can1 0200FD03#0100000000000000
(1789710998.802352) can0 0200FD03#0100000000000000
(1789710998.802455) can1 020003FD#82B880E17FFF010E
(1789710998.802488) can0 020003FD#80007FDB7FFF010E
(1789710998.802857) can1 0200FD04#0100000000000000
(1789710998.802918) can0 0200FD04#0100000000000000
(1789710998.803163) can1 020004FD#7FFE80397FFF010E
(1789710998.803211) can0 020004FD#80057FEA7FFF00FA
(1789710998.803474) can1 0200FD05#0100000000000000
(1789710998.803532) can0 0200FD05#0100000000000000
(1789710998.803649) can1 020005FD#90BE7FB77FFF010E
(1789710998.803776) can0 020005FD#7E7A7FC77FFF0118
(1789710998.804035) can1 0200FD06#0100000000000000
(1789710998.804213) can0 0200FD06#0100000000000000
(1789710998.804261) can1 020006FD#7FBC7FFE7FFF010E
(1789710998.804322) can0 020006FD#80217FCA7FFF010E
(1789710998.804634) can1 0200FD07#0100000000000000
(1789710998.804764) can0 0200FD07#0100000000000000
(1789710998.804882) can1 020007FD#7FEE7FCE7FFF010E
(1789710998.805001) can0 020007FD#7AED80157FFF0118
(1789710998.805281) can1 0200FD08#0100000000000000
(1789710998.805340) can0 0200FD08#0100000000000000
(1789710998.805342) can1 020008FD#80897FED7FFF010E
(1789710998.805455) can0 020008FD#7EC07F9F7FFF010E
(1789710998.862462) can1 0200FD01#0100000000000000
(1789710998.862503) can0 0200FD01#0100000000000000
(1789710998.862599) can1 020001FD#807080097FFF0104
(1789710998.862765) can0 020001FD#7F507FF87FFF010E
(1789710998.863012) can1 0200FD02#0100000000000000
(1789710998.863049) can0 0200FD02#0100000000000000
(1789710998.863284) can1 020002FD#80037F847FFF010E
(1789710998.863287) can0 020002FD#80017FF67FFF010E
(1789710998.863659) can1 0200FD03#0100000000000000
(1789710998.863660) can0 0200FD03#0100000000000000
(1789710998.863838) can1 020003FD#82B880927FFF010E
(1789710998.863919) can0 020003FD#8000801D7FFF010E
(1789710998.864290) can1 0200FD04#0100000000000000
(1789710998.864292) can0 0200FD04#0100000000000000
(1789710998.864400) can1 020004FD#7FFE7F3B7FFF010E
(1789710998.864433) can0 020004FD#80057F507FFF00FA
(1789710998.864847) can1 0200FD05#0100000000000000
(1789710998.864912) can0 0200FD05#0100000000000000
(1789710998.865085) can1 020005FD#90BE7FF37FFF010E
(1789710998.865118) can0 020005FD#7E7B801D7FFF0118
(1789710998.865478) can1 0200FD06#0100000000000000
(1789710998.865539) can0 0200FD06#0100000000000000
(1789710998.865718) can1 020006FD#7FBC805E7FFF010E
(1789710998.865779) can0 020006FD#80217FF47FFF010E
(1789710998.866039) can1 0200FD07#0100000000000000
(1789710998.866216) can0 0200FD07#0100000000000000
(1789710998.866276) can1 020007FD#7FEE800C7FFF010E
(1789710998.866327) can0 020007FD#7AED80067FFF010E
(1789710998.866656) can1 0200FD08#0100000000000000
(1789710998.866777) can0 0200FD08#0100000000000000
(1789710998.866812) can1 020008FD#80897FC57FFF010E
(1789710998.866915) can0 020008FD#7EC080157FFF010E
(1789710998.920223) can1 0200FD01#0100000000000000
(1789710998.920284) can0 0200FD01#0100000000000000
(1789710998.920392) can1 020001FD#807180027FFF0104
(1789710998.920460) can0 020001FD#7F5080437FFF010E
(1789710998.920784) can1 0200FD02#0100000000000000
(1789710998.920856) can0 0200FD02#0100000000000000
(1789710998.921019) can1 020002FD#800480477FFF010E
(1789710998.921100) can0 020002FD#80017F667FFF010E
(1789710998.921418) can1 0200FD03#0100000000000000
(1789710998.921483) can0 0200FD03#0100000000000000
(1789710998.921598) can1 020003FD#82B880107FFF010E
(1789710998.921714) can0 020003FD#80007F987FFF010E
(1789710998.922031) can0 0200FD04#0100000000000000
(1789710998.922065) can1 0200FD04#0100000000000000
(1789710998.922269) can0 020004FD#80057F3D7FFF00FA
(1789710998.922301) can1 020004FD#7FFE80537FFF010E
(1789710998.922660) can1 0200FD05#0100000000000000
(1789710998.922693) can0 0200FD05#0100000000000000
(1789710998.922893) can1 020005FD#90BE7FDA7FFF010E
(1789710998.922927) can0 020005FD#7E7A801C7FFF0118
(1789710998.923289) can1 0200FD06#0100000000000000
(1789710998.923290) can0 0200FD06#0100000000000000
(1789710998.923459) can0 020006FD#802280197FFF010E
(1789710998.923492) can1 020006FD#7FBC80177FFF010E
(1789710998.923852) can1 0200FD07#0100000000000000
(1789710998.923918) can0 0200FD07#0100000000000000
(1789710998.924036) can1 020007FD#7FED801B7FFF010E
(1789710998.924039) can0 020007FD#7AED7FF17FFF010E
(1789710998.924418) can1 0200FD08#0100000000000000
(1789710998.924536) can0 0200FD08#0100000000000000
(1789710998.924569) can1 020008FD#808980257FFF010E
(1789710998.924690) can0 020008FD#7EC080037FFF010E
(1789710998.979114) can1 0200FD01#0100000000000000
(1789710998.979265) can1 020001FD#8070804D7FFF0104
(1789710998.979260) can0 0200FD01#0100000000000000
(1789710998.979345) can0 020001FD#7F50800B7FFF010E
(1789710998.979842) can1 0200FD02#0100000000000000
(1789710998.979967) can1 020002FD#8003808A7FFF0104
(1789710998.979973) can0 0200FD02#0100000000000000
(1789710998.980226) can0 020002FD#800180517FFF010E
(1789710998.980653) can1 0200FD03#0100000000000000
(1789710998.980755) can1 020003FD#82B87F987FFF010E
(1789710998.980786) can0 0200FD03#0100000000000000
(1789710998.980900) can0 020003FD#8000806C7FFF010E
(1789710998.981406) can1 0200FD04#0100000000000000
(1789710998.981529) can0 0200FD04#0100000000000000
(1789710998.981584) can1 020004FD#7FFE80187FFF010E
(1789710998.981710) can0 020004FD#800580587FFF00FA
(1789710998.982214) can1 0200FD05#0100000000000000
(1789710998.982335) can1 020005FD#90BE7FFC7FFF010E
(1789710998.982339) can0 0200FD05#0100000000000000
(1789710998.982458) can0 020005FD#7E7A80127FFF0118
(1789710998.982965) can1 0200FD06#0100000000000000
(1789710998.983086) can1 020006FD#7FBC80077FFF010E
(1789710998.983089) can0 0200FD06#0100000000000000
(1789710998.983239) can0 020006FD#802280097FFF010E
(1789710998.983779) can1 0200FD07#0100000000000000
(1789710998.983897) can0 0200FD07#0100000000000000
(1789710998.983968) can1 020007FD#7FED7FE87FFF010E
(1789710998.984005) can0 020007FD#7AED7FE57FFF010E
(1789710998.984652) can1 0200FD08#0100000000000000
(1789710998.984655) can0 0200FD08#0100000000000000
(1789710998.984725) can1 020008FD#808980297FFF010E
(1789710998.984731) can0 020008FD#7EC080097FFF010E
(1789710999.040095) can0 0200FD01#0100000000000000
(1789710999.040148) can1 0200FD01#0100000000000000
(1789710999.040224) can0 020001FD#7F507F857FFF010E
(1789710999.040337) can1 020001FD#8070806E7FFF0104
(1789710999.040901) can0 0200FD02#0100000000000000
(1789710999.040902) can1 0200FD02#0100000000000000
(1789710999.041005) can0 020002FD#8001802B7FFF010E
(1789710999.041039) can1 020002FD#800380017FFF010E
(1789710999.041756) can1 0200FD03#0100000000000000
(1789710999.041785) can1 020003FD#82B880107FFF010E
(1789710999.041790) can0 0200FD03#0100000000000000
(1789710999.041791) can0 020003FD#80007FA87FFF010E
(1789710999.042525) can1 0200FD04#0100000000000000
(1789710999.042527) can0 0200FD04#0100000000000000
(1789710999.042636) can1 020004FD#7FFE809F7FFF010E
(1789710999.042670) can0 020004FD#80057FE67FFF00FA
(1789710999.043279) can1 0200FD05#0100000000000000
(1789710999.043337) can0 0200FD05#0100000000000000
(1789710999.043386) can1 020005FD#90BF80097FFF010E
(1789710999.043467) can0 020005FD#7E7B7FD17FFF0118
(1789710999.044039) can1 0200FD06#0100000000000000
(1789710999.044043) can0 0200FD06#0100000000000000
(1789710999.044217) can1 020006FD#7FBC80017FFF010E
(1789710999.044248) can0 020006FD#802280197FFF010E
(1789710999.044840) can1 0200FD07#0100000000000000
(1789710999.044842) can0 0200FD07#0100000000000000
(1789710999.044964) can1 020007FD#7FED7FE47FFF010E
(1789710999.044969) can0 020007FD#7AED80017FFF010E
(1789710999.045660) can0 0200FD08#0100000000000000
(1789710999.045728) can0 020008FD#7EC080147FFF010E
(1789710999.045762) can1 0200FD08#0100000000000000
(1789710999.045766) can1 020008FD#808980347FFF010E
(1789710999.101753) can1 0200FD01#0100000000000000
(1789710999.101785) can1 020001FD#8070800B7FFF0104
(1789710999.101792) can0 0200FD01#0100000000000000
(1789710999.101883) can0 020001FD#7F5080437FFF010E
(1789710999.102530) can1 0200FD02#0100000000000000
(1789710999.102532) can0 0200FD02#0100000000000000
(1789710999.102634) can1 020002FD#80037FE07FFF010E
(1789710999.102667) can0 020002FD#80017FDA7FFF010E
(1789710999.103282) can1 0200FD03#0100000000000000
(1789710999.103342) can0 0200FD03#0100000000000000
(1789710999.103375) can0 020003FD#80007F1A7FFF010E
(1789710999.103466) can1 020003FD#82B880867FFF010E
(1789710999.104036) can1 0200FD04#0100000000000000
(1789710999.104148) can0 0200FD04#0100000000000000
(1789710999.104232) can1 020004FD#7FFE7F4A7FFF010E
(1789710999.104279) can0 020004FD#80057F467FFF00FA
(1789710999.104906) can1 0200FD05#0100000000000000
(1789710999.104908) can0 0200FD05#0100000000000000
(1789710999.105009) can1 020005FD#90BF80417FFF010E
(1789710999.105043) can0 020005FD#7E7B7FF77FFF0118
(1789710999.105761) can0 0200FD06#0100000000000000
(1789710999.105793) can0 020006FD#80227FF77FFF010E
(1789710999.105798) can1 0200FD06#0100000000000000
(1789710999.105800) can1 020006FD#7FBC7FCC7FFF010E
(1789710999.106537) can1 0200FD07#0100000000000000
(1789710999.106539) can0 0200FD07#0100000000000000
(1789710999.106645) can1 020007FD#7FEE80327FFF010E
(1789710999.106716) can0 020007FD#7AED7FE37FFF010E
(1789710999.107281) can1 0200FD08#0100000000000000
(1789710999.107341) can0 0200FD08#0100000000000000
(1789710999.107373) can0 020008FD#7EC180407FFF010E
(1789710999.107377) can1 020008FD#8089802D7FFF010E
(1789710999.159499) can1 0200FD01#0100000000000000
(1789710999.159559) can0 0200FD01#0100000000000000
(1789710999.159734) can1 020001FD#80707FAE7FFF0104
(1789710999.159849) can0 020001FD#7F5080257FFF010E
(1789710999.160227) can1 0200FD02#0100000000000000
(1789710999.160280) can0 0200FD02#0100000000000000
(1789710999.160344) can1 020002FD#80037FC27FFF0104
(1789710999.160406) can0 020002FD#80017FBC7FFF010E
(1789710999.161034) can1 0200FD03#0100000000000000
(1789710999.161035) can0 0200FD03#0100000000000000
(1789710999.161218) can1 020003FD#82B87FED7FFF010E
(1789710999.161263) can0 020003FD#80007F6A7FFF010E
(1789710999.161846) can1 0200FD04#0100000000000000
(1789710999.161879) can1 020004FD#7FFE800D7FFF010E
(1789710999.161882) can0 0200FD04#0100000000000000
(1789710999.161911) can0 020004FD#80057FBD7FFF00FA
(1789710999.162659) can0 0200FD05#0100000000000000
(1789710999.162720) can1 0200FD05#0100000000000000
(1789710999.162754) can1 020005FD#90BF800D7FFF010E
(1789710999.162787) can0 020005FD#7E7A7FED7FFF0118
(1789710999.163423) can0 0200FD06#0100000000000000
(1789710999.163538) can1 0200FD06#0100000000000000
(1789710999.163540) can0 020006FD#8022800A7FFF010E
(1789710999.163660) can1 020006FD#7FBC80177FFF010E
(1789710999.164226) can0 0200FD07#0100000000000000
(1789710999.164343) can0 020007FD#7AED7FF47FFF010E
(1789710999.164376) can1 0200FD07#0100000000000000
(1789710999.164377) can1 020007FD#7FED7FE27FFF010E
(1789710999.164973) can0 0200FD08#0100000000000000
(1789710999.165095) can0 020008FD#7EC0801A7FFF010E
(1789710999.165147) can1 0200FD08#0100000000000000
(1789710999.165234) can1 020008FD#8089800C7FFF010E
(1789710999.216541) can1 0200FD01#0100000000000000
(1789710999.216667) can1 020001FD#80707FDC7FFF0104
(1789710999.216728) can0 0200FD01#0100000000000000
(1789710999.216762) can0 020001FD#7F50806B7FFF010E
(1789710999.217348) can1 0200FD02#0100000000000000
(1789710999.217471) can1 020002FD#800380707FFF010E
(1789710999.217535) can0 0200FD02#0100000000000000
(1789710999.217659) can0 020002FD#800180137FFF010E
(1789710999.218160) can1 0200FD03#0100000000000000
(1789710999.218287) can1 020003FD#82B9812C7FFF010E
(1789710999.218290) can0 0200FD03#0100000000000000
(1789710999.218473) can0 020003FD#80007FF77FFF010E
(1789710999.218908) can1 0200FD04#0100000000000000
(1789710999.219035) can1 020004FD#7FFE7FB77FFF010E
(1789710999.219038) can0 0200FD04#0100000000000000
(1789710999.219252) can0 020004FD#800580607FFF00FA
(1789710999.219787) can1 0200FD05#0100000000000000
(1789710999.219789) can1 020005FD#90BE7FD57FFF010E
(1789710999.219848) can0 0200FD05#0100000000000000
(1789710999.219882) can0 020005FD#7E7A7FFB7FFF0118
(1789710999.220538) can1 0200FD06#0100000000000000
(1789710999.220604) can0 0200FD06#0100000000000000
(1789710999.220662) can1 020006FD#7FBC7FC07FFF010E
(1789710999.220747) can0 020006FD#80217FC07FFF010E
(1789710999.221351) can1 0200FD07#0100000000000000
(1789710999.221384) can1 020007FD#7FED7FD77FFF010E
(1789710999.221417) can0 0200FD07#0100000000000000
(1789710999.221598) can0 020007FD#7AED80177FFF010E
(1789710999.222085) can1 0200FD08#0100000000000000
(1789710999.222086) can0 0200FD08#0100000000000000
(1789710999.222241) can0 020008FD#7EC0801A7FFF010E
(1789710999.222245) can1 020008FD#80897FF67FFF010E
(1789710999.274772) can1 0200FD01#0100000000000000
(1789710999.274811) can0 0200FD01#0100000000000000
(1789710999.274775) can1 020001FD#807080497FFF0104
(1789710999.274918) can0 020001FD#7F507F8D7FFF010E
(1789710999.275543) can1 0200FD02#0100000000000000
(1789710999.275671) can1 020002FD#800480327FFF0104
(1789710999.275726) can0 0200FD02#0100000000000000
(1789710999.275858) can0 020002FD#800180117FFF010E
(1789710999.276298) can1 0200FD03#0100000000000000
(1789710999.276418) can0 0200FD03#0100000000000000
(1789710999.276479) can1 020003FD#82B87F6B7FFF010E
(1789710999.276543) can0 020003FD#800080097FFF010E
(1789710999.277045) can1 0200FD04#0100000000000000
(1789710999.277242) can1 020004FD#7FFE7F867FFF010E
(1789710999.277293) can0 0200FD04#0100000000000000
(1789710999.277414) can0 020004FD#80057FAE7FFF00FA
(1789710999.277928) can1 0200FD05#0100000000000000
(1789710999.278101) can1 020005FD#90BF7FE37FFF010E
(1789710999.278136) can0 0200FD05#0100000000000000
(1789710999.278226) can0 020005FD#7E7A7FEE7FFF0118
(1789710999.278769) can1 0200FD06#0100000000000000
(1789710999.278771) can1 020006FD#7FBC7FF17FFF010E
(1789710999.278914) can0 0200FD06#0100000000000000
(1789710999.279040) can0 020006FD#80227FE07FFF010E
(1789710999.279538) can1 0200FD07#0100000000000000
(1789710999.279664) can1 020007FD#7FEE7FF27FFF010E
(1789710999.279730) can0 0200FD07#0100000000000000
(1789710999.279763) can0 020007FD#7AED7FF87FFF010E
(1789710999.280351) can1 0200FD08#0100000000000000
(1789710999.280383) can1 020008FD#80897FDB7FFF010E
(1789710999.280536) can0 0200FD08#0100000000000000
(1789710999.280611) can0 020008FD#7EC07FDE7FFF010E
(1789710999.331773) can0 0200FD01#0100000000000000
(1789710999.331806) can0 020001FD#7F5080337FFF010E
(1789710999.331811) can1 0200FD01#0100000000000000
(1789710999.331813) can1 020001FD#80717F6A7FFF0104
(1789710999.332537) can0 0200FD02#0100000000000000
(1789710999.332538) can1 0200FD02#0100000000000000
(1789710999.332653) can0 020002FD#800180717FFF010E
(1789710999.332687) can1 020002FD#8003802D7FFF010E
(1789710999.333296) can0 0200FD03#0100000000000000
(1789710999.333356) can1 0200FD03#0100000000000000
(1789710999.333390) can1 020003FD#82B8808C7FFF010E
(1789710999.333486) can0 020003FD#800080467FFF010E
(1789710999.334110) can0 0200FD04#0100000000000000
(1789710999.334233) can1 0200FD04#0100000000000000
(1789710999.334268) can0 020004FD#80057F1F7FFF00FA
(1789710999.334359) can1 020004FD#7FFE808D7FFF010E
(1789710999.334918) can0 0200FD05#0100000000000000
(1789710999.335020) can0 020005FD#7E7B80007FFF0118
(1789710999.335053) can1 0200FD05#0100000000000000
(1789710999.335259) can1 020005FD#90BF7FF07FFF010E
(1789710999.335793) can0 0200FD06#0100000000000000
(1789710999.335794) can0 020006FD#8022803E7FFF010E
(1789710999.335858) can1 0200FD06#0100000000000000
(1789710999.335892) can1 020006FD#7FBC80307FFF010E
(1789710999.336543) can0 0200FD07#0100000000000000
(1789710999.336668) can0 020007FD#7AED80197FFF010E
(1789710999.336672) can1 0200FD07#0100000000000000
(1789710999.336793) can1 020007FD#7FED80097FFF010E
(1789710999.337358) can0 0200FD08#0100000000000000
(1789710999.337393) can0 020008FD#7EC080057FFF010E
(1789710999.337429) can1 0200FD08#0100000000000000
(1789710999.337497) can1 020008FD#808980437FFF010E
(1789710999.406755) can1 0200FD01#0100000000000000
(1789710999.406794) can0 0200FD01#0100000000000000
(1789710999.406869) can1 020001FD#807080097FFF0104
(1789710999.406904) can0 020001FD#7F507FD87FFF010E
(1789710999.407550) can0 0200FD02#0100000000000000
(1789710999.407551) can1 0200FD02#0100000000000000
(1789710999.407675) can0 020002FD#8001802B7FFF010E
(1789710999.407679) can1 020002FD#80037F877FFF010E
(1789710999.408369) can0 0200FD03#0100000000000000
(1789710999.408370) can1 0200FD03#0100000000000000
(1789710999.408395) can1 020003FD#82B8801D7FFF010E
(1789710999.408485) can0 020003FD#8000804C7FFF010E
(1789710999.409115) can0 0200FD04#0100000000000000
(1789710999.409165) can1 0200FD04#0100000000000000
(1789710999.409244) can0 020004FD#80057FBA7FFF00FA
(1789710999.409299) can1 020004FD#7FFE800F7FFF010E
(1789710999.409933) can1 0200FD05#0100000000000000
(1789710999.409936) can0 0200FD05#0100000000000000
(1789710999.410029) can1 020005FD#90BF80157FFF010E
(1789710999.410061) can0 020005FD#7E7B802D7FFF0118
(1789710999.410738) can0 0200FD06#0100000000000000
(1789710999.410775) can0 020006FD#802280107FFF010E
(1789710999.410783) can1 0200FD06#0100000000000000
(1789710999.410804) can1 020006FD#7FBC7FD17FFF010E
(1789710999.411550) can1 0200FD07#0100000000000000
(1789710999.411553) can0 0200FD07#0100000000000000
(1789710999.411658) can1 020007FD#7FED7FE77FFF010E
(1789710999.411691) can0 020007FD#7AED7FCE7FFF010E
(1789710999.412307) can0 0200FD08#0100000000000000
(1789710999.412359) can1 0200FD08#0100000000000000
(1789710999.412394) can1 020008FD#80897FE67FFF010E
(1789710999.412396) can0 020008FD#7EC080097FFF010E
(1789710999.464560) can1 0200FD01#0100000000000000
(1789710999.464684) can1 020001FD#8071806C7FFF0104
(1789710999.464740) can0 0200FD01#0100000000000000
(1789710999.464866) can0 020001FD#7F5080467FFF010E
(1789710999.465366) can1 0200FD02#0100000000000000
(1789710999.465489) can0 0200FD02#0100000000000000
(1789710999.465523) can1 020002FD#800480067FFF010E
(1789710999.465613) can0 020002FD#8001806A7FFF010E
(1789710999.466119) can1 0200FD03#0100000000000000
(1789710999.466253) can0 0200FD03#0100000000000000
(1789710999.466257) can1 020003FD#82B980A57FFF010E
(1789710999.466375) can0 020003FD#80007FA47FFF010E
(1789710999.466924) can1 0200FD04#0100000000000000
(1789710999.467032) can1 020004FD#7FFE7FFD7FFF010E
(1789710999.467065) can0 0200FD04#0100000000000000
(1789710999.467267) can0 020004FD#800580057FFF00FA
(1789710999.467739) can1 0200FD05#0100000000000000
(1789710999.467771) can1 020005FD#90BF80107FFF010E
(1789710999.467804) can0 0200FD05#0100000000000000
(1789710999.467989) can0 020005FD#7E7A7FF17FFF0118
(1789710999.468548) can1 0200FD06#0100000000000000
(1789710999.468677) can1 020006FD#7FBC7FFA7FFF010E
(1789710999.468736) can0 0200FD06#0100000000000000
(1789710999.468769) can0 020006FD#80227FFB7FFF0118
(1789710999.469363) can1 0200FD07#0100000000000000
(1789710999.469395) can1 020007FD#7FEE80097FFF010E
(1789710999.469553) can0 0200FD07#0100000000000000
(1789710999.469554) can0 020007FD#7AED80427FFF010E
(1789710999.470243) can1 0200FD08#0100000000000000
(1789710999.470298) can0 0200FD08#0100000000000000
(1789710999.470363) can1 020008FD#80897FF67FFF010E
(1789710999.470396) can0 020008FD#7EC080337FFF010E
(1789710999.521441) can1 0200FD01#0100000000000000
(1789710999.521552) can0 0200FD01#0100000000000000
(1789710999.521621) can1 020001FD#80707FF27FFF0104
(1789710999.521663) can0 020001FD#7F5080097FFF010E
(1789710999.522258) can1 0200FD02#0100000000000000
(1789710999.522310) can0 0200FD02#0100000000000000
(1789710999.522377) can1 020002FD#800480877FFF010E
(1789710999.522423) can0 020002FD#80017FB67FFF010E
(1789710999.522820) can1 0200FD03#0100000000000000
(1789710999.522864) can0 0200FD03#0100000000000000
(1789710999.522994) can1 020003FD#82B87F527FFF010E
(1789710999.523103) can0 020003FD#8000806A7FFF010E
(1789710999.523448) can0 0200FD04#0100000000000000
(1789710999.523480) can1 0200FD04#0100000000000000
(1789710999.523571) can1 020004FD#7FFE7FEF7FFF010E
(1789710999.523617) can0 020004FD#80057F977FFF00FA
(1789710999.524073) can0 0200FD05#0100000000000000
(1789710999.524074) can1 0200FD05#0100000000000000
(1789710999.524306) can0 020005FD#7E7A80017FFF0118
(1789710999.524338) can1 020005FD#90BE7FE67FFF010E
(1789710999.524681) can0 0200FD06#0100000000000000
(1789710999.524714) can1 0200FD06#0100000000000000
(1789710999.524927) can0 020006FD#80227FE77FFF010E
(1789710999.524963) can1 020006FD#7FBC7FF47FFF010E
(1789710999.525322) can0 0200FD07#0100000000000000
(1789710999.525427) can0 020007FD#7AED800E7FFF010E
(1789710999.525460) can1 0200FD07#0100000000000000
(1789710999.525461) can1 020007FD#7FEE803D7FFF010E
(1789710999.525883) can0 0200FD08#0100000000000000
(1789710999.525950) can1 0200FD08#0100000000000000
(1789710999.526020) can0 020008FD#7EC07FE67FFF010E
(1789710999.526088) can1 020008FD#808980297FFF010E
(1789710999.578470) can1 0200FD01#0100000000000000
(1789710999.578473) can0 0200FD01#0100000000000000
(1789710999.578568) can1 020001FD#80717FBF7FFF0104
(1789710999.578628) can0 020001FD#7F5080407FFF010E
(1789710999.579183) can1 0200FD02#0100000000000000
(1789710999.579275) can0 0200FD02#0100000000000000
(1789710999.579308) can1 020002FD#800380047FFF010E
(1789710999.579372) can0 020002FD#80017FDE7FFF010E
(1789710999.579940) can1 0200FD03#0100000000000000
(1789710999.580058) can0 0200FD03#0100000000000000
(1789710999.580060) can1 020003FD#82B87EF97FFF010E
(1789710999.580256) can0 020003FD#8000801C7FFF010E
(1789710999.580789) can1 0200FD04#0100000000000000
(1789710999.580791) can1 020004FD#7FFE7F4F7FFF010E
(1789710999.580934) can0 0200FD04#0100000000000000
(1789710999.581120) can0 020004FD#800580427FFF00FA
(1789710999.581676) can1 0200FD05#0100000000000000
(1789710999.581785) can1 020005FD#90BF80607FFF010E
(1789710999.581819) can0 0200FD05#0100000000000000
(1789710999.581820) can0 020005FD#7E7B80117FFF0118
(1789710999.582440) can1 0200FD06#0100000000000000
(1789710999.582560) can0 0200FD06#0100000000000000
(1789710999.582563) can1 020006FD#7FBC7FF67FFF010E
(1789710999.582685) can0 020006FD#8022802F7FFF0118
(1789710999.583277) can1 0200FD07#0100000000000000
(1789710999.583370) can0 0200FD07#0100000000000000
(1789710999.583371) can1 020007FD#7FED801D7FFF010E
(1789710999.583403) can0 020007FD#7AED80477FFF010E
(1789710999.584054) can1 0200FD08#0100000000000000
(1789710999.584120) can0 0200FD08#0100000000000000
(1789710999.584250) can1 020008FD#808980197FFF010E
(1789710999.584279) can0 020008FD#7EC07FF17FFF010E
(1789710999.637072) can1 0200FD01#0100000000000000
(1789710999.637129) can0 0200FD01#0100000000000000
(1789710999.637261) can1 020001FD#80707F497FFF0104
(1789710999.637286) can0 020001FD#7F50807A7FFF010E
(1789710999.637914) can1 0200FD02#0100000000000000
(1789710999.637944) can1 020002FD#8004809D7FFF0104
(1789710999.637949) can0 0200FD02#0100000000000000
(1789710999.638042) can0 020002FD#8002801F7FFF010E
(1789710999.638690) can1 0200FD03#0100000000000000
(1789710999.638749) can0 0200FD03#0100000000000000
(1789710999.638789) can1 020003FD#82B87E827FFF010E
(1789710999.638871) can0 020003FD#80007FEC7FFF010E
(1789710999.639445) can1 0200FD04#0100000000000000
(1789710999.639506) can0 0200FD04#0100000000000000
(1789710999.639564) can1 020004FD#7FFE7FD17FFF010E
(1789710999.639621) can0 020004FD#80057FEB7FFF00FA
(1789710999.640185) can1 0200FD05#0100000000000000
(1789710999.640312) can1 020005FD#90BF7FE07FFF010E
(1789710999.640374) can0 0200FD05#0100000000000000
(1789710999.640408) can0 020005FD#7E7B800C7FFF0118
(1789710999.641001) can1 0200FD06#0100000000000000
(1789710999.641033) can1 020006FD#7FBC80247FFF010E
(1789710999.641186) can0 0200FD06#0100000000000000
(1789710999.641310) can0 020006FD#802280017FFF010E
(1789710999.641878) can1 0200FD07#0100000000000000
(1789710999.641909) can1 020007FD#7FED800F7FFF010E
(1789710999.641997) can0 0200FD07#0100000000000000
(1789710999.642124) can0 020007FD#7AED80087FFF010E
(1789710999.642756) can1 0200FD08#0100000000000000
(1789710999.642759) can0 0200FD08#0100000000000000
(1789710999.642783) can1 020008FD#80897FF77FFF010E
(1789710999.642875) can0 020008FD#7EC07FF07FFF010E
(1789710999.696944) can1 0200FD01#0100000000000000
(1789710999.696946) can0 0200FD01#0100000000000000
(1789710999.697050) can1 020001FD#8071803C7FFF0104
(1789710999.697131) can0 020001FD#7F50801A7FFF010E
(1789710999.697696) can1 0200FD02#0100000000000000
(1789710999.697697) can0 0200FD02#0100000000000000
(1789710999.697816) can1 020002FD#800480787FFF0104
(1789710999.697878) can0 020002FD#800180117FFF010E
(1789710999.698444) can1 0200FD03#0100000000000000
(1789710999.698566) can0 0200FD03#0100000000000000
(1789710999.698634) can1 020003FD#82B881127FFF010E
(1789710999.698687) can0 020003FD#800080727FFF010E
(1789710999.699288) can1 0200FD04#0100000000000000
(1789710999.699316) can0 0200FD04#0100000000000000
(1789710999.699379) can1 020004FD#7FFE80367FFF010E
(1789710999.699428) can0 020004FD#80057F477FFF00FA
(1789710999.700064) can1 0200FD05#0100000000000000
(1789710999.700126) can0 0200FD05#0100000000000000
(1789710999.700251) can0 020005FD#7E7A7FEB7FFF0118
(1789710999.700285) can1 020005FD#90BE7FBD7FFF010E
(1789710999.700820) can1 0200FD06#0100000000000000
(1789710999.700940) can0 0200FD06#0100000000000000
(1789710999.700941) can1 020006FD#7FBC7FE87FFF010E
(1789710999.701126) can0 020006FD#8022801B7FFF010E
(1789710999.701692) can1 0200FD07#0100000000000000
(1789710999.701803) can1 020007FD#7FEE80597FFF010E
(1789710999.701826) can0 0200FD07#0100000000000000
(1789710999.701827) can0 020007FD#7AED7FF37FFF010E
(1789710999.702448) can1 0200FD08#0100000000000000
(1789710999.702517) can1 020008FD#808980107FFF010E
(1789710999.702559) can0 0200FD08#0100000000000000
(1789710999.702640) can0 020008FD#7EC07FF77FFF010E
(1789710999.755077) can1 0200FD01#0100000000000000
(1789710999.755172) can0 0200FD01#0100000000000000
(1789710999.755246) can1 020001FD#807080047FFF0104
(1789710999.755324) can0 020001FD#7F50801C7FFF010E
(1789710999.755653) can1 0200FD02#0100000000000000
(1789710999.755780) can0 0200FD02#0100000000000000
(1789710999.755890) can1 020002FD#80047FF97FFF010E
(1789710999.755958) can0 020002FD#800180587FFF010E
(1789710999.756267) can1 0200FD03#0100000000000000
(1789710999.756401) can0 0200FD03#0100000000000000
(1789710999.756445) can1 020003FD#82B980887FFF010E
(1789710999.756582) can0 020003FD#80007FCF7FFF010E
(1789710999.756818) can1 0200FD04#0100000000000000
(1789710999.756961) can0 0200FD04#0100000000000000
(1789710999.757051) can1 020004FD#7FFE7F7F7FFF010E
(1789710999.757215) can0 020004FD#80057FA17FFF00FA
(1789710999.757410) can1 0200FD05#0100000000000000
(1789710999.757585) can1 020005FD#90BF7FDC7FFF010E
(1789710999.757618) can0 0200FD05#0100000000000000
(1789710999.757776) can0 020005FD#7E7B80007FFF0118
(1789710999.758036) can1 0200FD06#0100000000000000
(1789710999.758157) can0 0200FD06#0100000000000000
(1789710999.758269) can1 020006FD#7FBC800E7FFF010E
(1789710999.758380) can0 020006FD#8022800B7FFF010E
(1789710999.758715) can1 0200FD07#0100000000000000
(1789710999.758767) can0 0200FD07#0100000000000000
(1789710999.758885) can1 020007FD#7FEE7FD27FFF010E
(1789710999.759013) can0 020007FD#7AED7FE97FFF010E
(1789710999.759337) can1 0200FD08#0100000000000000
(1789710999.759395) can0 0200FD08#0100000000000000
(1789710999.759438) can1 020008FD#80897FE47FFF010E
(1789710999.759498) can0 020008FD#7EC0800D7FFF010E
(1789710999.811702) can1 0200FD01#0100000000000000
(1789710999.811759) can0 0200FD01#0100000000000000
(1789710999.811796) can0 020001FD#7F507FE77FFF010E
(1789710999.811827) can1 020001FD#80707F807FFF0104
(1789710999.812454) can1 0200FD02#0100000000000000
(1789710999.812567) can0 0200FD02#0100000000000000
(1789710999.812601) can0 020002FD#8001804B7FFF010E
(1789710999.812633) can1 020002FD#800480177FFF0104
(1789710999.813266) can1 0200FD03#0100000000000000
(1789710999.813318) can0 0200FD03#0100000000000000
(1789710999.813403) can1 020003FD#82B880457FFF010E
(1789710999.813436) can0 020003FD#80007FB27FFF010E
(1789710999.814077) can0 0200FD04#0100000000000000
(1789710999.814077) can1 0200FD04#0100000000000000
(1789710999.814261) can0 020004FD#8005801D7FFF00FA
(1789710999.814294) can1 020004FD#7FFE7F357FFF010E
(1789710999.814887) can0 0200FD05#0100000000000000
(1789710999.814889) can1 0200FD05#0100000000000000
(1789710999.815009) can0 020005FD#7E7A7FCE7FFF0118
(1789710999.815017) can1 020005FD#90BF801A7FFF010E
(1789710999.815696) can1 0200FD06#0100000000000000
(1789710999.815698) can0 0200FD06#0100000000000000
(1789710999.815803) can1 020006FD#7FBC80127FFF010E
(1789710999.815837) can0 020006FD#8022802C7FFF010E
(1789710999.816455) can0 0200FD07#0100000000000000
(1789710999.816457) can1 0200FD07#0100000000000000
(1789710999.816635) can0 020007FD#7AED800C7FFF010E
(1789710999.816639) can1 020007FD#7FED80037FFF010E
(1789710999.817269) can0 0200FD08#0100000000000000
(1789710999.817270) can1 0200FD08#0100000000000000
(1789710999.817381) can0 020008FD#7EC07FE17FFF010E
(1789710999.817384) can1 020008FD#8089802F7FFF010E
(1789710999.871583) can1 0200FD01#0100000000000000
(1789710999.871692) can0 0200FD01#0100000000000000
(1789710999.871764) can1 020001FD#8071804E7FFF0104
(1789710999.871808) can0 020001FD#7F507FBD7FFF010E
(1789710999.872396) can1 0200FD02#0100000000000000
(1789710999.872427) can1 020002FD#8003801D7FFF0104
(1789710999.872460) can0 0200FD02#0100000000000000
(1789710999.872575) can0 020002FD#80017F797FFF010E
(1789710999.873198) can1 0200FD03#0100000000000000
(1789710999.873266) can0 0200FD03#0100000000000000
(1789710999.873328) can1 020003FD#82B880357FFF010E
(1789710999.873388) can0 020003FD#800080127FFF010E
(1789710999.873958) can1 0200FD04#0100000000000000
(1789710999.874077) can0 0200FD04#0100000000000000
(1789710999.874078) can1 020004FD#7FFE80AD7FFF010E
(1789710999.874276) can0 020004FD#80057FBC7FFF00FA
(1789710999.874798) can1 0200FD05#0100000000000000
(1789710999.874838) can1 020005FD#90BE7FF37FFF010E
(1789710999.874972) can0 0200FD05#0100000000000000
(1789710999.875057) can0 020005FD#7E7B80017FFF0118
(1789710999.875577) can1 0200FD06#0100000000000000
(1789710999.875702) can1 020006FD#7FBC7FD77FFF010E
(1789710999.875825) can0 0200FD06#0100000000000000
(1789710999.875826) can0 020006FD#802280237FFF0118
(1789710999.876401) can1 0200FD07#0100000000000000
(1789710999.876428) can1 020007FD#7FED7FFA7FFF010E
(1789710999.876582) can0 0200FD07#0100000000000000
(1789710999.876706) can0 020007FD#7AED7FF27FFF010E
(1789710999.877208) can1 0200FD08#0100000000000000
(1789710999.877283) can1 020008FD#808980177FFF010E
(1789710999.877325) can0 0200FD08#0100000000000000
(1789710999.877398) can0 020008FD#7EC07FE27FFF010E
(1789710999.931713) can1 0200FD01#0100000000000000
(1789710999.931810) can0 0200FD01#0100000000000000
(1789710999.931846) can0 020001FD#7F5080967FFF010E
(1789710999.931900) can1 020001FD#80707FC27FFF0104
(1789710999.932465) can1 0200FD02#0100000000000000
(1789710999.932580) can0 0200FD02#0100000000000000
(1789710999.932650) can1 020002FD#800480057FFF0104
(1789710999.932706) can0 020002FD#8001801E7FFF010E
(1789710999.933304) can1 0200FD03#0100000000000000
(1789710999.933338) can0 0200FD03#0100000000000000
(1789710999.933398) can1 020003FD#82B87F3E7FFF010E
(1789710999.933453) can0 020003FD#800080137FFF010E
(1789710999.934083) can1 0200FD04#0100000000000000
(1789710999.934085) can0 0200FD04#0100000000000000
(1789710999.934268) can1 020004FD#7FFE7F817FFF010E
(1789710999.934273) can0 020004FD#8006810F7FFF00FA
(1789710999.934839) can1 0200FD05#0100000000000000
(1789710999.934840) can0 0200FD05#0100000000000000
(1789710999.935015) can1 020005FD#90BF80157FFF010E
(1789710999.935018) can0 020005FD#7E7B7FED7FFF0118
(1789710999.935584) can1 0200FD06#0100000000000000
(1789710999.935697) can0 0200FD06#0100000000000000
(1789710999.935764) can1 020006FD#7FBC7FED7FFF010E
(1789710999.935808) can0 020006FD#802280017FFF010E
(1789710999.936399) can1 0200FD07#0100000000000000
(1789710999.936430) can1 020007FD#7FEE80457FFF010E
(1789710999.936464) can0 0200FD07#0100000000000000
(1789710999.936582) can0 020007FD#7AED7FF37FFF010E
(1789710999.937148) can1 0200FD08#0100000000000000
(1789710999.937270) can1 020008FD#80897FF87FFF010E
(1789710999.937274) can0 0200FD08#0100000000000000
(1789710999.937334) can0 020008FD#7EC07FE17FFF010E
(1789710999.990485) can0 0200FD01#0100000000000000
(1789710999.990488) can1 0200FD01#0100000000000000
(1789710999.990604) can1 020001FD#8070805D7FFF0104
(1789710999.990654) can0 020001FD#7F507FF67FFF010E
(1789710999.991049) can1 0200FD02#0100000000000000
(1789710999.991101) can0 0200FD02#0100000000000000
(1789710999.991337) can1 020002FD#800480647FFF0104
(1789710999.991369) can0 020002FD#80017F8A7FFF010E
(1789710999.991669) can1 0200FD03#0100000000000000
(1789710999.991726) can0 0200FD03#0100000000000000
(1789710999.991852) can1 020003FD#82B87FE67FFF010E
(1789710999.991976) can0 020003FD#800080407FFF010E
(1789710999.992284) can1 0200FD04#0100000000000000
(1789710999.992349) can0 0200FD04#0100000000000000
(1789710999.992454) can1 020004FD#7FFE7F747FFF010E
(1789710999.992525) can0 020004FD#8005809E7FFF00FA
(1789710999.992828) can1 0200FD05#0100000000000000
(1789710999.992977) can0 0200FD05#0100000000000000
(1789710999.993061) can1 020005FD#90BF800B7FFF010E
(1789710999.993279) can0 020005FD#7E7A80157FFF0118
(1789710999.993588) can1 0200FD06#0100000000000000
(1789710999.993649) can1 020006FD#7FBC7FA57FFF010E
(1789710999.993807) can0 0200FD06#0100000000000000
(1789710999.993839) can0 020006FD#80217FFD7FFF010E
(1789710999.994400) can1 0200FD07#0100000000000000
(1789710999.994428) can1 020007FD#7FED80037FFF010E
(1789710999.994581) can0 0200FD07#0100000000000000
(1789710999.994706) can0 020007FD#7AED80357FFF010E
(1789710999.995203) can1 0200FD08#0100000000000000
(1789710999.995300) can1 020008FD#80897FFB7FFF010E
(1789710999.995334) can0 0200FD08#0100000000000000
(1789710999.995406) can0 020008FD#7EC07FE07FFF010E
(1789711000.047588) can1 0200FD01#0100000000000000
(1789711000.047717) can0 0200FD01#0100000000000000
(1789711000.047720) can1 020001FD#80717FCB7FFF0104
(1789711000.047838) can0 020001FD#7F50800A7FFF010E
(1789711000.048403) can1 0200FD02#0100000000000000
(1789711000.048436) can1 020002FD#80037FD77FFF010E
(1789711000.048467) can0 0200FD02#0100000000000000
(1789711000.048652) can0 020002FD#800280557FFF010E
(1789711000.049211) can1 0200FD03#0100000000000000
(1789711000.049280) can0 0200FD03#0100000000000000
(1789711000.049338) can1 020003FD#82B880127FFF010E
(1789711000.049395) can0 020003FD#800080617FFF010E
(1789711000.049967) can1 0200FD04#0100000000000000
(1789711000.050084) can1 020004FD#7FFE80367FFF010E
(1789711000.050088) can0 0200FD04#0100000000000000
(1789711000.050270) can0 020004FD#8005804A7FFF00FA
(1789711000.050770) can1 0200FD05#0100000000000000
(1789711000.050841) can0 0200FD05#0100000000000000
(1789711000.050901) can1 020005FD#90BF80127FFF010E
(1789711000.051025) can0 020005FD#7E7A7FD37FFF0118
(1789711000.051483) can1 0200FD06#0100000000000000
(1789711000.051552) can0 0200FD06#0100000000000000
(1789711000.051590) can1 020006FD#7FBC7FC77FFF010E
(1789711000.051777) can0 020006FD#80217FD97FFF0118
(1789711000.052281) can1 0200FD07#0100000000000000
(1789711000.052335) can0 0200FD07#0100000000000000
(1789711000.052403) can1 020007FD#7FED7FD87FFF010E
(1789711000.052462) can0 020007FD#7AED7FFD7FFF010E
(1789711000.053087) can1 0200FD08#0100000000000000
(1789711000.053088) can0 0200FD08#0100000000000000
(1789711000.053161) can0 020008FD#7EC07FFC7FFF010E
(1789711000.053275) can1 020008FD#808980037FFF010E
(1789711000.105225) can1 0200FD01#0100000000000000
(1789711000.105288) can0 0200FD01#0100000000000000
(1789711000.105342) can1 020001FD#807180607FFF0104
(1789711000.105407) can0 020001FD#7F507F5B7FFF010E
(1789711000.105980) can1 0200FD02#0100000000000000
(1789711000.106081) can0 0200FD02#0100000000000000
(1789711000.106154) can1 020002FD#800480127FFF010E
(1789711000.106279) can0 020002FD#80017FED7FFF010E
(1789711000.106824) can1 0200FD03#0100000000000000
(1789711000.106829) can1 020003FD#82B9800C7FFF010E
(1789711000.106850) can0 0200FD03#0100000000000000
(1789711000.106970) can0 020003FD#80007FBD7FFF010E
(1789711000.107596) can1 0200FD04#0100000000000000
(1789711000.107703) can0 0200FD04#0100000000000000
(1789711000.107777) can1 020004FD#7FFE80927FFF010E
(1789711000.107821) can0 020004FD#8005805C7FFF00FA
(1789711000.108407) can1 0200FD05#0100000000000000
(1789711000.108438) can1 020005FD#90BF80047FFF010E
(1789711000.108471) can0 0200FD05#0100000000000000
(1789711000.108589) can0 020005FD#7E7B7FFA7FFF0118
(1789711000.109156) can1 0200FD06#0100000000000000
(1789711000.109300) can0 0200FD06#0100000000000000
(1789711000.109311) can1 020006FD#7FBC7FED7FFF010E
(1789711000.109399) can0 020006FD#802280137FFF0118
(1789711000.109970) can1 0200FD07#0100000000000000
(1789711000.110089) can0 0200FD07#0100000000000000
(1789711000.110090) can1 020007FD#7FED80317FFF010E
(1789711000.110286) can0 020007FD#7AED7FED7FFF010E
(1789711000.110819) can1 0200FD08#0100000000000000
(1789711000.110821) can1 020008FD#80897FFE7FFF010E
(1789711000.110967) can0 0200FD08#0100000000000000
(1789711000.111038) can0 020008FD#7EC07FF77FFF010E
(1789711000.167725) can1 0200FD01#0100000000000000
(1789711000.167814) can0 0200FD01#0100000000000000
(1789711000.167850) can0 020001FD#7F507FB47FFF010E
(1789711000.167856) can1 020001FD#80707FB57FFF0104
(1789711000.168476) can1 0200FD02#0100000000000000
(1789711000.168588) can0 0200FD02#0100000000000000
(1789711000.168661) can1 020002FD#800480727FFF010E
(1789711000.168701) can0 020002FD#80017FF97FFF010E
(1789711000.169303) can1 0200FD03#0100000000000000
(1789711000.169411) can1 020003FD#82B880457FFF010E
(1789711000.169414) can0 0200FD03#0100000000000000
(1789711000.169442) can0 020003FD#80007FDE7FFF010E
(1789711000.170098) can1 0200FD04#0100000000000000
(1789711000.170210) can0 0200FD04#0100000000000000
(1789711000.170281) can1 020004FD#7FFE7FA37FFF010E
(1789711000.170347) can0 020004FD#800580737FFF00FA
(1789711000.170854) can1 0200FD05#0100000000000000
(1789711000.170969) can0 0200FD05#0100000000000000
(1789711000.171036) can1 020005FD#90BE7FF47FFF010E
(1789711000.171083) can0 020005FD#7E7B7FF37FFF0118
(1789711000.171728) can1 0200FD06#0100000000000000
(1789711000.171785) can0 0200FD06#0100000000000000
(1789711000.171819) can0 020006FD#80227FF77FFF010E
(1789711000.171856) can1 020006FD#7FBC7FA47FFF010E
(1789711000.172480) can1 0200FD07#0100000000000000
(1789711000.172595) can1 020007FD#7FEE80237FFF010E
(1789711000.172601) can0 0200FD07#0100000000000000
(1789711000.172721) can0 020007FD#7AED7FF87FFF010E
(1789711000.173289) can1 0200FD08#0100000000000000
(1789711000.173346) can0 0200FD08#0100000000000000
(1789711000.173421) can1 020008FD#80897FC47FFF010E
(1789711000.173450) can0 020008FD#7EC080097FFF010E
(1789711000.238026) can1 0200FD01#0100000000000000
(1789711000.238029) can0 0200FD01#0100000000000000
(1789711000.238177) can1 020001FD#80707FB67FFF0104
(1789711000.238184) can0 020001FD#7F5080097FFF010E
(1789711000.238794) can1 0200FD02#0100000000000000
(1789711000.238796) can0 0200FD02#0100000000000000
(1789711000.238821) can1 020002FD#80037FE57FFF010E
(1789711000.238910) can0 020002FD#800180877FFF010E
(1789711000.239604) can1 0200FD03#0100000000000000
(1789711000.239607) can0 0200FD03#0100000000000000
(1789711000.239727) can1 020003FD#82B87FF17FFF010E
(1789711000.239788) can0 020003FD#80007FD47FFF010E
(1789711000.240425) can1 0200FD04#0100000000000000
(1789711000.240427) can0 0200FD04#0100000000000000
(1789711000.240446) can0 020004FD#80057FB57FFF00FA
(1789711000.240542) can1 020004FD#7FFE7FD37FFF010E
(1789711000.241177) can1 0200FD05#0100000000000000
(1789711000.241225) can0 0200FD05#0100000000000000
(1789711000.241305) can1 020005FD#90BF80087FFF010E
(1789711000.241427) can0 020005FD#7E7B803E7FFF0118
(1789711000.241980) can1 0200FD06#0100000000000000
(1789711000.241982) can0 0200FD06#0100000000000000
(1789711000.242084) can1 020006FD#7FBC7FF97FFF010E
(1789711000.242117) can0 020006FD#80227FF97FFF0118
(1789711000.242740) can0 0200FD07#0100000000000000
(1789711000.242826) can1 0200FD07#0100000000000000
(1789711000.242858) can1 020007FD#7FED7FF67FFF010E
(1789711000.242911) can0 020007FD#7AED7FD07FFF010E
(1789711000.243476) can0 0200FD08#0100000000000000
(1789711000.243555) can0 020008FD#7EC0800E7FFF010E
(1789711000.243592) can1 0200FD08#0100000000000000
(1789711000.243674) can1 020008FD#8089800A7FFF010E
(1789711000.307864) can1 0200FD01#0100000000000000
(1789711000.308068) can1 020001FD#8071804F7FFF0104
(1789711000.307983) can0 0200FD01#0100000000000000
(1789711000.308102) can0 020001FD#7F507F777FFF010E
(1789711000.308845) can1 0200FD02#0100000000000000
(1789711000.308870) can0 0200FD02#0100000000000000
(1789711000.308855) can1 020002FD#80047FD87FFF010E
(1789711000.308876) can0 020002FD#8001804C7FFF010E
(1789711000.309614) can1 0200FD03#0100000000000000
(1789711000.309671) can1 020003FD#82B880597FFF010E
(1789711000.309678) can0 0200FD03#0100000000000000
(1789711000.309790) can0 020003FD#80007F4E7FFF010E
(1789711000.310367) can1 0200FD04#0100000000000000
(1789711000.310539) can1 020004FD#7FFE80657FFF010E
(1789711000.310570) can0 0200FD04#0100000000000000
(1789711000.310572) can0 020004FD#8005801E7FFF00FA
(1789711000.311110) can1 0200FD05#0100000000000000
(1789711000.311321) can0 0200FD05#0100000000000000
(1789711000.311323) can1 020005FD#90BF7FFB7FFF010E
(1789711000.311437) can0 020005FD#7E7B7FDC7FFF0118
(1789711000.311970) can1 0200FD06#0100000000000000
(1789711000.312055) can1 020006FD#7FBC80077FFF010E
(1789711000.312116) can0 0200FD06#0100000000000000
(1789711000.312292) can0 020006FD#80227FED7FFF010E
(1789711000.312791) can1 0200FD07#0100000000000000
(1789711000.312823) can1 020007FD#7FED802B7FFF010E
(1789711000.312856) can0 0200FD07#0100000000000000
(1789711000.313044) can0 020007FD#7AED7FF97FFF010E
(1789711000.313606) can1 0200FD08#0100000000000000
(1789711000.313680) can1 020008FD#808980407FFF010E
(1789711000.313714) can0 0200FD08#0100000000000000
(1789711000.313803) can0 020008FD#7EC07FC87FFF010E
(1789711000.374375) can1 0200FD01#0100000000000000
(1789711000.374547) can1 020001FD#807180427FFF0104
(1789711000.374576) can0 0200FD01#0100000000000000
(1789711000.374578) can0 020001FD#7F50801A7FFF010E
(1789711000.375116) can1 0200FD02#0100000000000000
(1789711000.375330) can0 0200FD02#0100000000000000
(1789711000.375332) can1 020002FD#80037FC67FFF010E
(1789711000.375440) can0 020002FD#800280CE7FFF010E
(1789711000.375922) can1 0200FD03#0100000000000000
(1789711000.376050) can1 020003FD#82B880227FFF010E
(1789711000.376103) can0 0200FD03#0100000000000000
(1789711000.376293) can0 020003FD#8000801E7FFF010E
(1789711000.376804) can1 0200FD04#0100000000000000
(1789711000.376809) can1 020004FD#7FFE7F8D7FFF010E
(1789711000.376862) can0 0200FD04#0100000000000000
(1789711000.377052) can0 020004FD#80057F8F7FFF00FA
(1789711000.377668) can1 0200FD05#0100000000000000
(1789711000.377711) can1 020005FD#90BE7FFB7FFF010E
(1789711000.377741) can0 0200FD05#0100000000000000
(1789711000.377849) can0 020005FD#7E7B801F7FFF0118
(1789711000.378444) can1 0200FD06#0100000000000000
(1789711000.378448) can1 020006FD#7FBC7FE27FFF010E
(1789711000.378492) can0 0200FD06#0100000000000000
(1789711000.378679) can0 020006FD#802280307FFF0118
(1789711000.379241) can1 0200FD07#0100000000000000
(1789711000.379341) can0 0200FD07#0100000000000000
(1789711000.379362) can1 020007FD#7FED7FDE7FFF010E
(1789711000.379423) can0 020007FD#7AED7FD07FFF010E
(1789711000.380000) can1 0200FD08#0100000000000000
(1789711000.380062) can1 020008FD#80897FFE7FFF010E
(1789711000.380096) can0 0200FD08#0100000000000000
(1789711000.380181) can0 020008FD#7EC080207FFF010E
(1789711000.440450) can1 0200FD01#0100000000000000
(1789711000.440461) can1 020001FD#80707FD77FFF0104
(1789711000.440614) can0 0200FD01#0100000000000000
(1789711000.440617) can0 020001FD#7F5080517FFF010E
(1789711000.441252) can1 0200FD02#0100000000000000
(1789711000.441434) can1 020002FD#8004800F7FFF0104
(1789711000.441445) can0 0200FD02#0100000000000000
(1789711000.441575) can0 020002FD#80017FE67FFF010E
(1789711000.441994) can1 0200FD03#0100000000000000
(1789711000.442092) can1 020003FD#82B87FE77FFF010E
(1789711000.442234) can0 0200FD03#0100000000000000
(1789711000.442363) can0 020003FD#800080817FFF010E
(1789711000.442800) can1 0200FD04#0100000000000000
(1789711000.442933) can1 020004FD#7FFE80247FFF010E
(1789711000.442982) can0 0200FD04#0100000000000000
(1789711000.443108) can0 020004FD#80057FF17FFF00FA
(1789711000.443638) can1 0200FD05#0100000000000000
(1789711000.443694) can1 020005FD#90BF7FEC7FFF010E
(1789711000.443797) can0 0200FD05#0100000000000000
(1789711000.443927) can0 020005FD#7E7B80407FFF0118
(1789711000.444376) can1 0200FD06#0100000000000000
(1789711000.444488) can0 0200FD06#0100000000000000
(1789711000.444549) can1 020006FD#7FBC7FFE7FFF010E
(1789711000.444674) can0 020006FD#80227FF57FFF0118
(1789711000.445198) can1 0200FD07#0100000000000000
(1789711000.445309) can0 0200FD07#0100000000000000
(1789711000.445337) can1 020007FD#7FEE7FCD7FFF010E
(1789711000.445430) can0 020007FD#7AED80027FFF010E
(1789711000.445936) can1 0200FD08#0100000000000000
(1789711000.446056) can1 020008FD#80897FF87FFF010E
(1789711000.446107) can0 0200FD08#0100000000000000
(1789711000.446190) can0 020008FD#7EC07FF07FFF010E
(1789711000.509920) can1 0200FD01#0100000000000000
(1789711000.509990) can0 0200FD01#0100000000000000
(1789711000.509932) can1 020001FD#8071805C7FFF0104
(1789711000.509994) can0 020001FD#7F507FD47FFF010E
(1789711000.510614) can1 0200FD02#0100000000000000
(1789711000.510720) can1 020002FD#800380657FFF010E
(1789711000.510837) can0 0200FD02#0100000000000000
(1789711000.510870) can0 020002FD#80017FC87FFF010E
(1789711000.511430) can1 0200FD03#0100000000000000
(1789711000.511555) can1 020003FD#82B880CD7FFF010E
(1789711000.511616) can0 0200FD03#0100000000000000
(1789711000.511751) can0 020003FD#8000802D7FFF010E
(1789711000.512221) can1 0200FD04#0100000000000000
(1789711000.512302) can1 020004FD#7FFE7FD87FFF010E
(1789711000.512431) can0 0200FD04#0100000000000000
(1789711000.512465) can0 020004FD#8005806C7FFF00FA
(1789711000.512985) can1 0200FD05#0100000000000000
(1789711000.513099) can1 020005FD#90BF80207FFF010E
(1789711000.513176) can0 0200FD05#0100000000000000
(1789711000.513426) can0 020005FD#7E7B802A7FFF0118
(1789711000.513842) can1 0200FD06#0100000000000000
(1789711000.513872) can1 020006FD#7FBC80307FFF010E
(1789711000.513989) can0 0200FD06#0100000000000000
(1789711000.514115) can0 020006FD#80227FD27FFF0118
(1789711000.514616) can1 0200FD07#0100000000000000
(1789711000.514739) can1 020007FD#7FED7FCA7FFF010E
(1789711000.514805) can0 0200FD07#0100000000000000
(1789711000.514838) can0 020007FD#7AED7FFB7FFF010E
(1789711000.515365) can1 0200FD08#0100000000000000
(1789711000.515444) can1 020008FD#808980097FFF010E
(1789711000.515552) can0 0200FD08#0100000000000000
(1789711000.515688) can0 020008FD#7EC080087FFF010E
(1789711000.581944) can1 0200FD01#0100000000000000
(1789711000.581980) can1 020001FD#80707FB17FFF0104
(1789711000.582001) can0 0200FD01#0100000000000000
(1789711000.582124) can0 020001FD#7F5080117FFF010E
(1789711000.582750) can1 0200FD02#0100000000000000
(1789711000.582808) can0 0200FD02#0100000000000000
(1789711000.582842) can0 020002FD#800180607FFF010E
(1789711000.582874) can1 020002FD#8003801D7FFF010E
(1789711000.583499) can1 0200FD03#0100000000000000
(1789711000.583625) can0 0200FD03#0100000000000000
(1789711000.583701) can1 020003FD#82B87FD37FFF010E
(1789711000.583755) can0 020003FD#80007FFB7FFF010E
(1789711000.584400) can1 0200FD04#0100000000000000
(1789711000.584406) can0 0200FD04#0100000000000000
(1789711000.584435) can1 020004FD#7FFE7FB67FFF010E
(1789711000.584476) can0 020004FD#8005809D7FFF00FA
(1789711000.584974) can1 0200FD05#0100000000000000
(1789711000.585003) can0 0200FD05#0100000000000000
(1789711000.585318) can1 020005FD#90BE800B7FFF010E
(1789711000.585311) can0 020005FD#7E7A80057FFF0118
(1789711000.585691) can1 0200FD06#0100000000000000
(1789711000.585840) can0 0200FD06#0100000000000000
(1789711000.585810) can1 020006FD#7FBC801F7FFF010E
(1789711000.585874) can0 020006FD#802280017FFF0118
(1789711000.586503) can1 0200FD07#0100000000000000
(1789711000.586622) can0 0200FD07#0100000000000000
(1789711000.586627) can1 020007FD#7FED800C7FFF010E
(1789711000.586747) can0 020007FD#7AED7FCE7FFF010E
(1789711000.587338) can1 0200FD08#0100000000000000
(1789711000.587434) can0 0200FD08#0100000000000000
(1789711000.587437) can1 020008FD#80897FE17FFF010E
(1789711000.587463) can0 020008FD#7EC07FCF7FFF010E
(1789711000.659398) can0 0200FD01#0100000000000000
(1789711000.659400) can1 0200FD01#0100000000000000
(1789711000.659572) can1 020001FD#80707F557FFF0104
(1789711000.659640) can0 020001FD#7F5080367FFF010E
(1789711000.660001) can0 0200FD02#0100000000000000
(1789711000.660124) can1 0200FD02#0100000000000000
(1789711000.660312) can1 020002FD#80047F917FFF010E
(1789711000.660316) can0 020002FD#8001803A7FFF010E
(1789711000.660812) can0 0200FD03#0100000000000000
(1789711000.660935) can1 0200FD03#0100000000000000
(1789711000.660969) can0 020003FD#80007F7C7FFF010E
(1789711000.661062) can1 020003FD#82B880987FFF010E
(1789711000.661627) can0 0200FD04#0100000000000000
(1789711000.661750) can1 0200FD04#0100000000000000
(1789711000.661751) can0 020004FD#8005801C7FFF00FA
(1789711000.661874) can1 020004FD#7FFE7FFB7FFF010E
(1789711000.662447) can0 0200FD05#0100000000000000
(1789711000.662474) can0 020005FD#7E7A7FF67FFF0118
(1789711000.662507) can1 0200FD05#0100000000000000
(1789711000.662698) can1 020005FD#90BF80147FFF010E
(1789711000.663258) can0 0200FD06#0100000000000000
(1789711000.663355) can1 0200FD06#0100000000000000
(1789711000.663382) can0 020006FD#80227FF27FFF0118
(1789711000.663437) can1 020006FD#7FBC80007FFF010E
(1789711000.664023) can0 0200FD07#0100000000000000
(1789711000.664119) can1 0200FD07#0100000000000000
(1789711000.664195) can0 020007FD#7AED7FEF7FFF010E
(1789711000.664310) can1 020007FD#7FEE80207FFF010E
(1789711000.664873) can0 0200FD08#0100000000000000
(1789711000.664895) can1 0200FD08#0100000000000000
(1789711000.664886) can0 020008FD#7EC07FFD7FFF010E
(1789711000.664957) can1 020008FD#80897FE57FFF010E
(1789711000.725867) can1 0200FD01#0100000000000000
(1789711000.725916) can0 0200FD01#0100000000000000
(1789711000.726107) can1 020001FD#8071808B7FFF0104
(1789711000.726174) can0 020001FD#7F50801F7FFF010E
(1789711000.726462) can1 0200FD02#0100000000000000
(1789711000.726566) can0 0200FD02#0100000000000000
(1789711000.726690) can1 020002FD#8004807C7FFF010E
(1789711000.726739) can0 020002FD#80027FB07FFF010E
(1789711000.727264) can1 0200FD03#0100000000000000
(1789711000.727345) can0 0200FD03#0100000000000000
(1789711000.727383) can1 020003FD#82B880437FFF010E
(1789711000.727444) can0 020003FD#800080007FFF010E
(1789711000.728161) can1 0200FD04#0100000000000000
(1789711000.728175) can0 0200FD04#0100000000000000
(1789711000.728360) can1 020004FD#7FFE7F5C7FFF010E
(1789711000.728369) can0 020004FD#800580547FFF00FA
(1789711000.728899) can1 0200FD05#0100000000000000
(1789711000.728998) can0 0200FD05#0100000000000000
(1789711000.728909) can1 020005FD#90BF7FE37FFF010E
(1789711000.729066) can0 020005FD#7E7B80127FFF0118
(1789711000.729643) can1 0200FD06#0100000000000000
(1789711000.729755) can0 0200FD06#0100000000000000
(1789711000.729758) can1 020006FD#7FBC7FC17FFF010E
(1789711000.729883) can0 020006FD#8022802F7FFF010E
(1789711000.730485) can1 0200FD07#0100000000000000
(1789711000.730496) can1 020007FD#7FED80107FFF010E
(1789711000.730646) can0 0200FD07#0100000000000000
(1789711000.730653) can0 020007FD#7AED7FFE7FFF0118
(1789711000.731257) can1 0200FD08#0100000000000000
(1789711000.731369) can1 020008FD#8089801A7FFF010E
(1789711000.731504) can0 0200FD08#0100000000000000
(1789711000.731506) can0 020008FD#7EC0803B7FFF010E
(1789711000.819266) can1 0200FD01#0100000000000000
(1789711000.819351) can0 0200FD01#0100000000000000
(1789711000.819385) can1 020001FD#8071809A7FFF0104
(1789711000.819447) can0 020001FD#7F507F807FFF010E
(1789711000.820015) can1 0200FD02#0100000000000000
(1789711000.820134) can0 0200FD02#0100000000000000
(1789711000.820136) can1 020002FD#80047FD07FFF010E
(1789711000.820333) can0 020002FD#800180227FFF010E
(1789711000.820831) can1 0200FD03#0100000000000000
(1789711000.820954) can1 020003FD#82B87FA17FFF010E
(1789711000.821006) can0 0200FD03#0100000000000000
(1789711000.821114) can0 020003FD#80007FD77FFF010E
(1789711000.821641) can1 0200FD04#0100000000000000
(1789711000.821763) can1 020004FD#7FFE80DC7FFF010E
(1789711000.821869) can0 0200FD04#0100000000000000
(1789711000.821903) can0 020004FD#800580337FFF00FA
(1789711000.822328) can1 0200FD05#0100000000000000
(1789711000.822427) can0 0200FD05#0100000000000000
(1789711000.822470) can1 020005FD#90BE7FEA7FFF010E
(1789711000.822573) can0 020005FD#7E7B7FFA7FFF0118
(1789711000.822900) can1 0200FD06#0100000000000000
(1789711000.823039) can0 0200FD06#0100000000000000
(1789711000.823074) can1 020006FD#7FBC7FFA7FFF010E
(1789711000.823308) can0 020006FD#802280027FFF0118
(1789711000.823530) can1 0200FD07#0100000000000000
(1789711000.823656) can0 0200FD07#0100000000000000
(1789711000.823707) can1 020007FD#7FEE801C7FFF010E
(1789711000.823906) can0 020007FD#7AED7FE27FFF010E
(1789711000.824097) can1 0200FD08#0100000000000000
(1789711000.824220) can0 0200FD08#0100000000000000
(1789711000.824282) can1 020008FD#808980177FFF010E
(1789711000.824354) can0 020008FD#7EC07FE87FFF010E
(1789711000.878796) can1 0200FD01#0100000000000000
(1789711000.878973) can1 020001FD#8070807E7FFF0104
(1789711000.878893) can0 0200FD01#0100000000000000
(1789711000.879080) can0 020001FD#7F507FB27FFF010E
(1789711000.879640) can1 0200FD02#0100000000000000
(1789711000.879697) can1 020002FD#80037FD37FFF010E
(1789711000.879829) can0 0200FD02#0100000000000000
(1789711000.879857) can0 020002FD#80017FFA7FFF010E
(1789711000.880397) can1 0200FD03#0100000000000000
(1789711000.880515) can1 020003FD#82B87FD37FFF010E
(1789711000.880637) can0 0200FD03#0100000000000000
(1789711000.880697) can0 020003FD#80007F787FFF010E
(1789711000.881203) can1 0200FD04#0100000000000000
(1789711000.881333) can1 020004FD#7FFE80107FFF010E
(1789711000.881398) can0 0200FD04#0100000000000000
(1789711000.881579) can0 020004FD#800580F27FFF00FA
(1789711000.882022) can1 0200FD05#0100000000000000
(1789711000.882203) can1 020005FD#90BE7FF27FFF010E
(1789711000.882235) can0 0200FD05#0100000000000000
(1789711000.882340) can0 020005FD#7E7B7FBE7FFF0118
(1789711000.882865) can1 0200FD06#0100000000000000
(1789711000.882867) can1 020006FD#7FBC7FDE7FFF010E
(1789711000.883011) can0 0200FD06#0100000000000000
(1789711000.883140) can0 020006FD#802280027FFF010E
(1789711000.883640) can1 0200FD07#0100000000000000
(1789711000.883767) can1 020007FD#7FEE80227FFF010E
(1789711000.883890) can0 0200FD07#0100000000000000
(1789711000.883892) can0 020007FD#7AED7FB07FFF010E
(1789711000.884457) can1 0200FD08#0100000000000000
(1789711000.884486) can1 020008FD#808980057FFF010E
(1789711000.884699) can0 0200FD08#0100000000000000
(1789711000.884756) can0 020008FD#7EC080067FFF010E
(1789711000.940090) can1 0200FD01#0100000000000000
(1789711000.940197) can1 020001FD#80717FB67FFF0104
(1789711000.940386) can0 0200FD01#0100000000000000
(1789711000.940501) can0 020001FD#7F507F087FFF010E
(1789711000.940865) can1 0200FD02#0100000000000000
(1789711000.940898) can1 020002FD#800380247FFF010E
(1789711000.941140) can0 0200FD02#0100000000000000
(1789711000.941340) can0 020002FD#800180077FFF010E
(1789711000.941640) can1 0200FD03#0100000000000000
(1789711000.941785) can1 020003FD#82B9807B7FFF010E
(1789711000.941998) can0 0200FD03#0100000000000000
(1789711000.942001) can0 020003FD#800080707FFF010E
(1789711000.942466) can1 0200FD04#0100000000000000
(1789711000.942491) can1 020004FD#7FFE80547FFF010E
(1789711000.942777) can0 0200FD04#0100000000000000
(1789711000.942972) can0 020004FD#80057F4C7FFF00FA
(1789711000.943271) can1 0200FD05#0100000000000000
(1789711000.943391) can1 020005FD#90BE80217FFF010E
(1789711000.943583) can0 0200FD05#0100000000000000
(1789711000.943707) can0 020005FD#7E7B80027FFF0118
(1789711000.944033) can1 0200FD06#0100000000000000
(1789711000.944213) can1 020006FD#7FBC800A7FFF010E
(1789711000.944458) can0 0200FD06#0100000000000000
(1789711000.944581) can0 020006FD#80217FB67FFF0118
(1789711000.944875) can1 0200FD07#0100000000000000
(1789711000.944878) can1 020007FD#7FED7FFE7FFF010E
(1789711000.945254) can0 0200FD07#0100000000000000
(1789711000.945327) can0 020007FD#7AED80057FFF010E
(1789711000.945659) can1 0200FD08#0100000000000000
(1789711000.945720) can1 020008FD#808980197FFF010E
(1789711000.946022) can0 0200FD08#0100000000000000
(1789711000.946090) can0 020008FD#7EC080347FFF010E
(1789711001.005371) can1 0200FD01#0100000000000000
(1789711001.005373) can0 0200FD01#0100000000000000
(1789711001.005471) can1 020001FD#807180617FFF0104
(1789711001.005501) can0 020001FD#7F5080457FFF010E
(1789711001.006153) can1 0200FD02#0100000000000000
(1789711001.006154) can0 0200FD02#0100000000000000
(1789711001.006334) can0 020002FD#8001809F7FFF010E
(1789711001.006341) can1 020002FD#80047FFA7FFF010E
(1789711001.006921) can1 0200FD03#0100000000000000
(1789711001.006924) can0 0200FD03#0100000000000000
(1789711001.007020) can1 020003FD#82B87F417FFF010E
(1789711001.007086) can0 020003FD#800080787FFF010E
(1789711001.007649) can1 0200FD04#0100000000000000
(1789711001.007775) can1 020004FD#7FFE7FC87FFF010E
(1789711001.007834) can0 0200FD04#0100000000000000
(1789711001.007835) can0 020004FD#80057F5F7FFF00FA
(1789711001.008500) can1 0200FD05#0100000000000000
(1789711001.008588) can1 020005FD#90BE7FF57FFF010E
(1789711001.008595) can0 0200FD05#0100000000000000
(1789711001.008728) can0 020005FD#7E7A7FEE7FFF0118
(1789711001.009221) can1 0200FD06#0100000000000000
(1789711001.009347) can1 020006FD#7FBC7FEF7FFF010E
(1789711001.009403) can0 0200FD06#0100000000000000
(1789711001.009529) can0 020006FD#80227FE57FFF010E
(1789711001.010021) can1 0200FD07#0100000000000000
(1789711001.010150) can1 020007FD#7FED7FEE7FFF010E
(1789711001.010211) can0 0200FD07#0100000000000000
(1789711001.010331) can0 020007FD#7AED7FCC7FFF010E
(1789711001.010831) can1 0200FD08#0100000000000000
(1789711001.010867) can1 020008FD#808980257FFF010E
(1789711001.011019) can0 0200FD08#0100000000000000
(1789711001.011095) can0 020008FD#7EC0802D7FFF010E
(1789711001.074168) can1 0200FD01#0100000000000000
(1789711001.074268) can0 0200FD01#0100000000000000
(1789711001.074354) can1 020001FD#80707FCF7FFF0104
(1789711001.074466) can0 020001FD#7F5080487FFF010E
(1789711001.075058) can1 0200FD02#0100000000000000
(1789711001.075061) can0 0200FD02#0100000000000000
(1789711001.075151) can1 020002FD#800480187FFF010E
(1789711001.075209) can0 020002FD#800180607FFF010E
(1789711001.075885) can1 0200FD03#0100000000000000
(1789711001.075889) can1 020003FD#82B87F4F7FFF010E
(1789711001.075916) can0 0200FD03#0100000000000000
(1789711001.076050) can0 020003FD#80007FE27FFF010E
(1789711001.076648) can1 0200FD04#0100000000000000
(1789711001.076759) can1 020004FD#7FFE7FAD7FFF010E
(1789711001.076790) can0 0200FD04#0100000000000000
(1789711001.076884) can0 020004FD#80057FE17FFF00FA
(1789711001.077411) can1 0200FD05#0100000000000000
(1789711001.077529) can0 0200FD05#0100000000000000
(1789711001.077594) can1 020005FD#90BF7FEC7FFF010E
(1789711001.077713) can0 020005FD#7E7B80047FFF0118
(1789711001.078159) can1 0200FD06#0100000000000000
(1789711001.078354) can0 0200FD06#0100000000000000
(1789711001.078359) can1 020006FD#7FBC801F7FFF010E
(1789711001.078480) can0 020006FD#80227FFB7FFF0118
(1789711001.078982) can1 0200FD07#0100000000000000
(1789711001.079085) can1 020007FD#7FEE80107FFF010E
(1789711001.079145) can0 0200FD07#0100000000000000
(1789711001.079368) can0 020007FD#7AED7FE67FFF010E
(1789711001.079840) can1 0200FD08#0100000000000000
(1789711001.079872) can1 020008FD#808980237FFF010E
(1789711001.079904) can0 0200FD08#0100000000000000
(1789711001.079975) can0 020008FD#7EC0800F7FFF010E
(1789711001.141213) can1 0200FD01#0100000000000000
(1789711001.141368) can1 020001FD#807080107FFF0104
(1789711001.141279) can0 0200FD01#0100000000000000
(1789711001.141403) can0 020001FD#7F50807D7FFF010E
(1789711001.142026) can1 0200FD02#0100000000000000
(1789711001.142053) can1 020002FD#80037F577FFF0104
(1789711001.142070) can0 0200FD02#0100000000000000
(1789711001.142220) can0 020002FD#8001801F7FFF010E
(1789711001.142785) can1 0200FD03#0100000000000000
(1789711001.142844) can0 0200FD03#0100000000000000
(1789711001.142890) can1 020003FD#82B8803A7FFF010E
(1789711001.142989) can0 020003FD#8000800D7FFF010E
(1789711001.143533) can1 0200FD04#0100000000000000
(1789711001.143654) can0 0200FD04#0100000000000000
(1789711001.143723) can1 020004FD#7FFE7FEF7FFF010E
(1789711001.143776) can0 020004FD#800580097FFF00FA
(1789711001.144368) can1 0200FD05#0100000000000000
(1789711001.144409) can0 0200FD05#0100000000000000
(1789711001.144485) can1 020005FD#90BE7FF87FFF010E
(1789711001.144529) can0 020005FD#7E7B802C7FFF0118
(1789711001.145154) can1 0200FD06#0100000000000000
(1789711001.145155) can0 0200FD06#0100000000000000
(1789711001.145412) can1 020006FD#7FBC80157FFF010E
(1789711001.145422) can0 020006FD#80227FF57FFF0118
(1789711001.145919) can0 0200FD07#0100000000000000
(1789711001.145923) can1 0200FD07#0100000000000000
(1789711001.146045) can0 020007FD#7AED80137FFF010E
(1789711001.146095) can1 020007FD#7FEE7FFF7FFF010E
(1789711001.146666) can0 0200FD08#0100000000000000
(1789711001.146722) can1 0200FD08#0100000000000000
(1789711001.146755) can0 020008FD#7EC080417FFF010E
(1789711001.146841) can1 020008FD#8089800A7FFF010E
(1789711001.206176) can1 0200FD01#0100000000000000
(1789711001.206192) can0 0200FD01#0100000000000000
(1789711001.206183) can1 020001FD#807080717FFF0104
(1789711001.206213) can0 020001FD#7F50803D7FFF010E
(1789711001.206961) can0 0200FD02#0100000000000000
(1789711001.206964) can1 0200FD02#0100000000000000
(1789711001.207100) can0 020002FD#800180667FFF010E
(1789711001.207108) can1 020002FD#80047FE87FFF010E
(1789711001.207660) can0 0200FD03#0100000000000000
(1789711001.207726) can1 0200FD03#0100000000000000
(1789711001.207783) can0 020003FD#80007F1B7FFF010E
(1789711001.207851) can1 020003FD#82B880127FFF010E
(1789711001.208490) can0 0200FD04#0100000000000000
(1789711001.208507) can0 020004FD#80057FC47FFF00FA
(1789711001.208539) can1 0200FD04#0100000000000000
(1789711001.208664) can1 020004FD#7FFE7F6A7FFF010E
(1789711001.209252) can0 0200FD05#0100000000000000
(1789711001.209391) can1 0200FD05#0100000000000000
(1789711001.209395) can0 020005FD#7E7A7FD27FFF0118
(1789711001.209470) can1 020005FD#90BF7FDD7FFF010E
(1789711001.210034) can0 0200FD06#0100000000000000
(1789711001.210142) can0 020006FD#802280047FFF010E
(1789711001.210175) can1 0200FD06#0100000000000000
(1789711001.210343) can1 020006FD#7FBC80267FFF010E
(1789711001.210865) can0 0200FD07#0100000000000000
(1789711001.210971) can1 0200FD07#0100000000000000
(1789711001.211004) can0 020007FD#7AED800B7FFF010E
(1789711001.211097) can1 020007FD#7FED80157FFF010E
(1789711001.211654) can0 0200FD08#0100000000000000
(1789711001.211738) can0 020008FD#7EC080057FFF010E
(1789711001.211773) can1 0200FD08#0100000000000000
(1789711001.211857) can1 020008FD#80897FEB7FFF010E
(1789711001.275237) can1 0200FD01#0100000000000000
(1789711001.275390) can1 020001FD#8071809E7FFF0104
(1789711001.275287) can0 0200FD01#0100000000000000
(1789711001.275481) can0 020001FD#7F50802E7FFF010E
(1789711001.276045) can0 0200FD02#0100000000000000
(1789711001.276048) can1 0200FD02#0100000000000000
(1789711001.276150) can0 020002FD#80017FFF7FFF010E
(1789711001.276181) can1 020002FD#80037F657FFF0104
(1789711001.276851) can1 0200FD03#0100000000000000
(1789711001.276886) can1 020003FD#82B87F9D7FFF010E
(1789711001.276893) can0 0200FD03#0100000000000000
(1789711001.276916) can0 020003FD#800080567FFF010E
(1789711001.277666) can0 0200FD04#0100000000000000
(1789711001.277667) can1 0200FD04#0100000000000000
(1789711001.277839) can0 020004FD#800580AF7FFF00FA
(1789711001.277881) can1 020004FD#7FFE7F967FFF010E
(1789711001.278430) can0 0200FD05#0100000000000000
(1789711001.278475) can1 0200FD05#0100000000000000
(1789711001.278597) can1 020005FD#90BF800A7FFF010E
(1789711001.278629) can0 020005FD#7E7B7FF37FFF0118
(1789711001.279226) can0 0200FD06#0100000000000000
(1789711001.279228) can1 0200FD06#0100000000000000
(1789711001.279379) can0 020006FD#80217FFD7FFF010E
(1789711001.279391) can1 020006FD#7FBC7FBC7FFF010E
(1789711001.280044) can0 0200FD07#0100000000000000
(1789711001.280045) can1 0200FD07#0100000000000000
(1789711001.280223) can0 020007FD#7AED80537FFF010E
(1789711001.280228) can1 020007FD#7FED7FE87FFF010E
(1789711001.280854) can0 0200FD08#0100000000000000
(1789711001.280855) can1 0200FD08#0100000000000000
(1789711001.280883) can0 020008FD#7EC07FFD7FFF010E
(1789711001.280974) can1 020008FD#808980127FFF010E
(1789711001.337794) can1 0200FD01#0100000000000000
(1789711001.337852) can0 0200FD01#0100000000000000
(1789711001.337888) can0 020001FD#7F5080C17FFF010E
(1789711001.337924) can1 020001FD#8070800F7FFF0104
(1789711001.338559) can1 0200FD02#0100000000000000
(1789711001.338673) can1 020002FD#800380307FFF010E
(1789711001.338682) can0 0200FD02#0100000000000000
(1789711001.338859) can0 020002FD#800180987FFF010E
(1789711001.339435) can1 0200FD03#0100000000000000
(1789711001.339484) can1 020003FD#82B880007FFF010E
(1789711001.339491) can0 0200FD03#0100000000000000
(1789711001.339604) can0 020003FD#80007FE17FFF010E
(1789711001.340166) can1 0200FD04#0100000000000000
(1789711001.340232) can0 0200FD04#0100000000000000
(1789711001.340357) can1 020004FD#7FFE7FBD7FFF010E
(1789711001.340388) can0 020004FD#8005804A7FFF00FA
(1789711001.340973) can1 0200FD05#0100000000000000
(1789711001.341035) can0 0200FD05#0100000000000000
(1789711001.341101) can1 020005FD#90BE7FEB7FFF010E
(1789711001.341142) can0 020005FD#7E7B80177FFF0118
(1789711001.341841) can1 0200FD06#0100000000000000
(1789711001.341856) can0 0200FD06#0100000000000000
(1789711001.341886) can0 020006FD#802280107FFF010E
(1789711001.341921) can1 020006FD#7FBC80467FFF010E
(1789711001.342575) can1 0200FD07#0100000000000000
(1789711001.342675) can0 0200FD07#0100000000000000
(1789711001.342679) can1 020007FD#7FEE7FEC7FFF010E
(1789711001.342860) can0 020007FD#7AED80027FFF010E
(1789711001.343380) can1 0200FD08#0100000000000000
(1789711001.343417) can0 0200FD08#0100000000000000
(1789711001.343476) can1 020008FD#80897FC77FFF010E
(1789711001.343508) can0 020008FD#7EC07FE67FFF010E
(1789711001.404550) can1 0200FD01#0100000000000000
(1789711001.404672) can0 0200FD01#0100000000000000
(1789711001.404731) can1 020001FD#80707FEF7FFF0104
(1789711001.404764) can0 020001FD#7F507FB17FFF010E
(1789711001.405363) can1 0200FD02#0100000000000000
(1789711001.405416) can0 0200FD02#0100000000000000
(1789711001.405482) can1 020002FD#8003805C7FFF010E
(1789711001.405545) can0 020002FD#80017F0E7FFF010E
(1789711001.406184) can1 0200FD03#0100000000000000
(1789711001.406186) can0 0200FD03#0100000000000000
(1789711001.406359) can1 020003FD#82B87FE77FFF010E
(1789711001.406389) can0 020003FD#80007FD37FFF010E
(1789711001.406927) can1 0200FD04#0100000000000000
(1789711001.407041) can0 0200FD04#0100000000000000
(1789711001.407117) can1 020004FD#7FFE80557FFF010E
(1789711001.407151) can0 020004FD#800580BD7FFF00FA
(1789711001.407795) can1 0200FD05#0100000000000000
(1789711001.407857) can0 0200FD05#0100000000000000
(1789711001.407890) can0 020005FD#7E7A7FFA7FFF0118
(1789711001.407922) can1 020005FD#90BE80107FFF010E
(1789711001.408551) can1 0200FD06#0100000000000000
(1789711001.408668) can0 0200FD06#0100000000000000
(1789711001.408670) can1 020006FD#7FBC80027FFF010E
(1789711001.408796) can0 020006FD#80217FF17FFF0118
(1789711001.409369) can1 0200FD07#0100000000000000
(1789711001.409483) can1 020007FD#7FEE80067FFF010E
(1789711001.409491) can0 0200FD07#0100000000000000
(1789711001.409608) can0 020007FD#7AED7FC37FFF010E
(1789711001.410170) can1 0200FD08#0100000000000000
(1789711001.410248) can0 0200FD08#0100000000000000
(1789711001.410285) can1 020008FD#808980477FFF010E
(1789711001.410354) can0 020008FD#7EC07FD87FFF010E
(1789711001.472248) can1 0200FD01#0100000000000000
(1789711001.472291) can0 0200FD01#0100000000000000
(1789711001.472378) can1 020001FD#80707FCB7FFF0104
(1789711001.472423) can0 020001FD#7F507F547FFF010E
(1789711001.473051) can1 0200FD02#0100000000000000
(1789711001.473053) can0 0200FD02#0100000000000000
(1789711001.473155) can1 020002FD#800480EF7FFF0104
(1789711001.473186) can0 020002FD#800180047FFF010E
(1789711001.473900) can0 0200FD03#0100000000000000
(1789711001.473932) can0 020003FD#8000804C7FFF010E
(1789711001.473935) can1 0200FD03#0100000000000000
(1789711001.473936) can1 020003FD#82B880007FFF010E
(1789711001.474675) can0 0200FD04#0100000000000000
(1789711001.474676) can1 0200FD04#0100000000000000
(1789711001.474783) can0 020004FD#8005812D7FFF00FA
(1789711001.474817) can1 020004FD#7FFE80137FFF010E
(1789711001.475484) can0 0200FD05#0100000000000000
(1789711001.475517) can1 0200FD05#0100000000000000
(1789711001.475518) can1 020005FD#90BF7FD77FFF010E
(1789711001.475613) can0 020005FD#7E7A7FFC7FFF0118
(1789711001.476247) can0 0200FD06#0100000000000000
(1789711001.476292) can1 0200FD06#0100000000000000
(1789711001.476378) can0 020006FD#802280107FFF0118
(1789711001.476424) can1 020006FD#7FBC7FFF7FFF010E
(1789711001.477051) can0 0200FD07#0100000000000000
(1789711001.477052) can1 0200FD07#0100000000000000
(1789711001.477162) can0 020007FD#7AED80057FFF010E
(1789711001.477193) can1 020007FD#7FEE80497FFF010E
(1789711001.477912) can0 0200FD08#0100000000000000
(1789711001.477917) can0 020008FD#7EC07FF77FFF010E
(1789711001.477938) can1 0200FD08#0100000000000000
(1789711001.477940) can1 020008FD#80897FF57FFF010E
(1789711001.541910) can1 0200FD01#0100000000000000
(1789711001.541915) can1 020001FD#807080137FFF0104
(1789711001.541942) can0 0200FD01#0100000000000000
(1789711001.542123) can0 020001FD#7F5080A87FFF010E
(1789711001.542687) can1 0200FD02#0100000000000000
(1789711001.542748) can0 0200FD02#0100000000000000
(1789711001.542808) can1 020002FD#80037FB67FFF0104
(1789711001.542880) can0 020002FD#800280727FFF010E
(1789711001.543488) can1 0200FD03#0100000000000000
(1789711001.543549) can0 0200FD03#0100000000000000
(1789711001.543618) can1 020003FD#82B87FCD7FFF010E
(1789711001.543661) can0 020003FD#80007F077FFF010E
(1789711001.544245) can1 0200FD04#0100000000000000
(1789711001.544399) can0 0200FD04#0100000000000000
(1789711001.544407) can1 020004FD#7FFE7FE07FFF010E
(1789711001.544495) can0 020004FD#80057FE17FFF00FA
(1789711001.545059) can1 0200FD05#0100000000000000
(1789711001.545158) can1 020005FD#90BF80357FFF010E
(1789711001.545188) can0 0200FD05#0100000000000000
(1789711001.545366) can0 020005FD#7E7A80047FFF0118
(1789711001.545909) can1 0200FD06#0100000000000000
(1789711001.545943) can1 020006FD#7FBC7FF87FFF010E
(1789711001.545950) can0 0200FD06#0100000000000000
(1789711001.546054) can0 020006FD#80227FDE7FFF010E
(1789711001.546678) can1 0200FD07#0100000000000000
(1789711001.546787) can1 020007FD#7FED7FCB7FFF010E
(1789711001.546821) can0 0200FD07#0100000000000000
(1789711001.546910) can0 020007FD#7AED7FBF7FFF010E
(1789711001.547488) can1 0200FD08#0100000000000000
(1789711001.547520) can1 020008FD#808980097FFF010E
(1789711001.547554) can0 0200FD08#0100000000000000
(1789711001.547626) can0 020008FD#7EC080107FFF010E
(1789711001.606834) can1 0200FD01#0100000000000000
(1789711001.606909) can0 0200FD01#0100000000000000
(1789711001.606945) can0 020001FD#7F50809E7FFF010E
(1789711001.607000) can1 020001FD#8071801D7FFF0104
(1789711001.607685) can1 0200FD02#0100000000000000
(1789711001.607687) can0 0200FD02#0100000000000000
(1789711001.607689) can1 020002FD#80037FCE7FFF010E
(1789711001.607869) can0 020002FD#80017F877FFF010E
(1789711001.608529) can1 0200FD03#0100000000000000
(1789711001.608534) can0 0200FD03#0100000000000000
(1789711001.608535) can1 020003FD#82B980567FFF010E
(1789711001.608538) can0 020003FD#800080017FFF010E
(1789711001.609253) can0 0200FD04#0100000000000000
(1789711001.609307) can1 0200FD04#0100000000000000
(1789711001.609385) can0 020004FD#800580017FFF00FA
(1789711001.609496) can1 020004FD#7FFE7FD37FFF010E
(1789711001.610067) can0 0200FD05#0100000000000000
(1789711001.610068) can1 0200FD05#0100000000000000
(1789711001.610161) can0 020005FD#7E7A7FC17FFF0118
(1789711001.610241) can1 020005FD#90BF80357FFF010E
(1789711001.610871) can1 0200FD06#0100000000000000
(1789711001.610902) can1 020006FD#7FBC803C7FFF010E
(1789711001.610905) can0 0200FD06#0100000000000000
(1789711001.610936) can0 020006FD#802280117FFF010E
(1789711001.611688) can1 0200FD07#0100000000000000
(1789711001.611690) can0 0200FD07#0100000000000000
(1789711001.611812) can1 020007FD#7FED7FCC7FFF010E
(1789711001.611869) can0 020007FD#7AED7FED7FFF010E
(1789711001.612497) can1 0200FD08#0100000000000000
(1789711001.612499) can0 0200FD08#0100000000000000
(1789711001.612528) can1 020008FD#8089800D7FFF010E
(1789711001.612532) can0 020008FD#7EC07FF97FFF010E
(1789711001.671688) can1 0200FD01#0100000000000000
(1789711001.671813) can1 020001FD#807180407FFF0104
(1789711001.671875) can0 0200FD01#0100000000000000
(1789711001.671876) can0 020001FD#7F50804B7FFF010E
(1789711001.672502) can1 0200FD02#0100000000000000
(1789711001.672538) can1 020002FD#8003801A7FFF010E
(1789711001.672683) can0 0200FD02#0100000000000000
(1789711001.672794) can0 020002FD#8001802C7FFF010E
(1789711001.673309) can1 0200FD03#0100000000000000
(1789711001.673496) can0 0200FD03#0100000000000000
(1789711001.673497) can1 020003FD#82B981117FFF010E
(1789711001.673622) can0 020003FD#800080327FFF010E
(1789711001.674067) can1 0200FD04#0100000000000000
(1789711001.674265) can1 020004FD#7FFE7F377FFF010E
(1789711001.674274) can0 0200FD04#0100000000000000
(1789711001.674496) can0 020004FD#800580157FFF00FA
(1789711001.674873) can1 0200FD05#0100000000000000
(1789711001.674906) can1 020005FD#90BE7FA97FFF010E
(1789711001.675059) can0 0200FD05#0100000000000000
(1789711001.675209) can0 020005FD#7E7A80167FFF0118
(1789711001.675684) can1 0200FD06#0100000000000000
(1789711001.675810) can1 020006FD#7FBC80277FFF010E
(1789711001.675877) can0 0200FD06#0100000000000000
(1789711001.675910) can0 020006FD#80217FD97FFF0118
(1789711001.676501) can1 0200FD07#0100000000000000
(1789711001.676623) can1 020007FD#7FEE801E7FFF010E
(1789711001.676683) can0 0200FD07#0100000000000000
(1789711001.676811) can0 020007FD#7AED7FFB7FFF010E
(1789711001.677291) can1 0200FD08#0100000000000000
(1789711001.677374) can1 020008FD#80897FF27FFF010E
(1789711001.677496) can0 0200FD08#0100000000000000
(1789711001.677529) can0 020008FD#7EC07FF07FFF010E
(1789711001.740319) can1 0200FD01#0100000000000000
(1789711001.740452) can1 020001FD#80717FF87FFF0104
(1789711001.740457) can0 0200FD01#0100000000000000
(1789711001.740629) can0 020001FD#7F507F737FFF010E
(1789711001.741195) can0 0200FD02#0100000000000000
(1789711001.741063) can1 0200FD02#0100000000000000
(1789711001.741387) can0 020002FD#80017FC37FFF010E
(1789711001.741191) can1 020002FD#80047FDA7FFF010E
(1789711001.742070) can0 0200FD03#0100000000000000
(1789711001.741907) can1 0200FD03#0100000000000000
(1789711001.742256) can0 020003FD#8000802F7FFF010E
(1789711001.741939) can1 020003FD#82B87F747FFF010E
(1789711001.742915) can0 0200FD04#0100000000000000
(1789711001.742690) can1 0200FD04#0100000000000000
(1789711001.742948) can0 020004FD#8005804A7FFF00FA
(1789711001.742801) can1 020004FD#7FFE80CE7FFF010E
(1789711001.743501) can1 0200FD05#0100000000000000
(1789711001.743642) can1 020005FD#90BF7FEF7FFF010E
(1789711001.743688) can0 0200FD05#0100000000000000
(1789711001.743807) can0 020005FD#7E7B7FF67FFF0118
(1789711001.744261) can1 0200FD06#0100000000000000
(1789711001.744391) can1 020006FD#7FBC80317FFF010E
(1789711001.744512) can0 0200FD06#0100000000000000
(1789711001.744638) can0 020006FD#802280137FFF010E
(1789711001.745072) can1 0200FD07#0100000000000000
(1789711001.745188) can1 020007FD#7FEE7FF87FFF010E
(1789711001.745330) can0 0200FD07#0100000000000000
(1789711001.745503) can0 020007FD#7AED7FBC7FFF010E
(1789711001.745815) can1 0200FD08#0100000000000000
(1789711001.745897) can1 020008FD#80897FEB7FFF010E
(1789711001.746061) can0 0200FD08#0100000000000000
(1789711001.746139) can0 020008FD#7EC07FDD7FFF010E
(1789711001.806082) can1 0200FD01#0100000000000000
(1789711001.806086) can0 0200FD01#0100000000000000
(1789711001.806266) can1 020001FD#80707FB47FFF0104
(1789711001.806272) can0 020001FD#7F50806A7FFF010E
(1789711001.806883) can1 0200FD02#0100000000000000
(1789711001.806883) can0 0200FD02#0100000000000000
(1789711001.806914) can1 020002FD#80047F9D7FFF010E
(1789711001.807004) can0 020002FD#80017F997FFF010E
(1789711001.807637) can1 0200FD03#0100000000000000
(1789711001.807691) can0 0200FD03#0100000000000000
(1789711001.807759) can1 020003FD#82B87FD87FFF010E
(1789711001.807807) can0 020003FD#80007FE77FFF010E
(1789711001.808391) can1 0200FD04#0100000000000000
(1789711001.808444) can0 0200FD04#0100000000000000
(1789711001.808511) can1 020004FD#7FFE800D7FFF010E
(1789711001.808576) can0 020004FD#8005802F7FFF00FA
(1789711001.809193) can1 0200FD05#0100000000000000
(1789711001.809257) can0 0200FD05#0100000000000000
(1789711001.809379) can1 020005FD#90BF7FE27FFF010E
(1789711001.809426) can0 020005FD#7E7B80477FFF0118
(1789711001.810008) can1 0200FD06#0100000000000000
(1789711001.810039) can1 020006FD#7FBC7FDE7FFF010E
(1789711001.810074) can0 0200FD06#0100000000000000
(1789711001.810258) can0 020006FD#80227FF47FFF010E
(1789711001.810902) can1 0200FD07#0100000000000000
(1789711001.810941) can1 020007FD#7FED7FE67FFF010E
(1789711001.810969) can0 0200FD07#0100000000000000
(1789711001.810983) can0 020007FD#7AED7FD47FFF010E
(1789711001.811639) can1 0200FD08#0100000000000000
(1789711001.811695) can0 0200FD08#0100000000000000
(1789711001.811755) can1 020008FD#80897FFA7FFF010E
(1789711001.811787) can0 020008FD#7EC0800D7FFF010E
(1789711001.869476) can1 0200FD01#0100000000000000
(1789711001.869671) can1 020001FD#80717FA87FFF0104
(1789711001.869592) can0 0200FD01#0100000000000000
(1789711001.869764) can0 020001FD#7F5080307FFF010E
(1789711001.870206) can1 0200FD02#0100000000000000
(1789711001.870393) can0 0200FD02#0100000000000000
(1789711001.870394) can1 020002FD#80037FC67FFF010E
(1789711001.870515) can0 020002FD#80017FFC7FFF010E
