(1791420877.855194) can1 0200FD01#0100000000000000
(1791420877.855211) can0 0200FD01#0100000000000000
(1791420877.855405) can1 020001FD#7FFE80127FFF0122
(1791420877.855451) can0 020001FD#7FAE7FFC7FFF012C
(1791420877.855823) can0 0200FD02#0100000000000000
(1791420877.855867) can1 0200FD02#0100000000000000
(1791420877.855955) can1 020002FD#7FFF7F917FFF0136
(1791420877.856005) can0 020002FD#7FEE7FC67FFF0140
(1791420877.856377) can0 0200FD03#0100000000000000
(1791420877.856453) can1 0200FD03#0100000000000000
(1791420877.856682) can0 020003FD#7D317FCA7FFF0136
(1791420877.856719) can1 020003FD#7FFF80787FFF0140
(1791420877.857073) can0 0200FD04#0100000000000000
(1791420877.857109) can1 0200FD04#0100000000000000
(1791420877.857252) can0 020004FD#7FA180297FFF0118
(1791420877.857289) can1 020004FD#7FFF7FFB7FFF012C
(1791420877.857707) can0 0200FD05#0100000000000000
(1791420877.857755) can1 0200FD05#0100000000000000
(1791420877.857825) can0 020005FD#8255801A7FFF0140
(1791420877.857868) can1 020005FD#88E280017FFF014A
(1791420877.858323) can0 0200FD06#0100000000000000
(1791420877.858368) can1 0200FD06#0100000000000000
(1791420877.858502) can0 020006FD#80777FEB7FFF0140
(1791420877.858580) can1 020006FD#7FFD7FFE7FFF014A
(1791420877.858898) can0 0200FD07#0100000000000000
(1791420877.858974) can1 0200FD07#0100000000000000
(1791420877.859136) can0 020007FD#7B7480127FFF012C
(1791420877.859206) can1 020007FD#800080177FFF012C
(1791420877.859448) can0 0200FD08#0100000000000000
(1791420877.859518) can1 0200FD08#0100000000000000
(1791420877.859635) can0 020008FD#7EC080187FFF0122
(1791420877.859683) can1 020008FD#828F80377FFF0122
(1791420877.910761) can1 0200FD01#0100000000000000
(1791420877.910792) can0 0200FD01#0100000000000000
(1791420877.910869) can1 020001FD#7FFE7F0B7FFF012C
(1791420877.910946) can0 020001FD#7FAE80787FFF012C
(1791420877.911312) can1 0200FD02#0100000000000000
(1791420877.911346) can0 0200FD02#0100000000000000
(1791420877.911588) can1 020002FD#7FFF80377FFF0136
(1791420877.911637) can0 020002FD#7FEE804F7FFF0140
(1791420877.911898) can1 0200FD03#0100000000000000
(1791420877.911960) can0 0200FD03#0100000000000000
(1791420877.912146) can1 020003FD#7FFF803B7FFF0140
(1791420877.912199) can0 020003FD#7D327FFC7FFF0136
(1791420877.912466) can1 0200FD04#0100000000000000
(1791420877.912640) can0 0200FD04#0100000000000000
(1791420877.912695) can1 020004FD#7FFF7F317FFF012C
(1791420877.912743) can0 020004FD#7FA17FCC7FFF0118
(1791420877.913069) can1 0200FD05#0100000000000000
(1791420877.913243) can0 0200FD05#0100000000000000
(1791420877.913309) can1 020005FD#88E280237FFF014A
(1791420877.913420) can0 020005FD#825580217FFF0140
(1791420877.913641) can1 0200FD06#0100000000000000
(1791420877.913832) can0 0200FD06#0100000000000000
(1791420877.913896) can1 020006FD#7FFC7FAD7FFF014A
(1791420877.914078) can0 020006FD#807780067FFF0140
(1791420877.914212) can1 0200FD07#0100000000000000
(1791420877.914453) can1 020007FD#80007FE17FFF012C
(1791420877.914460) can0 0200FD07#0100000000000000
(1791420877.914698) can0 020007FD#7B747FBD7FFF012C
(1791420877.914826) can1 0200FD08#0100000000000000
(1791420877.914936) can1 020008FD#828F7FFA7FFF0122
(1791420877.915055) can0 0200FD08#0100000000000000
(1791420877.915219) can0 020008FD#7EBF7FF17FFF0122
(1791420877.966102) can1 0200FD01#0100000000000000
(1791420877.966269) can0 0200FD01#0100000000000000
(1791420877.966362) can1 020001FD#7FFE7F927FFF012C
(1791420877.966405) can0 020001FD#7FAE7FD87FFF012C
(1791420877.966784) can1 0200FD02#0100000000000000
(1791420877.966856) can0 0200FD02#0100000000000000
(1791420877.966896) can1 020002FD#7FFF80997FFF0136
(1791420877.967040) can0 020002FD#7FEE801F7FFF0140
(1791420877.967387) can1 0200FD03#0100000000000000
(1791420877.967407) can0 0200FD03#0100000000000000
(1791420877.967590) can1 020003FD#7FFF7FDC7FFF0140
(1791420877.967698) can0 020003FD#7D32802B7FFF0136
(1791420877.967957) can1 0200FD04#0100000000000000
(1791420877.968005) can0 0200FD04#0100000000000000
(1791420877.968204) can1 020004FD#7FFF80107FFF012C
(1791420877.968259) can0 020004FD#7FA17FDF7FFF0118
(1791420877.968518) can1 0200FD05#0100000000000000
(1791420877.968643) can0 0200FD05#0100000000000000
(1791420877.968743) can1 020005FD#88E2800B7FFF014A
(1791420877.968826) can0 020005FD#825580187FFF0140
(1791420877.969113) can1 0200FD06#0100000000000000
(1791420877.969211) can0 0200FD06#0100000000000000
(1791420877.969347) can1 020006FD#7FFC80427FFF014A
(1791420877.969448) can0 020006FD#8077800D7FFF0140
(1791420877.969777) can1 0200FD07#0100000000000000
(1791420877.969825) can0 0200FD07#0100000000000000
(1791420877.969888) can1 020007FD#80017FFB7FFF012C
(1791420877.970005) can0 020007FD#7B747FDC7FFF012C
(1791420877.970325) can1 0200FD08#0100000000000000
(1791420877.970372) can0 0200FD08#0100000000000000
(1791420877.970470) can1 020008FD#828F7FF37FFF0122
(1791420877.970596) can0 020008FD#7EC080317FFF0122
(1791420889.092948) can1 0200FD01#0100000000000000
(1791420889.092983) can0 0200FD01#0100000000000000
(1791420889.093220) can1 020001FD#7FFE7FEA7FFF012C
(1791420889.093274) can0 020001FD#7FAE80457FFF012C
(1791420889.093557) can1 0200FD02#0100000000000000
(1791420889.093593) can0 0200FD02#0100000000000000
(1791420889.093780) can1 020002FD#7FFF7F837FFF0136
(1791420889.093831) can0 020002FD#7FEE803A7FFF0140
(1791420889.094099) can1 0200FD03#0100000000000000
(1791420889.094202) can0 0200FD03#0100000000000000
(1791420889.094324) can1 020003FD#7FFF7FCA7FFF0140
(1791420889.094385) can0 020003FD#7D3280217FFF0136
(1791420889.094712) can1 0200FD04#0100000000000000
(1791420889.094780) can0 0200FD04#0100000000000000
(1791420889.094906) can1 020004FD#7FFF80527FFF012C
(1791420889.094955) can0 020004FD#7FA17F277FFF0118
(1791420889.095351) can1 0200FD05#0100000000000000
(1791420889.095409) can0 0200FD05#0100000000000000
(1791420889.095533) can1 020005FD#88E27FFE7FFF014A
(1791420889.095593) can0 020005FD#82557FDB7FFF0140
(1791420889.095925) can1 0200FD06#0100000000000000
(1791420889.095978) can0 0200FD06#0100000000000000
(1791420889.096224) can1 020006FD#7FFC80167FFF014A
(1791420889.096263) can0 020006FD#80777FF47FFF0140
(1791420889.096563) can1 0200FD07#0100000000000000
(1791420889.096599) can0 0200FD07#0100000000000000
(1791420889.096780) can1 020007FD#800180077FFF012C
(1791420889.096844) can0 020007FD#7B7480387FFF012C
(1791420889.097107) can1 0200FD08#0100000000000000
(1791420889.097221) can0 0200FD08#0100000000000000
(1791420889.097259) can1 020008FD#828E7FF47FFF0122
(1791420889.097321) can0 020008FD#7EBF7FD17FFF0122
(1791420889.144013) can1 0200FD01#0100000000000000
(1791420889.144085) can0 0200FD01#0100000000000000
(1791420889.144317) can1 020001FD#7FFE7FC27FFF0122
(1791420889.144357) can0 020001FD#7FAE7FD67FFF012C
(1791420889.144631) can1 0200FD02#0100000000000000
(1791420889.144696) can0 0200FD02#0100000000000000
(1791420889.144882) can1 020002FD#7FFF80E17FFF0136
(1791420889.144954) can0 020002FD#7FEE7FF07FFF0140
(1791420889.145211) can1 0200FD03#0100000000000000
(1791420889.145344) can0 0200FD03#0100000000000000
(1791420889.145456) can1 020003FD#7FFF80357FFF0140
(1791420889.145490) can0 020003FD#7D3280267FFF0136
(1791420889.145782) can1 0200FD04#0100000000000000
(1791420889.145957) can1 020004FD#7FFF7FDC7FFF012C
(1791420889.145994) can0 0200FD04#0100000000000000
(1791420889.146229) can0 020004FD#7FA180C67FFF0118
(1791420889.146411) can1 0200FD05#0100000000000000
(1791420889.146595) can1 020005FD#88E2803B7FFF014A
(1791420889.146623) can0 0200FD05#0100000000000000
(1791420889.146839) can0 020005FD#82557FFA7FFF0140
(1791420889.146978) can1 0200FD06#0100000000000000
(1791420889.147220) can0 0200FD06#0100000000000000
(1791420889.147279) can1 020006FD#7FFC80177FFF014A
(1791420889.147408) can0 020006FD#80777FFE7FFF0140
(1791420889.147594) can1 0200FD07#0100000000000000
(1791420889.147782) can1 020007FD#80017FDA7FFF012C
(1791420889.147820) can0 0200FD07#0100000000000000
(1791420889.148029) can0 020007FD#7B747FEB7FFF012C
(1791420889.148210) can1 0200FD08#0100000000000000
(1791420889.148329) can1 020008FD#828E7FF57FFF0122
(1791420889.148404) can0 0200FD08#0100000000000000
(1791420889.148516) can0 020008FD#7EBF7FDC7FFF0122
(1791420889.194822) can1 0200FD01#0100000000000000
(1791420889.194958) can0 0200FD01#0100000000000000
(1791420889.195060) can1 020001FD#7FFE7FD17FFF012C
(1791420889.195175) can0 020001FD#7FAE804A7FFF012C
(1791420889.195414) can1 0200FD02#0100000000000000
(1791420889.195568) can0 0200FD02#0100000000000000
(1791420889.195604) can1 020002FD#7FFF80B87FFF0136
(1791420889.195784) can0 020002FD#7FEE7F7C7FFF0140
(1791420889.195989) can1 0200FD03#0100000000000000
(1791420889.196109) can0 0200FD03#0100000000000000
(1791420889.196275) can1 020003FD#7FFF80727FFF0140
(1791420889.196324) can0 020003FD#7D327FF77FFF0136
(1791420889.196605) can1 0200FD04#0100000000000000
(1791420889.196691) can0 0200FD04#0100000000000000
(1791420889.196847) can1 020004FD#7FFF7FAE7FFF012C
(1791420889.196930) can0 020004FD#7FA17FBB7FFF0118
(1791420889.197220) can1 0200FD05#0100000000000000
(1791420889.197283) can0 0200FD05#0100000000000000
(1791420889.197409) can1 020005FD#88E280267FFF014A
(1791420889.197460) can0 020005FD#825580387FFF0140
(1791420889.197787) can1 0200FD06#0100000000000000
(1791420889.197861) can0 0200FD06#0100000000000000
(1791420889.197968) can1 020006FD#7FFD803B7FFF014A
(1791420889.198179) can0 020006FD#80777FE87FFF0140
(1791420889.198431) can1 0200FD07#0100000000000000
(1791420889.198487) can0 0200FD07#0100000000000000
(1791420889.198611) can1 020007FD#80007FBD7FFF012C
(1791420889.198730) can0 020007FD#7B747FF27FFF012C
(1791420889.199007) can1 0200FD08#0100000000000000
(1791420889.199050) can0 0200FD08#0100000000000000
(1791420889.199167) can1 020008FD#828F80127FFF0122
(1791420889.199224) can0 020008FD#7EBF7FCE7FFF0122
(1791420889.467634) can1 0200FD01#0100000000000000
(1791420889.467694) can0 0200FD01#0100000000000000
(1791420889.467877) can1 020001FD#7FFE7FF07FFF012C
(1791420889.467948) can0 020001FD#7FAE7FC17FFF012C
(1791420889.468232) can1 0200FD02#0100000000000000
(1791420889.468298) can0 0200FD02#0100000000000000
(1791420889.468430) can1 020002FD#7FFF7FE97FFF0136
(1791420889.468479) can0 020002FD#7FED802D7FFF0140
(1791420889.468815) can1 0200FD03#0100000000000000
(1791420889.468872) can0 0200FD03#0100000000000000
(1791420889.469047) can0 020003FD#7D3280487FFF0136
(1791420889.469082) can1 020003FD#7FFF7FDA7FFF0140
(1791420889.469433) can1 0200FD04#0100000000000000
(1791420889.469501) can0 0200FD04#0100000000000000
(1791420889.469613) can1 020004FD#7FFF806B7FFF012C
(1791420889.469749) can0 020004FD#7FA180177FFF0118
(1791420889.469997) can1 0200FD05#0100000000000000
(1791420889.470059) can0 0200FD05#0100000000000000
(1791420889.470294) can0 020005FD#8255801B7FFF0140
(1791420889.470298) can1 020005FD#88E280037FFF014A
(1791420889.470617) can1 0200FD06#0100000000000000
(1791420889.470683) can0 0200FD06#0100000000000000
(1791420889.470861) can1 020006FD#7FFC80227FFF014A
(1791420889.470897) can0 020006FD#8077800B7FFF0140
(1791420889.471237) can1 0200FD07#0100000000000000
(1791420889.471302) can0 0200FD07#0100000000000000
(1791420889.471428) can1 020007FD#8001800C7FFF012C
(1791420889.471479) can0 020007FD#7B747FD17FFF012C
(1791420889.471818) can1 0200FD08#0100000000000000
(1791420889.471867) can0 0200FD08#0100000000000000
(1791420889.471948) can1 020008FD#828E7FF87FFF0122
(1791420889.472023) can0 020008FD#7EBF800F7FFF0122
(1791420889.518637) can1 0200FD01#0100000000000000
(1791420889.518705) can0 0200FD01#0100000000000000
(1791420889.518876) can1 020001FD#7FFE80667FFF0122
(1791420889.518952) can0 020001FD#7FAE7FEF7FFF012C
(1791420889.519239) can1 0200FD02#0100000000000000
(1791420889.519303) can0 0200FD02#0100000000000000
(1791420889.519426) can1 020002FD#7FFF804C7FFF0136
(1791420889.519490) can0 020002FD#7FEE80117FFF0140
(1791420889.519821) can1 0200FD03#0100000000000000
(1791420889.519870) can0 0200FD03#0100000000000000
(1791420889.520063) can1 020003FD#7FFF80CE7FFF0140
(1791420889.520182) can0 020003FD#7D3280307FFF0136
(1791420889.520441) can1 0200FD04#0100000000000000
(1791420889.520504) can0 0200FD04#0100000000000000
(1791420889.520618) can1 020004FD#7FFF80607FFF012C
(1791420889.520733) can0 020004FD#7FA180A27FFF0118
(1791420889.521009) can1 0200FD05#0100000000000000
(1791420889.521060) can0 0200FD05#0100000000000000
(1791420889.521227) can1 020005FD#88E280057FFF014A
(1791420889.521295) can0 020005FD#825580317FFF0140
(1791420889.521622) can1 0200FD06#0100000000000000
(1791420889.521691) can0 0200FD06#0100000000000000
(1791420889.521868) can0 020006FD#8077800B7FFF0140
(1791420889.521903) can1 020006FD#7FFC80087FFF014A
(1791420889.522238) can1 0200FD07#0100000000000000
(1791420889.522300) can0 0200FD07#0100000000000000
(1791420889.522427) can1 020007FD#800180237FFF012C
(1791420889.522478) can0 020007FD#7B747FC57FFF012C
(1791420889.522800) can1 0200FD08#0100000000000000
(1791420889.522868) can0 0200FD08#0100000000000000
(1791420889.522943) can1 020008FD#828F7FD37FFF0122
(1791420889.523020) can0 020008FD#7EBF7F9D7FFF0122
(1791420889.548589) can0 0400FD01#0000000000000000
(1791420889.548695) can1 0400FD01#0000000000000000
(1791420889.548804) can0 020001FD#7FAE7FCB7FFF012C
(1791420889.548863) can1 020001FD#7FFE7FE67FFF0122
(1791420889.549242) can0 1200FD01#0570000005000000
(1791420889.549305) can0 020001FD#7FAE7FF57FFF012C
(1791420889.550945) can0 1200FD01#17700000CDCCCC3E
(1791420889.551012) can1 1200FD01#0570000005000000
(1791420889.551077) can0 020001FD#7FAE80477FFF012C
(1791420889.551187) can1 020001FD#7FFE7FF97FFF0122
(1791420889.553304) can0 1200FD01#187000000000C040
(1791420889.553369) can1 1200FD01#17700000CDCCCC3E
(1791420889.553405) can0 020001FD#7FAE805A7FFF012C
(1791420889.553476) can1 020001FD#7FFE7FC47FFF012C
(1791420889.555632) can0 1200FD01#167000000F0F00BD
(1791420889.555693) can1 1200FD01#187000000000C040
(1791420889.555783) can0 020001FD#7FAE80C77FFF012C
(1791420889.555870) can1 020001FD#7FFE7FFC7FFF0122
(1791420889.557889) can0 1100FD01#0570000000000000
(1791420889.557940) can1 1200FD01#16700000A1D716BA
(1791420889.558022) can0 110001FD#0570000005000000
(1791420889.558093) can1 020001FD#7FFE801B7FFF012C
(1791420889.560139) can1 1100FD01#0570000000000000
(1791420889.560306) can1 110001FD#0570000005000000
(1791420889.562432) can0 0300FD01#0000000000000000
(1791420889.562530) can0 028001FD#7FAE7FFE7FFF012C
(1791420889.564692) can0 1200FD01#167000000F0F00BD
(1791420889.564755) can1 0300FD01#0000000000000000
(1791420889.564838) can0 028001FD#7FAE80268033012C
(1791420889.564900) can1 028001FD#7FFE80847FFF012C
(1791420889.567063) can0 0400FD02#0000000000000000
(1791420889.567138) can1 1200FD01#16700000A1D716BA
(1791420889.567241) can1 028001FD#7FFE7F867FF2012C
(1791420889.567247) can0 020002FD#7FEE805F7FFF0140
(1791420889.569306) can0 1200FD02#0570000005000000
(1791420889.569366) can1 0400FD02#0000000000000000
(1791420889.569481) can0 020002FD#7FEE80347FFF0140
(1791420889.569592) can1 020002FD#7FFF80367FFF0136
(1791420889.569880) can0 0200FD01#0100000000000000
(1791420889.569932) can1 0200FD01#0100000000000000
(1791420889.570183) can0 028001FD#7FAE7FFE8037012C
(1791420889.570241) can1 028001FD#7FFE7FFA7FF90122
(1791420889.570496) can0 0200FD02#0100000000000000
(1791420889.570556) can1 0200FD02#0100000000000000
(1791420889.570747) can0 020002FD#7FEE80477FFF0140
(1791420889.570801) can1 020002FD#7FFF7FDE7FFF0136
(1791420889.571060) can0 0200FD03#0100000000000000
(1791420889.571124) can1 0200FD03#0100000000000000
(1791420889.571285) can0 020003FD#7D327FC77FFF0136
(1791420889.571343) can1 020003FD#7FFF7FDD7FFF0140
(1791420889.571686) can0 0200FD04#0100000000000000
(1791420889.571785) can1 0200FD04#0100000000000000
(1791420889.571886) can0 020004FD#7FA181057FFF0118
(1791420889.571985) can1 020004FD#7FFF806E7FFF012C
(1791420889.572308) can0 0200FD05#0100000000000000
(1791420889.572369) can1 0200FD05#0100000000000000
(1791420889.572480) can1 020005FD#88E280347FFF014A
(1791420889.572516) can0 020005FD#825580087FFF0140
(1791420889.572882) can0 0200FD06#0100000000000000
(1791420889.572941) can1 0200FD06#0100000000000000
(1791420889.573190) can0 020006FD#80777FD97FFF0140
(1791420889.573232) can1 020006FD#7FFC7FE37FFF014A
(1791420889.573490) can0 0200FD07#0100000000000000
(1791420889.573581) can1 0200FD07#0100000000000000
(1791420889.573738) can0 020007FD#7B747FEC7FFF012C
(1791420889.573774) can1 020007FD#800180667FFF012C
(1791420889.574057) can0 0200FD08#0100000000000000
(1791420889.574126) can1 0200FD08#0100000000000000
(1791420889.574296) can0 020008FD#7EBF7FEB7FFF0122
(1791420889.574342) can1 020008FD#828F7FF57FFF0122
(1791420889.574682) can0 1200FD02#17700000CDCCCC3E
(1791420889.574729) can1 1200FD02#0570000005000000
(1791420889.574864) can0 020002FD#7FED80017FFF0140
(1791420889.574984) can1 020002FD#7FFF7FC67FFF0136
(1791420889.575306) can0 1200FD02#187000000000C040
(1791420889.575367) can1 1200FD02#17700000CDCCCC3E
(1791420889.575403) can0 020002FD#7FEE805F7FFF0140
(1791420889.575443) can1 020002FD#7FFF80247FFF0136
(1791420889.576013) can0 1200FD02#1670000076FADBBB
(1791420889.576048) can1 1200FD02#187000000000C040
(1791420889.576183) can0 020002FD#7FED7F747FFF0140
(1791420889.576241) can1 020002FD#7FFF80207FFF0136
(1791420889.578375) can0 1100FD02#0570000000000000
(1791420889.578377) can1 1200FD02#16700000811F49B9
(1791420889.578452) can0 110002FD#0570000005000000
(1791420889.578487) can1 020002FD#7FFF80717FFF0136
(1791420889.580561) can1 1100FD02#0570000000000000
(1791420889.580721) can1 110002FD#0570000005000000
(1791420889.582896) can0 0300FD02#0000000000000000
(1791420889.583000) can0 028002FD#7FEE80397FFF0140
(1791420889.585011) can0 1200FD02#1670000076FADBBB
(1791420889.585061) can1 0300FD02#0000000000000000
(1791420889.585182) can0 028002FD#7FED80417FED0140
(1791420889.585244) can1 028002FD#7FFF803A7FFF0136
(1791420889.587312) can0 0400FD03#0000000000000000
(1791420889.587339) can1 1200FD02#16700000811F49B9
(1791420889.587409) can0 020003FD#7D327F2B7FFF0136
(1791420889.587447) can1 028002FD#7FFF7FD97FFC0136
(1791420889.589592) can0 1200FD03#0570000005000000
(1791420889.589625) can1 0400FD03#0000000000000000
(1791420889.589715) can0 020003FD#7D327F0F7FFF0136
(1791420889.589778) can1 020003FD#7FFF7FF37FFF0140
(1791420889.591804) can0 1200FD03#17700000CDCCCC3E
(1791420889.591864) can1 1200FD03#0570000005000000
(1791420889.591965) can0 020003FD#7D32801A7FFF0136
(1791420889.592013) can1 020003FD#7FFF7FBD7FFF0140
(1791420889.594028) can0 1200FD03#1870000000008040
(1791420889.594120) can1 1200FD03#17700000CDCCCC3E
(1791420889.594241) can0 020003FD#7D327FA07FFF0136
(1791420889.594277) can1 020003FD#7FFF802E7FFF0140
(1791420889.596441) can0 1200FD03#1670000073EC8CBE
(1791420889.596509) can1 1200FD03#1870000000008040
(1791420889.596594) can0 020003FD#7D3280167FFF0136
(1791420889.596663) can1 020003FD#7FFF7F997FFF0140
(1791420889.598889) can0 1100FD03#0570000000000000
(1791420889.598926) can1 1200FD03#16700000811F49B9
(1791420889.598971) can0 110003FD#0570000005000000
(1791420889.599065) can1 020003FD#7FFF808B7FFF0140
(1791420889.601311) can1 1100FD03#0570000000000000
(1791420889.601428) can1 110003FD#0570000005000000
(1791420889.603557) can0 0300FD03#0000000000000000
(1791420889.603694) can0 028003FD#7D32804E7FFF0136
(1791420889.605753) can0 1200FD03#1670000073EC8CBE
(1791420889.605789) can1 0300FD03#0000000000000000
(1791420889.605911) can0 028003FD#7D32800180190136
(1791420889.605946) can1 028003FD#7FFF7F727FFF0140
(1791420889.608072) can0 0400FD04#0000000000000000
(1791420889.608231) can1 1200FD03#16700000811F49B9
(1791420889.608267) can0 020004FD#7FA17FEA7FFF0118
(1791420889.608343) can1 028003FD#7FFF7FC97FE50140
(1791420889.610697) can0 1200FD04#0570000005000000
(1791420889.610733) can1 0400FD04#0000000000000000
(1791420889.610848) can0 020004FD#7FA17F697FFF0118
(1791420889.610895) can1 020004FD#7FFF800E7FFF012C
(1791420889.613145) can0 1200FD04#17700000CDCCCC3E
(1791420889.613232) can1 1200FD04#0570000005000000
(1791420889.613317) can0 020004FD#7FA17FFF7FFF0118
(1791420889.613391) can1 020004FD#7FFF7FE97FFF012C
(1791420889.615641) can0 1200FD04#1870000000008040
(1791420889.615689) can1 1200FD04#17700000CDCCCC3E
(1791420889.615805) can0 020004FD#7FA180457FFF0118
(1791420889.615847) can1 020004FD#7FFF7F8A7FFF012C
(1791420889.618019) can0 1200FD04#16700000437C14BD
(1791420889.618117) can1 1200FD04#1870000000008040
(1791420889.618185) can0 020004FD#7FA180587FFF0118
(1791420889.618290) can1 020004FD#7FFF7FD37FFF012C
(1791420889.620588) can0 1100FD04#0570000000000000
(1791420889.620692) can1 1200FD04#16700000811F49B9
(1791420889.620813) can0 110004FD#0570000005000000
(1791420889.620931) can1 020004FD#7FFF7FAA7FFF012C
(1791420889.621124) can0 0200FD01#0100000000000000
(1791420889.621301) can1 0200FD01#0100000000000000
(1791420889.621351) can0 028001FD#7FAE7FDA8017012C
(1791420889.621481) can1 028001FD#7FFD7FAD7FD40122
(1791420889.621737) can0 0200FD02#0100000000000000
(1791420889.621870) can1 0200FD02#0100000000000000
(1791420889.622000) can0 028002FD#7FEE8034800A0140
(1791420889.622113) can1 028002FD#7FFF80C57FED0136
(1791420889.622368) can0 0200FD03#0100000000000000
(1791420889.622501) can1 0200FD03#0100000000000000
(1791420889.622585) can0 028003FD#7D3280597FEA0136
(1791420889.622737) can1 028003FD#7FFF7FC380570140
(1791420889.622940) can0 0200FD04#0100000000000000
(1791420889.623066) can1 0200FD04#0100000000000000
(1791420889.623253) can0 020004FD#7FA17F817FFF0118
(1791420889.623288) can1 020004FD#7FFF7F927FFF012C
(1791420889.623589) can0 0200FD05#0100000000000000
(1791420889.623684) can1 0200FD05#0100000000000000
(1791420889.623801) can0 020005FD#82557FA77FFF0140
(1791420889.623931) can1 020005FD#88E280207FFF014A
(1791420889.624126) can0 0200FD06#0100000000000000
(1791420889.624307) can1 0200FD06#0100000000000000
(1791420889.624342) can0 020006FD#807780057FFF0140
(1791420889.624481) can1 020006FD#7FFD800A7FFF014A
(1791420889.624736) can0 0200FD07#0100000000000000
(1791420889.624876) can1 0200FD07#0100000000000000
(1791420889.624972) can0 020007FD#7B7580157FFF012C
(1791420889.625205) can1 020007FD#800180317FFF012C
(1791420889.625364) can0 0200FD08#0100000000000000
(1791420889.625498) can1 0200FD08#0100000000000000
(1791420889.625585) can0 020008FD#7EBF7FC87FFF0122
(1791420889.625733) can1 020008FD#828E80137FFF0122
(1791420889.625936) can0 0300FD04#0000000000000000
(1791420889.626050) can1 1100FD04#0570000000000000
(1791420889.626099) can0 028004FD#7FA17FAC7FFF0118
(1791420889.626244) can1 110004FD#0570000005000000
(1791420889.627890) can0 1200FD04#16700000437C14BD
(1791420889.628016) can0 028004FD#7FA17F74803A0118
(1791420889.630311) can0 0400FD05#0000000000000000
(1791420889.630433) can0 020005FD#82557FE07FFF0140
(1791420889.630438) can1 0300FD04#0000000000000000
(1791420889.630597) can1 028004FD#7FFF80657FFF012C
(1791420889.632791) can0 1200FD05#0570000005000000
(1791420889.632870) can1 1200FD04#16700000811F49B9
(1791420889.632942) can0 020005FD#82557FBF7FFF0140
(1791420889.633005) can1 028004FD#7FFF8029801B012C
(1791420889.635247) can1 0400FD05#0000000000000000
(1791420889.635249) can0 1200FD05#17700000CDCCCC3E
(1791420889.635303) can0 020005FD#82557FF07FFF0140
(1791420889.635345) can1 020005FD#88E27FE97FFF014A
(1791420889.637441) can0 1200FD05#1870000000000040
(1791420889.637502) can1 1200FD05#0570000005000000
(1791420889.637587) can0 020005FD#825580107FFF0140
(1791420889.637634) can1 020005FD#88E27FDF7FFF014A
(1791420889.639863) can0 1200FD05#1670000084B56A3E
(1791420889.639902) can1 1200FD05#17700000CDCCCC3E
(1791420889.639998) can0 020005FD#825580027FFF0140
(1791420889.640053) can1 020005FD#88E27FDF7FFF014A
(1791420889.642379) can0 1100FD05#0570000000000000
(1791420889.642436) can1 1200FD05#1870000000000040
(1791420889.642473) can0 110005FD#0570000005000000
(1791420889.642595) can1 020005FD#88E2801C7FFF014A
(1791420889.644721) can1 1200FD05#16700000CD5D5F3F
(1791420889.644880) can1 020005FD#88E27FCF7FFF014A
(1791420889.647039) can0 0300FD05#0000000000000000
(1791420889.647120) can1 1100FD05#0570000000000000
(1791420889.647246) can0 028005FD#82557FDB7FFF0140
(1791420889.647250) can1 110005FD#0570000005000000
(1791420889.649501) can0 1200FD05#1670000084B56A3E
(1791420889.649661) can0 028005FD#8255800C7F7A0140
(1791420889.651895) can0 0400FD06#0000000000000000
(1791420889.651932) can1 0300FD05#0000000000000000
(1791420889.652052) can0 020006FD#807780107FFF0140
(1791420889.652056) can1 028005FD#88E27FE77FFF014A
(1791420889.654161) can0 1200FD06#0570000005000000
(1791420889.654305) can1 1200FD05#16700000CD5D5F3F
(1791420889.654343) can0 020006FD#807780017FFF0140
(1791420889.654448) can1 028005FD#88E27FCF7FD4014A
(1791420889.656711) can1 0400FD06#0000000000000000
(1791420889.656756) can0 1200FD06#17700000CDCCCC3E
(1791420889.656857) can0 020006FD#807780267FFF0140
(1791420889.656891) can1 020006FD#7FFC80577FFF014A
(1791420889.658969) can0 1200FD06#1870000000000040
(1791420889.659022) can1 1200FD06#0570000005000000
(1791420889.659111) can0 020006FD#80777FEA7FFF0140
(1791420889.659185) can1 020006FD#7FFC80347FFF014A
(1791420889.661444) can0 1200FD06#167000006AC43B3D
(1791420889.661505) can1 1200FD06#17700000CDCCCC3E
(1791420889.661542) can0 020006FD#80777FF77FFF0140
(1791420889.661663) can1 020006FD#7FFC800F7FFF014A
(1791420889.663851) can0 1100FD06#0570000000000000
(1791420889.663900) can1 1200FD06#1870000000000040
(1791420889.664010) can0 110006FD#0570000005000000
(1791420889.664042) can1 020006FD#7FFC804B7FFF014A
(1791420889.666158) can1 1200FD06#1670000091FBAFBA
(1791420889.666278) can1 020006FD#7FFC80267FFF014A
(1791420889.668693) can0 0300FD06#0000000000000000
(1791420889.668766) can1 1100FD06#0570000000000000
(1791420889.668848) can0 028006FD#80777FC87FFF0140
(1791420889.668905) can1 110006FD#0570000005000000
(1791420889.671090) can0 1200FD06#167000006AC43B3D
(1791420889.671154) can1 0200FD01#0100000000000000
(1791420889.671353) can0 028006FD#8077800F7FC10140
(1791420889.671434) can1 028001FD#7FFD7F9B7FD10122
(1791420889.671668) can0 0200FD01#0100000000000000
(1791420889.671747) can1 0200FD02#0100000000000000
(1791420889.671910) can0 028001FD#7FAD7F3D8011012C
(1791420889.671985) can1 028002FD#7FFF7F877FE30136
(1791420889.672251) can0 0200FD02#0100000000000000
(1791420889.672381) can1 0200FD03#0100000000000000
(1791420889.672489) can0 028002FD#7FEE7FEA7FF20140
(1791420889.672559) can1 028003FD#7FFF80737FE40140
(1791420889.672820) can0 0200FD03#0100000000000000
(1791420889.672958) can1 0200FD04#0100000000000000
(1791420889.672998) can0 028003FD#7D327F8A80030136
(1791420889.673250) can1 028004FD#7FFF7FD48010012C
(1791420889.673437) can0 0200FD04#0100000000000000
(1791420889.673592) can1 0200FD05#0100000000000000
(1791420889.673645) can0 028004FD#7FA1801B800A0118
(1791420889.673817) can1 028005FD#88E27FF17F87014A
(1791420889.674008) can0 0200FD05#0100000000000000
(1791420889.674140) can1 0200FD06#0100000000000000
(1791420889.674292) can0 028005FD#8255800E7FEA0140
(1791420889.674357) can1 020006FD#7FFC800F7FFF014A
(1791420889.674693) can0 0200FD06#0100000000000000
(1791420889.674750) can1 0200FD07#0100000000000000
(1791420889.674807) can0 028006FD#807780227F800140
(1791420889.674994) can1 020007FD#80007FD17FFF012C
(1791420889.675306) can0 0200FD07#0100000000000000
(1791420889.675373) can1 0200FD08#0100000000000000
(1791420889.675492) can0 020007FD#7B7480057FFF012C
(1791420889.675588) can1 020008FD#828E7FE47FFF0122
(1791420889.675878) can0 0200FD08#0100000000000000
(1791420889.675944) can1 0300FD06#0000000000000000
(1791420889.676198) can0 020008FD#7EC07FF37FFF0122
(1791420889.676497) can1 1200FD06#1670000091FBAFBA
(1791420889.676497) can0 0400FD07#0000000000000000
(1791420889.676738) can0 020007FD#7B747FDE7FFF012C
(1791420889.677067) can0 1200FD07#0570000005000000
(1791420889.677292) can0 020007FD#7B7480017FFF012C
(1791420889.677337) can1 028006FD#7FFC7FDC7FFF014A
(1791420889.677526) can1 028006FD#7FFC7FBF8011014A
(1791420889.678147) can0 1200FD07#17700000CDCCCC3E
(1791420889.678293) can0 020007FD#7B747FF47FFF012C
(1791420889.680594) can0 1200FD07#1870000000000040
(1791420889.680641) can1 0400FD07#0000000000000000
(1791420889.680755) can0 020007FD#7B75801C7FFF012C
(1791420889.680790) can1 020007FD#8001802C7FFF012C
(1791420889.682825) can0 1200FD07#16700000AC85E4BE
(1791420889.682891) can1 1200FD07#0570000005000000
(1791420889.682983) can0 020007FD#7B75801E7FFF012C
(1791420889.683021) can1 020007FD#800180177FFF012C
(1791420889.685249) can0 1100FD07#0570000000000000
(1791420889.685308) can1 1200FD07#17700000CDCCCC3E
(1791420889.685344) can0 110007FD#0570000005000000
(1791420889.685431) can1 020007FD#80007FF27FFF012C
(1791420889.687629) can1 1200FD07#1870000000000040
(1791420889.687769) can1 020007FD#80017FEC7FFF012C
(1791420889.689882) can0 0300FD07#0000000000000000
(1791420889.689943) can1 1200FD07#16700000A1D7163A
(1791420889.690037) can0 028007FD#7B74801A7FFF012C
(1791420889.690096) can1 020007FD#80017FEF7FFF012C
(1791420889.692308) can0 1200FD07#16700000AC85E4BE
(1791420889.692372) can1 1100FD07#0570000000000000
(1791420889.692411) can0 028007FD#7B747FD4802B012C
(1791420889.692475) can1 110007FD#0570000005000000
(1791420889.694625) can0 0400FD08#0000000000000000
(1791420889.694766) can0 020008FD#7EBF7FC47FFF0122
(1791420889.696786) can0 1200FD08#0570000005000000
(1791420889.696828) can1 0300FD07#0000000000000000
(1791420889.696961) can0 020008FD#7EBF7FCF7FFF0122
(1791420889.696995) can1 028007FD#80007FC67FFF012C
(1791420889.699025) can0 1200FD08#17700000CDCCCC3E
(1791420889.699139) can1 1200FD07#16700000A1D7163A
(1791420889.699193) can0 020008FD#7EBF7FEF7FFF0122
(1791420889.699249) can1 028007FD#800180128015012C
(1791420889.701315) can0 1200FD08#1870000000000040
(1791420889.701373) can1 0400FD08#0000000000000000
(1791420889.701416) can0 020008FD#7EBF7FF97FFF0122
(1791420889.701466) can1 020008FD#828F7FE87FFF0122
(1791420889.703504) can0 1200FD08#16700000DD35FABD
(1791420889.703596) can1 1200FD08#0570000005000000
(1791420889.703668) can0 020008FD#7EBF7FA67FFF0122
(1791420889.703711) can1 020008FD#828F80157FFF0122
(1791420889.705703) can0 1100FD08#0570000000000000
(1791420889.705705) can1 1200FD08#17700000CDCCCC3E
(1791420889.705847) can1 020008FD#828E801A7FFF0122
(1791420889.705851) can0 110008FD#0570000005000000
(1791420889.708021) can1 1200FD08#1870000000000040
(1791420889.708187) can1 020008FD#828E80347FFF0122
(1791420889.710511) can0 0300FD08#0000000000000000
(1791420889.710590) can1 1200FD08#16700000E8117D3E
(1791420889.710660) can0 028008FD#7EBF80087FFF0122
(1791420889.710714) can1 020008FD#828E7FE17FFF0122
(1791420889.712913) can0 1200FD08#16700000DD35FABD
(1791420889.712965) can1 1100FD08#0570000000000000
(1791420889.713080) can0 028008FD#7EBF8004802E0122
(1791420889.713116) can1 110008FD#0570000005000000
(1791420889.717687) can1 0300FD08#0000000000000000
(1791420889.717858) can1 028008FD#828F80287FFF0122
(1791420889.720158) can1 1200FD08#16700000E8117D3E
(1791420889.720263) can1 028008FD#828F804B80590122
(1791420889.722579) can1 0200FD01#0100000000000000
(1791420889.722611) can0 0200FD01#0100000000000000
(1791420889.722820) can1 028001FD#7FFD7F2D7FC6012C
(1791420889.722850) can0 028001FD#7FAD7FE08026012C
(1791420889.723135) can1 0200FD02#0100000000000000
(1791420889.723136) can0 0200FD02#0100000000000000
(1791420889.723364) can1 028002FD#7FFF80017FCC0136
(1791420889.723390) can0 028002FD#7FEE7FC57FFF0140
(1791420889.723742) can1 0200FD03#0100000000000000
(1791420889.723776) can0 0200FD03#0100000000000000
(1791420889.723990) can1 028003FD#7FFF7FD37FE10140
(1791420889.724025) can0 028003FD#7D327F757F910136
(1791420889.724374) can1 0200FD04#0100000000000000
(1791420889.724376) can0 0200FD04#0100000000000000
(1791420889.724564) can0 028004FD#7FA17FE47FFC0118
(1791420889.724590) can1 028004FD#7FFF7FC27FB4012C
(1791420889.724944) can1 0200FD05#0100000000000000
(1791420889.724976) can0 0200FD05#0100000000000000
(1791420889.725258) can0 028005FD#82557FFB7F4B0140
(1791420889.725266) can1 028005FD#88E17FFA7FCC014A
(1791420889.725573) can1 0200FD06#0100000000000000
(1791420889.725597) can0 0200FD06#0100000000000000
(1791420889.725836) can1 028006FD#7FFC80297FA4014A
(1791420889.725844) can0 028006FD#80777FE07FDC0140
(1791420889.726139) can1 0200FD07#0100000000000000
(1791420889.726141) can0 0200FD07#0100000000000000
(1791420889.726349) can1 028007FD#8000800B7F93012C
(1791420889.726382) can0 028007FD#7B747FFA801E012C
(1791420889.726742) can1 0200FD08#0100000000000000
(1791420889.726777) can0 0200FD08#0100000000000000
(1791420889.726987) can1 028008FD#828D7FC980270122
(1791420889.727022) can0 028008FD#7EBF7FCA80210122
(1791420889.727374) can0 1200FD01#1670000000000000
(1791420889.727375) can1 1200FD01#1670000000000000
(1791420889.727563) can0 028001FD#7FAE7FF08017012C
(1791420889.727591) can1 028001FD#7FFE7FAF7FDA0122
(1791420889.727953) can0 1200FD02#1670000000000000
(1791420889.727992) can1 1200FD02#1670000000000000
(1791420889.728264) can0 028002FD#7FED7F717FF00140
(1791420889.728271) can1 028002FD#7FFF80307FEE0136
(1791420889.728599) can1 1200FD03#1670000000000000
(1791420889.728601) can0 1200FD03#1670000000000000
(1791420889.728824) can1 028003FD#7FFF7F5D7F970140
(1791420889.728856) can0 028003FD#7D32801680210136
(1791420889.729143) can1 1200FD04#1670000000000000
(1791420889.729145) can0 1200FD04#1670000000000000
(1791420889.729355) can0 028004FD#7FA1809480160118
(1791420889.729406) can1 028004FD#7FFF7FDB7FF6012C
(1791420889.729750) can1 1200FD05#16700000F3665F3F
(1791420889.729789) can0 1200FD05#16700000D8E917BE
(1791420889.729990) can1 028005FD#88E17FCD7FB4014A
(1791420889.730025) can0 028005FD#82557FCF7FE30140
(1791420889.730380) can1 1200FD06#1670000000000000
(1791420889.730382) can0 1200FD06#1670000000000000
(1791420889.730595) can1 028006FD#7FFC7FFD7FDF014A
(1791420889.730611) can0 028006FD#807780327F870140
(1791420889.730955) can1 1200FD07#1670000000000000
(1791420889.730958) can0 1200FD07#167000003333B3BF
(1791420889.731093) can1 028007FD#80007FEC80B2012C
(1791420889.731127) can0 028007FD#7B74803E7FE6012C
(1791420889.774320) can1 0200FD01#0100000000000000
(1791420889.774384) can0 0200FD01#0100000000000000
(1791420889.774496) can1 028001FD#7FFE801E80240122
(1791420889.774593) can0 028001FD#7FB781038361012C
(1791420889.774892) can1 0200FD02#0100000000000000
(1791420889.774953) can0 0200FD02#0100000000000000
(1791420889.775197) can1 028002FD#7FFF801A7FED0136
(1791420889.775247) can0 028002FD#7FF7805B82830140
(1791420889.775509) can1 0200FD03#0100000000000000
(1791420889.775597) can0 0200FD03#0100000000000000
(1791420889.775749) can0 028003FD#7D55824580D20136
(1791420889.775785) can1 028003FD#80008075802B0140
(1791420889.776072) can1 0200FD04#0100000000000000
(1791420889.776140) can0 0200FD04#0100000000000000
(1791420889.776294) can1 028004FD#7FFF80A18007012C
(1791420889.776441) can0 028004FD#7FB981AB82720118
(1791420889.776696) can1 0200FD05#0100000000000000
(1791420889.776813) can0 0200FD05#0100000000000000
(1791420889.776945) can1 028005FD#88E17FF57FAF014A
(1791420889.776991) can0 028005FD#82247E02822E0140
(1791420889.777320) can1 0200FD06#0100000000000000
(1791420889.777440) can0 0200FD06#0100000000000000
(1791420889.777503) can1 028006FD#7FFD7FFA808F014A
(1791420889.777621) can0 028006FD#80527F1D7A040140
(1791420889.777894) can1 0200FD07#0100000000000000
(1791420889.778016) can0 0200FD07#0100000000000000
(1791420889.778197) can1 028007FD#7FFF80147F8A012C
(1791420889.778297) can0 028007FD#7B497E4E7FB3012C
(1791420889.778507) can1 0200FD08#0100000000000000
(1791420889.778624) can0 0200FD08#0100000000000000
(1791420889.778661) can1 028008FD#82897FD87D2F0122
(1791420889.778770) can0 028008FD#7EC080017FC70122
(1791420889.825247) can0 0200FD01#0100000000000000
(1791420889.825249) can1 0200FD01#0100000000000000
(1791420889.825432) can1 028001FD#7FFF7F77801E0122
(1791420889.825500) can0 028001FD#7FC88173837F012C
(1791420889.825821) can1 0200FD02#0100000000000000
(1791420889.825822) can0 0200FD02#0100000000000000
(1791420889.825999) can0 028002FD#7FFE80B780B30140
(1791420889.826061) can1 028002FD#7FFF7F8180070136
(1791420889.826442) can0 0200FD03#0100000000000000
(1791420889.826477) can1 0200FD03#0100000000000000
(1791420889.826620) can0 028003FD#7D8782D280CD0136
(1791420889.826655) can1 028003FD#7FFF7F50801E0140
(1791420889.827007) can0 0200FD04#0100000000000000
(1791420889.827043) can1 0200FD04#0100000000000000
(1791420889.827297) can0 028004FD#7FDD80CA852F0118
(1791420889.827334) can1 028004FD#7FFF80467FCD012C
(1791420889.827636) can0 0200FD05#0100000000000000
(1791420889.827636) can1 0200FD05#0100000000000000
(1791420889.827815) can0 028005FD#81ED7E9D7FC20140
(1791420889.827877) can1 028005FD#88E2801C7FA3014A
(1791420889.828254) can1 0200FD06#0100000000000000
(1791420889.828255) can0 0200FD06#0100000000000000
(1791420889.828454) can0 028006FD#80267E96799E0140
(1791420889.828459) can1 028006FD#7FFD8009813E014A
(1791420889.828834) can1 0200FD07#0100000000000000
(1791420889.828895) can0 0200FD07#0100000000000000
(1791420889.829080) can0 028007FD#7B007DBE8946012C
(1791420889.829084) can1 028007FD#7FFF7FDE8021012C
(1791420889.829453) can1 0200FD08#0100000000000000
(1791420889.829512) can0 0200FD08#0100000000000000
(1791420889.829598) can1 028008FD#828880047C840122
(1791420889.829674) can0 028008FD#7EC07FED80730122
(1791420889.876395) can1 0200FD01#0100000000000000
(1791420889.876453) can0 0200FD01#0100000000000000
(1791420889.876576) can1 028001FD#7FFE7FFC80160122
(1791420889.876629) can0 028001FD#7FD6811E8466012C
(1791420889.876953) can1 0200FD02#0100000000000000
(1791420889.877019) can0 0200FD02#0100000000000000
(1791420889.877264) can1 028002FD#7FFF80897FCB0136
(1791420889.877301) can0 028002FD#800180217FFB0140
(1791420889.877599) can1 0200FD03#0100000000000000
(1791420889.877637) can0 0200FD03#0100000000000000
(1791420889.877821) can1 028003FD#7FFF7F5D7FF80140
(1791420889.877885) can0 028003FD#7DBB828D804D0136
(1791420889.878150) can1 0200FD04#0100000000000000
(1791420889.878261) can0 0200FD04#0100000000000000
(1791420889.878361) can1 028004FD#7FFF804F7FB3012C
(1791420889.878445) can0 028004FD#7FF6813D848A0118
(1791420889.878731) can1 0200FD05#0100000000000000
(1791420889.878831) can0 0200FD05#0100000000000000
(1791420889.878979) can1 028005FD#88E2801E8037014A
(1791420889.879067) can0 028005FD#81B97E3480190140
(1791420889.879323) can1 0200FD06#0100000000000000
(1791420889.879451) can0 0200FD06#0100000000000000
(1791420889.879602) can1 028006FD#7FFE802A811D014A
(1791420889.879637) can0 028006FD#80097F997C850140
(1791420889.879893) can1 0200FD07#0100000000000000
(1791420889.880011) can0 0200FD07#0100000000000000
(1791420889.880207) can1 028007FD#7FFE8000802D012C
(1791420889.880317) can0 028007FD#7AB77E0B891C012C
(1791420889.880511) can1 0200FD08#0100000000000000
(1791420889.880638) can0 0200FD08#0100000000000000
(1791420889.880674) can1 028008FD#8288802B7CAB0122
(1791420889.880779) can0 028008FD#7EC07FF280BE0122
(1791420889.927399) can1 0200FD01#0100000000000000
(1791420889.927510) can0 0200FD01#0100000000000000
(1791420889.927604) can1 028001FD#7FFE7F84802A0122
(1791420889.927765) can0 028001FD#7FEC819483B9012C
(1791420889.927949) can1 0200FD02#0100000000000000
(1791420889.928072) can0 0200FD02#0100000000000000
(1791420889.928262) can1 028002FD#7FFF80517FF50136
(1791420889.928317) can0 028002FD#80017FAD7FBF0140
(1791420889.928605) can1 0200FD03#0100000000000000
(1791420889.928708) can0 0200FD03#0100000000000000
(1791420889.928827) can1 028003FD#7FFF7FC67FE10140
(1791420889.928948) can0 028003FD#7DEF82BA80820136
(1791420889.929151) can1 0200FD04#0100000000000000
(1791420889.929320) can0 0200FD04#0100000000000000
(1791420889.929362) can1 028004FD#7FFE80237FCC012C
(1791420889.929493) can0 028004FD#7FF97FC0845F0118
(1791420889.929737) can1 0200FD05#0100000000000000
(1791420889.929895) can0 0200FD05#0100000000000000
(1791420889.929992) can1 028005FD#88E17FEA7FF7014A
(1791420889.930200) can0 028005FD#81827E9480290140
(1791420889.930390) can1 0200FD06#0100000000000000
(1791420889.930514) can0 0200FD06#0100000000000000
(1791420889.930600) can1 028006FD#7FFE7FC68125014A
(1791420889.930753) can0 028006FD#80027F987D7F0140
(1791420889.930958) can1 0200FD07#0100000000000000
(1791420889.931085) can0 0200FD07#0100000000000000
(1791420889.931264) can1 028007FD#7FFF804F7F8E012C
(1791420889.931320) can0 028007FD#7A767E168747012C
(1791420889.931604) can1 0200FD08#0100000000000000
(1791420889.931699) can0 0200FD08#0100000000000000
(1791420889.931771) can1 028008FD#82877FFE7C240122
(1791420889.931830) can0 028008FD#7EC07FFD80F50122
