(1791431466.742254) can1 0200FD01#0100000000000000
(1791431466.742405) can1 020001FD#7FFD80777FFF0136
(1791431466.742533) can0 0200FD01#0100000000000000
(1791431466.742711) can0 020001FD#7FAE7FE07FFF0136
(1791431466.742849) can1 0200FD02#0100000000000000
(1791431466.743087) can1 020002FD#7FFD7F9C7FFF0140
(1791431466.743122) can0 0200FD02#0100000000000000
(1791431466.743387) can0 020002FD#7FFD80947FFF014A
(1791431466.743472) can1 0200FD03#0100000000000000
(1791431466.743697) can1 020003FD#7FFF7FAA7FFF0154
(1791431466.743725) can0 0200FD03#0100000000000000
(1791431466.743972) can0 020003FD#7FFF7FB67FFF014A
(1791431466.744040) can1 0200FD04#0100000000000000
(1791431466.744346) can0 0200FD04#0100000000000000
(1791431466.744381) can1 020004FD#7FFF80527FFF0140
(1791431466.744534) can0 020004FD#7FF880817FFF012C
(1791431466.744692) can1 0200FD05#0100000000000000
(1791431466.744909) can1 020005FD#88E180057FFF015E
(1791431466.744944) can0 0200FD05#0100000000000000
(1791431466.745159) can0 020005FD#7E7D7FF97FFF0154
(1791431466.745233) can1 0200FD06#0100000000000000
(1791431466.745457) can1 020006FD#7FFB80227FFF015E
(1791431466.745541) can0 0200FD06#0100000000000000
(1791431466.745718) can0 020006FD#7FF87FFF7FFF0154
(1791431466.745852) can1 0200FD07#0100000000000000
(1791431466.746097) can1 020007FD#800280067FFF0140
(1791431466.746099) can0 0200FD07#0100000000000000
(1791431466.746386) can0 020007FD#7ADC7FD77FFF0140
(1791431466.746483) can1 0200FD08#0100000000000000
(1791431466.746582) can1 020008FD#8290800A7FFF0136
(1791431466.746723) can0 0200FD08#0100000000000000
(1791431466.746882) can0 020008FD#7EBD800A7FFF012C
(1791431466.834352) can1 0200FD01#0100000000000000
(1791431466.834520) can1 020001FD#7FFD80977FFF0136
(1791431466.834910) can1 0200FD02#0100000000000000
(1791431466.834987) can0 0200FD01#0100000000000000
(1791431466.835165) can1 020002FD#7FFE7FE17FFF0140
(1791431466.835316) can0 020001FD#7FAE7FF67FFF0136
(1791431466.835546) can1 0200FD03#0100000000000000
(1791431466.835605) can0 0200FD02#0100000000000000
(1791431466.835730) can1 020003FD#7FFF7F747FFF0154
(1791431466.835842) can0 020002FD#7FFE80817FFF014A
(1791431466.836106) can1 0200FD04#0100000000000000
(1791431466.836165) can0 0200FD03#0100000000000000
(1791431466.836406) can0 020003FD#7FFF7F937FFF014A
(1791431466.836411) can1 020004FD#7FFF7FFA7FFF0140
(1791431466.836732) can1 0200FD05#0100000000000000
(1791431466.836785) can0 0200FD04#0100000000000000
(1791431466.836972) can1 020005FD#88E17FEC7FFF015E
(1791431466.837041) can0 020004FD#7FF87FE67FFF012C
(1791431466.837351) can1 0200FD06#0100000000000000
(1791431466.837408) can0 0200FD05#0100000000000000
(1791431466.837536) can1 020006FD#7FFB802B7FFF015E
(1791431466.837587) can0 020005FD#7E7E80117FFF0154
(1791431466.837926) can1 0200FD07#0100000000000000
(1791431466.837985) can0 0200FD06#0100000000000000
(1791431466.838106) can1 020007FD#8001802A7FFF0140
(1791431466.838220) can0 020006FD#7FF8801A7FFF0154
(1791431466.838546) can1 0200FD08#0100000000000000
(1791431466.838610) can0 0200FD07#0100000000000000
(1791431466.838690) can1 020008FD#829080137FFF0136
(1791431466.838782) can0 020007FD#7ADC80057FFF0140
(1791431466.839171) can0 0200FD08#0100000000000000
(1791431466.839352) can0 020008FD#7EBD80417FFF012C
(1791431466.931445) can1 0200FD01#0100000000000000
(1791431466.931698) can1 020001FD#7FFD80207FFF0136
(1791431466.931998) can1 0200FD02#0100000000000000
(1791431466.932245) can0 0200FD01#0100000000000000
(1791431466.932311) can1 020002FD#7FFD80397FFF0140
(1791431466.932474) can0 020001FD#7FAE80947FFF0136
(1791431466.932633) can1 0200FD03#0100000000000000
(1791431466.932858) can0 0200FD02#0100000000000000
(1791431466.932892) can1 020003FD#7FFF80C17FFF0154
(1791431466.933096) can0 020002FD#7FFD7FD77FFF014A
(1791431466.933184) can1 0200FD04#0100000000000000
(1791431466.933411) can1 020004FD#7FFF80157FFF0140
(1791431466.933475) can0 0200FD03#0100000000000000
(1791431466.933695) can0 020003FD#7FFF7F707FFF014A
(1791431466.933804) can1 0200FD05#0100000000000000
(1791431466.933974) can1 020005FD#88E17FE57FFF015E
(1791431466.934042) can0 0200FD04#0100000000000000
(1791431466.934309) can0 020004FD#7FF87FEE7FFF012C
(1791431466.934414) can1 0200FD06#0100000000000000
(1791431466.934598) can1 020006FD#7FFB80167FFF015E
(1791431466.934632) can0 0200FD05#0100000000000000
(1791431466.934853) can0 020005FD#7E7D7FE07FFF0154
(1791431466.934985) can1 0200FD07#0100000000000000
(1791431466.935175) can0 0200FD06#0100000000000000
(1791431466.935297) can1 020007FD#800280217FFF0140
(1791431466.935409) can0 020006FD#7FF880117FFF0154
(1791431466.935609) can1 0200FD08#0100000000000000
(1791431466.935767) can1 020008FD#82907FFC7FFF0136
(1791431466.935802) can0 0200FD07#0100000000000000
(1791431466.936042) can0 020007FD#7ADC803C7FFF0140
(1791431466.936420) can0 0200FD08#0100000000000000
(1791431466.936512) can0 020008FD#7EBD7FFD7FFF012C
(1791431467.027196) can1 0200FD01#0100000000000000
(1791431467.027409) can1 020001FD#7FFD80737FFF0136
(1791431467.027798) can1 0200FD02#0100000000000000
(1791431467.028056) can1 020002FD#7FFD80517FFF0140
(1791431467.028414) can1 0200FD03#0100000000000000
(1791431467.028588) can1 020003FD#7FFF80A27FFF0154
(1791431467.028994) can1 0200FD04#0100000000000000
(1791431467.029233) can1 020004FD#7FFE7FFE7FFF0140
(1791431467.029613) can1 0200FD05#0100000000000000
(1791431467.029791) can1 020005FD#88E17FE57FFF015E
(1791431467.030181) can1 0200FD06#0100000000000000
(1791431467.030414) can0 0200FD01#0100000000000000
(1791431467.030415) can1 020006FD#7FFA80037FFF015E
(1791431467.030589) can0 020001FD#7FAE7FAF7FFF0136
(1791431467.030801) can1 0200FD07#0100000000000000
(1791431467.030990) can0 0200FD02#0100000000000000
(1791431467.031046) can1 020007FD#80027FFC7FFF0140
(1791431467.031307) can0 020002FD#7FFD80237FFF014A
(1791431467.031425) can1 0200FD08#0100000000000000
(1791431467.031529) can1 020008FD#829080107FFF0136
(1791431467.031621) can0 0200FD03#0100000000000000
(1791431467.031859) can0 020003FD#7FFF7F1F7FFF014A
(1791431467.032180) can0 0200FD04#0100000000000000
(1791431467.032403) can0 020004FD#7FF87FEA7FFF012C
(1791431467.032769) can0 0200FD05#0100000000000000
(1791431467.033008) can0 020005FD#7E7E802B7FFF0154
(1791431467.033361) can0 0200FD06#0100000000000000
(1791431467.033546) can0 020006FD#7FF9802D7FFF0154
(1791431467.033994) can0 0200FD07#0100000000000000
(1791431467.034170) can0 020007FD#7ADC7FEA7FFF0140
(1791431467.034612) can0 0200FD08#0100000000000000
(1791431467.034739) can0 020008FD#7EBD80207FFF012C
(1791431467.086887) can1 0200FD01#0100000000000000
(1791431467.087135) can1 020001FD#7FFD7FB07FFF0136
(1791431467.087480) can1 0200FD02#0100000000000000
(1791431467.087672) can1 020002FD#7FFE7FBC7FFF0140
(1791431467.087814) can0 0200FD01#0100000000000000
(1791431467.088049) can1 0200FD03#0100000000000000
(1791431467.088084) can0 020001FD#7FAE807D7FFF0136
(1791431467.088351) can1 020003FD#7FFF811B7FFF0154
(1791431467.088415) can0 0200FD02#0100000000000000
(1791431467.088596) can0 020002FD#7FFD81197FFF014A
(1791431467.088707) can1 0200FD04#0100000000000000
(1791431467.088923) can1 020004FD#7FFF7FC67FFF0140
(1791431467.088976) can0 0200FD03#0100000000000000
(1791431467.089164) can0 020003FD#7FFF80057FFF014A
(1791431467.089242) can1 0200FD05#0100000000000000
(1791431467.089463) can1 020005FD#88E180007FFF015E
(1791431467.089551) can0 0200FD04#0100000000000000
(1791431467.089734) can0 020004FD#7FF87FDE7FFF012C
(1791431467.089862) can1 0200FD06#0100000000000000
(1791431467.090048) can1 020006FD#7FFA800D7FFF015E
(1791431467.090116) can0 0200FD05#0100000000000000
(1791431467.090404) can0 020005FD#7E7D80147FFF0154
(1791431467.090481) can1 0200FD07#0100000000000000
(1791431467.090701) can1 020007FD#80017FEC7FFF0140
(1791431467.090741) can0 0200FD06#0100000000000000
(1791431467.090917) can0 020006FD#7FF8803A7FFF0154
(1791431467.091057) can1 0200FD08#0100000000000000
(1791431467.091213) can1 020008FD#828F80367FFF0136
(1791431467.091348) can0 0200FD07#0100000000000000
(1791431467.091531) can0 020007FD#7ADC80277FFF0140
(1791431467.091906) can0 0200FD08#0100000000000000
(1791431467.092078) can0 020008FD#7EBD80157FFF012C
(1791431467.147435) can1 0200FD01#0100000000000000
(1791431467.147611) can1 020001FD#7FFD80277FFF0136
(1791431467.148070) can1 0200FD02#0100000000000000
(1791431467.148237) can1 020002FD#7FFD80267FFF0140
(1791431467.148694) can1 0200FD03#0100000000000000
(1791431467.148933) can1 020003FD#80007FF17FFF0154
(1791431467.149240) can1 0200FD04#0100000000000000
(1791431467.149394) can1 020004FD#7FFF80D27FFF0140
(1791431467.150196) can1 0200FD05#0100000000000000
(1791431467.150420) can1 020005FD#88E180447FFF015E
(1791431467.150794) can1 0200FD06#0100000000000000
(1791431467.151037) can1 020006FD#7FFA80027FFF015E
(1791431467.151063) can0 0200FD01#0100000000000000
(1791431467.151318) can0 020001FD#7FAF80567FFF0136
(1791431467.151355) can1 0200FD07#0100000000000000
(1791431467.151603) can1 020007FD#80017FE57FFF0140
(1791431467.151713) can0 0200FD02#0100000000000000
(1791431467.151926) can1 0200FD08#0100000000000000
(1791431467.151928) can0 020002FD#7FFD80547FFF014A
(1791431467.152076) can1 020008FD#829080067FFF0136
(1791431467.152236) can0 0200FD03#0100000000000000
(1791431467.152473) can0 020003FD#7FFF806A7FFF014A
(1791431467.152864) can0 0200FD04#0100000000000000
(1791431467.153049) can0 020004FD#7FF87FED7FFF012C
(1791431467.153501) can0 0200FD05#0100000000000000
(1791431467.153706) can0 020005FD#7E7D80047FFF0154
(1791431467.154126) can0 0200FD06#0100000000000000
(1791431467.154372) can0 020006FD#7FF87FC27FFF0154
(1791431467.154742) can0 0200FD07#0100000000000000
(1791431467.154984) can0 020007FD#7ADC803B7FFF0140
(1791431467.155377) can0 0200FD08#0100000000000000
(1791431467.155449) can0 020008FD#7EBD7FF57FFF012C
(1791431467.211621) can1 0200FD01#0100000000000000
(1791431467.211865) can1 020001FD#7FFD800A7FFF0136
(1791431467.212179) can1 0200FD02#0100000000000000
(1791431467.212428) can1 020002FD#7FFE80167FFF0140
(1791431467.212818) can1 0200FD03#0100000000000000
(1791431467.212976) can1 020003FD#7FFF80317FFF0154
(1791431467.213430) can1 0200FD04#0100000000000000
(1791431467.213615) can1 020004FD#7FFF80987FFF0140
(1791431467.214003) can1 0200FD05#0100000000000000
(1791431467.214246) can1 020005FD#88E17FB87FFF015E
(1791431467.214370) can0 0200FD01#0100000000000000
(1791431467.214554) can0 020001FD#7FAE80267FFF0136
(1791431467.214619) can1 0200FD06#0100000000000000
(1791431467.214864) can1 020006FD#7FFB80387FFF015E
(1791431467.214939) can0 0200FD02#0100000000000000
(1791431467.215190) can0 020002FD#7FFD80107FFF014A
(1791431467.215194) can1 0200FD07#0100000000000000
(1791431467.215414) can1 020007FD#80017FE67FFF0140
(1791431467.215562) can0 0200FD03#0100000000000000
(1791431467.215736) can0 020003FD#7FFF7FF17FFF014A
(1791431467.215826) can1 0200FD08#0100000000000000
(1791431467.215962) can1 020008FD#828F7FE07FFF0136
(1791431467.216187) can0 0200FD04#0100000000000000
(1791431467.216426) can0 020004FD#7FF87FF77FFF012C
(1791431467.216805) can0 0200FD05#0100000000000000
(1791431467.217055) can0 020005FD#7E7E80097FFF0154
(1791431467.217471) can0 0200FD06#0100000000000000
(1791431467.217611) can0 020006FD#7FF880137FFF0154
(1791431467.218067) can0 0200FD07#0100000000000000
(1791431467.218238) can0 020007FD#7ADC80277FFF0140
(1791431467.218686) can0 0200FD08#0100000000000000
(1791431467.218839) can0 020008FD#7EBC7FC27FFF012C
(1791431467.280572) can1 0200FD01#0100000000000000
(1791431467.280760) can1 020001FD#7FFD801D7FFF0136
(1791431467.281133) can1 0200FD02#0100000000000000
(1791431467.281436) can1 020002FD#7FFD7F137FFF0140
(1791431467.281752) can1 0200FD03#0100000000000000
(1791431467.281982) can1 020003FD#7FFF80BA7FFF0154
(1791431467.282369) can1 0200FD04#0100000000000000
(1791431467.282558) can1 020004FD#7FFF7FA47FFF0140
(1791431467.282927) can1 0200FD05#0100000000000000
(1791431467.283159) can1 020005FD#88E17FF97FFF015E
(1791431467.283193) can0 0200FD01#0100000000000000
(1791431467.283471) can0 020001FD#7FAE7FBA7FFF0136
(1791431467.283505) can1 0200FD06#0100000000000000
(1791431467.283741) can1 020006FD#7FFA80297FFF015E
(1791431467.283846) can0 0200FD02#0100000000000000
(1791431467.284062) can1 0200FD07#0100000000000000
(1791431467.284129) can0 020002FD#7FFD7FC97FFF014A
(1791431467.284381) can1 020007FD#80017FEB7FFF0140
(1791431467.284495) can0 0200FD03#0100000000000000
(1791431467.284602) can0 020003FD#7FFF803D7FFF014A
(1791431467.284717) can1 0200FD08#0100000000000000
(1791431467.284860) can1 020008FD#828F7FE57FFF0136
(1791431467.285056) can0 0200FD04#0100000000000000
(1791431467.285240) can0 020004FD#7FF87F6F7FFF012C
(1791431467.285694) can0 0200FD05#0100000000000000
(1791431467.285935) can0 020005FD#7E7D7FA27FFF0154
(1791431467.286251) can0 0200FD06#0100000000000000
(1791431467.286478) can0 020006FD#7FF8801A7FFF0154
(1791431467.286874) can0 0200FD07#0100000000000000
(1791431467.287112) can0 020007FD#7ADC7FDE7FFF0140
(1791431467.287499) can0 0200FD08#0100000000000000
(1791431467.287586) can0 020008FD#7EBD80247FFF012C
(1791431467.343997) can1 0200FD01#0100000000000000
(1791431467.344183) can1 020001FD#7FFD80347FFF0136
(1791431467.344642) can1 0200FD02#0100000000000000
(1791431467.344874) can1 020002FD#7FFE7F6A7FFF0140
(1791431467.345197) can1 0200FD03#0100000000000000
(1791431467.345429) can1 020003FD#7FFF7FF27FFF0154
(1791431467.345563) can0 0200FD01#0100000000000000
(1791431467.345673) can0 020001FD#7FAE7FDE7FFF0136
(1791431467.345809) can1 0200FD04#0100000000000000
(1791431467.345981) can1 020004FD#7FFF809B7FFF0140
(1791431467.346376) can0 0200FD02#0100000000000000
(1791431467.346440) can1 0200FD05#0100000000000000
(1791431467.346559) can0 020002FD#7FFD80127FFF014A
(1791431467.346626) can1 020005FD#88E17FFD7FFF015E
(1791431467.346953) can0 0200FD03#0100000000000000
(1791431467.347010) can1 0200FD06#0100000000000000
(1791431467.347204) can0 020003FD#7FFF809B7FFF014A
(1791431467.347313) can1 020006FD#7FFB802E7FFF015E
(1791431467.347560) can0 0200FD04#0100000000000000
(1791431467.347621) can1 0200FD07#0100000000000000
(1791431467.347734) can0 020004FD#7FF87F827FFF012C
(1791431467.347865) can1 020007FD#80017FC17FFF0140
(1791431467.348126) can0 0200FD05#0100000000000000
(1791431467.348189) can1 0200FD08#0100000000000000
(1791431467.348373) can1 020008FD#82907FF67FFF0136
(1791431467.348424) can0 020005FD#7E7D7FBB7FFF0154
(1791431467.348748) can0 0200FD06#0100000000000000
(1791431467.348932) can0 020006FD#7FF980007FFF0154
(1791431467.349376) can0 0200FD07#0100000000000000
(1791431467.349561) can0 020007FD#7ADC7FF77FFF0140
(1791431467.349945) can0 0200FD08#0100000000000000
(1791431467.350084) can0 020008FD#7EBC7FD37FFF012C
(1791431467.405755) can1 0200FD01#0100000000000000
(1791431467.405991) can1 020001FD#7FFD7FD17FFF0136
(1791431467.406367) can1 0200FD02#0100000000000000
(1791431467.406543) can1 020002FD#7FFD7FE37FFF0140
(1791431467.406916) can1 0200FD03#0100000000000000
(1791431467.406970) can0 0200FD01#0100000000000000
(1791431467.407165) can1 020003FD#7FFF80287FFF0154
(1791431467.407237) can0 020001FD#7FAE80017FFF0136
(1791431467.407504) can1 0200FD04#0100000000000000
(1791431467.407562) can0 0200FD02#0100000000000000
(1791431467.407723) can1 020004FD#7FFF80087FFF0140
(1791431467.407750) can0 020002FD#7FFE80607FFF014A
(1791431467.408085) can1 0200FD05#0100000000000000
(1791431467.408129) can0 0200FD03#0100000000000000
(1791431467.408378) can1 020005FD#88E1800A7FFF015E
(1791431467.408431) can0 020003FD#7FFF7FF97FFF014A
(1791431467.408720) can1 0200FD06#0100000000000000
(1791431467.408756) can0 0200FD04#0100000000000000
(1791431467.408932) can1 020006FD#7FFA802A7FFF015E
(1791431467.408965) can0 020004FD#7FF880A87FFF012C
(1791431467.409261) can1 0200FD07#0100000000000000
(1791431467.409370) can0 0200FD05#0100000000000000
(1791431467.409482) can1 020007FD#80017FD07FFF0140
(1791431467.409566) can0 020005FD#7E7D7FC87FFF0154
(1791431467.409880) can1 0200FD08#0100000000000000
(1791431467.409951) can0 0200FD06#0100000000000000
(1791431467.410028) can1 020008FD#8290800C7FFF0136
(1791431467.410189) can0 020006FD#7FF87FDB7FFF0154
(1791431467.410561) can0 0200FD07#0100000000000000
(1791431467.410735) can0 020007FD#7ADC80417FFF0140
(1791431467.411135) can0 0200FD08#0100000000000000
(1791431467.411322) can0 020008FD#7EBC7FC07FFF012C
(1791431467.464031) can1 0200FD01#0100000000000000
(1791431467.464349) can1 020001FD#7FFD7FE27FFF0136
(1791431467.464634) can1 0200FD02#0100000000000000
(1791431467.464869) can1 020002FD#7FFE7FE27FFF0140
(1791431467.465188) can1 0200FD03#0100000000000000
(1791431467.465425) can1 020003FD#7FFF7FFF7FFF0154
(1791431467.465812) can1 0200FD04#0100000000000000
(1791431467.465996) can1 020004FD#7FFE7F9E7FFF0140
(1791431467.466447) can1 0200FD05#0100000000000000
(1791431467.466621) can1 020005FD#88E1802A7FFF015E
(1791431467.466830) can0 0200FD01#0100000000000000
(1791431467.467016) can1 0200FD06#0100000000000000
(1791431467.467079) can0 020001FD#7FAE7F917FFF0136
(1791431467.467328) can1 020006FD#7FFA7FD87FFF015E
(1791431467.467436) can0 0200FD02#0100000000000000
(1791431467.467612) can0 020002FD#7FFD7F2A7FFF014A
(1791431467.467647) can1 0200FD07#0100000000000000
(1791431467.467870) can1 020007FD#800180177FFF0140
(1791431467.467999) can0 0200FD03#0100000000000000
(1791431467.468202) can1 0200FD08#0100000000000000
(1791431467.468238) can0 020003FD#7FFF802B7FFF014A
(1791431467.468386) can1 020008FD#829080277FFF0136
(1791431467.468562) can0 0200FD04#0100000000000000
(1791431467.468735) can0 020004FD#7FF880347FFF012C
(1791431467.469127) can0 0200FD05#0100000000000000
(1791431467.469441) can0 020005FD#7E7E7FEA7FFF0154
(1791431467.469796) can0 0200FD06#0100000000000000
(1791431467.469966) can0 020006FD#7FF87FF27FFF0154
(1791431467.470441) can0 0200FD07#0100000000000000
(1791431467.470557) can0 020007FD#7ADC801E7FFF0140
(1791431467.471038) can0 0200FD08#0100000000000000
(1791431467.471140) can0 020008FD#7EBD80137FFF012C
(1791431467.562641) can1 0200FD01#0100000000000000
(1791431467.562867) can1 020001FD#7FFD80637FFF0136
(1791431467.563174) can1 0200FD02#0100000000000000
(1791431467.563442) can1 020002FD#7FFD80417FFF0140
(1791431467.563763) can1 0200FD03#0100000000000000
(1791431467.564004) can1 020003FD#7FFF802A7FFF0154
(1791431467.564406) can1 0200FD04#0100000000000000
(1791431467.564568) can1 020004FD#7FFF7F687FFF0140
(1791431467.564872) can0 0200FD01#0100000000000000
(1791431467.564940) can1 0200FD05#0100000000000000
(1791431467.565117) can1 020005FD#88E1800E7FFF015E
(1791431467.565151) can0 020001FD#7FAE7F747FFF0136
(1791431467.565451) can0 0200FD02#0100000000000000
(1791431467.565573) can1 0200FD06#0100000000000000
(1791431467.565723) can1 020006FD#7FFA7FE77FFF015E
(1791431467.565728) can0 020002FD#7FFD7FFA7FFF014A
(1791431467.566024) can0 0200FD03#0100000000000000
(1791431467.566146) can1 0200FD07#0100000000000000
(1791431467.566328) can0 020003FD#7FFF7F7A7FFF014A
(1791431467.566443) can1 020007FD#80017FFF7FFF0140
(1791431467.566639) can0 0200FD04#0100000000000000
(1791431467.566766) can1 0200FD08#0100000000000000
(1791431467.566884) can0 020004FD#7FF880277FFF012C
(1791431467.566918) can1 020008FD#82907FE87FFF0136
(1791431467.567204) can0 0200FD05#0100000000000000
(1791431467.567440) can0 020005FD#7E7D80207FFF0154
(1791431467.567818) can0 0200FD06#0100000000000000
(1791431467.568054) can0 020006FD#7FF980307FFF0154
(1791431467.568445) can0 0200FD07#0100000000000000
(1791431467.568635) can0 020007FD#7ADC7FBA7FFF0140
(1791431467.569019) can0 0200FD08#0100000000000000
(1791431467.569138) can0 020008FD#7EBD80007FFF012C
(1791431467.616231) can1 0200FD01#0100000000000000
(1791431467.616438) can1 020001FD#7FFD80627FFF0136
(1791431467.616822) can1 0200FD02#0100000000000000
(1791431467.617067) can1 020002FD#7FFD7FA37FFF0140
(1791431467.617443) can1 0200FD03#0100000000000000
(1791431467.617624) can1 020003FD#8000808F7FFF0154
(1791431467.617761) can0 0200FD01#0100000000000000
(1791431467.618004) can0 020001FD#7FAF80BB7FFF0136
(1791431467.618040) can1 0200FD04#0100000000000000
(1791431467.618247) can1 020004FD#7FFF804A7FFF0140
(1791431467.618385) can0 0200FD02#0100000000000000
(1791431467.618574) can0 020002FD#7FFD7FB17FFF014A
(1791431467.618633) can1 0200FD05#0100000000000000
(1791431467.618816) can1 020005FD#88E17FE87FFF015E
(1791431467.618952) can0 0200FD03#0100000000000000
(1791431467.619199) can0 020003FD#7FFF804F7FFF014A
(1791431467.619232) can1 0200FD06#0100000000000000
(1791431467.619444) can1 020006FD#7FFA7FE47FFF015E
(1791431467.619570) can0 0200FD04#0100000000000000
(1791431467.619751) can0 020004FD#7FF880497FFF012C
(1791431467.619821) can1 0200FD07#0100000000000000
(1791431467.620067) can1 020007FD#8001800B7FFF0140
(1791431467.620140) can0 0200FD05#0100000000000000
(1791431467.620441) can0 020005FD#7E7E7FF07FFF0154
(1791431467.620445) can1 0200FD08#0100000000000000
(1791431467.620566) can1 020008FD#829080267FFF0136
(1791431467.620762) can0 0200FD06#0100000000000000
(1791431467.621006) can0 020006FD#7FF87FDF7FFF0154
(1791431467.621385) can0 0200FD07#0100000000000000
(1791431467.621576) can0 020007FD#7ADC7FD47FFF0140
(1791431467.621960) can0 0200FD08#0100000000000000
(1791431467.622125) can0 020008FD#7EBC800A7FFF012C
(1791431467.670165) can1 0200FD01#0100000000000000
(1791431467.670439) can1 020001FD#7FFD803C7FFF0136
(1791431467.670819) can1 0200FD02#0100000000000000
(1791431467.670934) can1 020002FD#7FFE80687FFF0140
(1791431467.671390) can1 0200FD03#0100000000000000
(1791431467.671629) can1 020003FD#7FFF7FFC7FFF0154
(1791431467.671949) can1 0200FD04#0100000000000000
(1791431467.672189) can1 020004FD#7FFE7FD57FFF0140
(1791431467.672570) can1 0200FD05#0100000000000000
(1791431467.672571) can0 0200FD01#0100000000000000
(1791431467.672751) can0 020001FD#7FAE801F7FFF0136
(1791431467.672785) can1 020005FD#88E180217FFF015E
(1791431467.673155) can1 0200FD06#0100000000000000
(1791431467.673156) can0 0200FD02#0100000000000000
(1791431467.673443) can1 020006FD#7FFB80237FFF015E
(1791431467.673476) can0 020002FD#7FFD7FB57FFF014A
(1791431467.673764) can1 0200FD07#0100000000000000
(1791431467.673798) can0 0200FD03#0100000000000000
(1791431467.673947) can0 020003FD#7FFF80037FFF014A
(1791431467.673981) can1 020007FD#8001803E7FFF0140
(1791431467.674389) can1 0200FD08#0100000000000000
(1791431467.674390) can0 0200FD04#0100000000000000
(1791431467.674494) can1 020008FD#8290800B7FFF0136
(1791431467.674570) can0 020004FD#7FF87F687FFF012C
(1791431467.674957) can0 0200FD05#0100000000000000
(1791431467.675193) can0 020005FD#7E7D80037FFF0154
(1791431467.675577) can0 0200FD06#0100000000000000
(1791431467.675754) can0 020006FD#7FF87FE37FFF0154
(1791431467.676157) can0 0200FD07#0100000000000000
(1791431467.676390) can0 020007FD#7ADC7FE17FFF0140
(1791431467.676763) can0 0200FD08#0100000000000000
(1791431467.676916) can0 020008FD#7EBD800B7FFF012C
(1791431467.741090) can1 0200FD01#0100000000000000
(1791431467.741396) can1 020001FD#7FFE7FF27FFF0136
(1791431467.741730) can1 0200FD02#0100000000000000
(1791431467.741953) can1 020002FD#7FFE7FDF7FFF0140
(1791431467.742012) can0 0200FD01#0100000000000000
(1791431467.742197) can0 020001FD#7FAE7FC37FFF0136
(1791431467.742268) can1 0200FD03#0100000000000000
(1791431467.742494) can1 020003FD#7FFF80957FFF0154
(1791431467.742647) can0 0200FD02#0100000000000000
(1791431467.742868) can1 0200FD04#0100000000000000
(1791431467.742912) can0 020002FD#7FFD7FB27FFF014A
(1791431467.743123) can1 020004FD#7FFF800B7FFF0140
(1791431467.743209) can0 0200FD03#0100000000000000
(1791431467.743432) can0 020003FD#7FFF7F3B7FFF014A
(1791431467.743512) can1 0200FD05#0100000000000000
(1791431467.743622) can1 020005FD#88E180067FFF015E
(1791431467.743843) can0 0200FD04#0100000000000000
(1791431467.744022) can0 020004FD#7FF87FCE7FFF012C
(1791431467.744079) can1 0200FD06#0100000000000000
(1791431467.744394) can1 020006FD#7FFB80217FFF015E
(1791431467.744452) can0 0200FD05#0100000000000000
(1791431467.744630) can0 020005FD#7E7E800B7FFF0154
(1791431467.744728) can1 0200FD07#0100000000000000
(1791431467.744959) can1 020007FD#800280327FFF0140
(1791431467.745021) can0 0200FD06#0100000000000000
(1791431467.745277) can1 0200FD08#0100000000000000
(1791431467.745331) can0 020006FD#7FF87FC77FFF0154
(1791431467.745446) can1 020008FD#828F7FD27FFF0136
(1791431467.745641) can0 0200FD07#0100000000000000
(1791431467.745881) can0 020007FD#7ADC801E7FFF0140
(1791431467.746214) can0 0200FD08#0100000000000000
(1791431467.746389) can0 020008FD#7EBD7FF97FFF012C
(1791431467.839467) can1 0200FD01#0100000000000000
(1791431467.839637) can1 020001FD#7FFD80627FFF0136
(1791431467.840019) can1 0200FD02#0100000000000000
(1791431467.840262) can1 020002FD#7FFD7F577FFF0140
(1791431467.840522) can0 0200FD01#0100000000000000
(1791431467.840649) can1 0200FD03#0100000000000000
(1791431467.840719) can0 020001FD#7FAE7FEA7FFF0136
(1791431467.840895) can1 020003FD#7FFF801C7FFF0154
(1791431467.841089) can0 0200FD02#0100000000000000
(1791431467.841215) can1 0200FD04#0100000000000000
(1791431467.841393) can0 020002FD#7FFD7FD67FFF014A
(1791431467.841451) can1 020004FD#7FFF7FF07FFF0140
(1791431467.841738) can0 0200FD03#0100000000000000
(1791431467.841835) can1 0200FD05#0100000000000000
(1791431467.841901) can0 020003FD#7FFF7FEF7FFF014A
(1791431467.842018) can1 020005FD#88E17FFC7FFF015E
(1791431467.842297) can0 0200FD04#0100000000000000
(1791431467.842458) can1 0200FD06#0100000000000000
(1791431467.842500) can0 020004FD#7FF880847FFF012C
(1791431467.842640) can1 020006FD#7FFA80047FFF015E
(1791431467.842885) can0 0200FD05#0100000000000000
(1791431467.843032) can1 0200FD07#0100000000000000
(1791431467.843131) can0 020005FD#7E7D801E7FFF0154
(1791431467.843353) can1 020007FD#80017FEF7FFF0140
(1791431467.843520) can0 0200FD06#0100000000000000
(1791431467.843648) can1 0200FD08#0100000000000000
(1791431467.843733) can0 020006FD#7FF9800A7FFF0154
(1791431467.843789) can1 020008FD#82907FAD7FFF0136
(1791431467.844085) can0 0200FD07#0100000000000000
(1791431467.844396) can0 020007FD#7ADC7FFE7FFF0140
(1791431467.844737) can0 0200FD08#0100000000000000
(1791431467.844859) can0 020008FD#7EBD804A7FFF012C
(1791431467.890525) can1 0200FD01#0100000000000000
(1791431467.890737) can1 020001FD#7FFD80297FFF0136
(1791431467.891100) can1 0200FD02#0100000000000000
(1791431467.891402) can1 020002FD#7FFE80097FFF0140
(1791431467.891746) can1 0200FD03#0100000000000000
(1791431467.891852) can1 020003FD#800080CE7FFF0154
(1791431467.893847) can1 0200FD04#0100000000000000
(1791431467.894079) can1 020004FD#7FFF800D7FFF0140
(1791431467.894529) can1 0200FD05#0100000000000000
(1791431467.894635) can1 020005FD#88E180037FFF015E
(1791431467.895091) can1 0200FD06#0100000000000000
(1791431467.895400) can1 020006FD#7FFA80397FFF015E
(1791431467.895454) can0 0200FD01#0100000000000000
(1791431467.895633) can0 020001FD#7FAE7FA27FFF0136
(1791431467.895735) can1 0200FD07#0100000000000000
(1791431467.895959) can1 020007FD#80017FFD7FFF0140
(1791431467.896022) can0 0200FD02#0100000000000000
(1791431467.896207) can0 020002FD#7FFD7FBC7FFF014A
(1791431467.896279) can1 0200FD08#0100000000000000
(1791431467.896455) can1 020008FD#82907FFF7FFF0136
(1791431467.896655) can0 0200FD03#0100000000000000
(1791431467.896893) can0 020003FD#7FFF80167FFF014A
(1791431467.897212) can0 0200FD04#0100000000000000
(1791431467.897449) can0 020004FD#7FF87F6B7FFF012C
(1791431467.897831) can0 0200FD05#0100000000000000
(1791431467.898075) can0 020005FD#7E7D7FBA7FFF0154
(1791431467.898462) can0 0200FD06#0100000000000000
(1791431467.898584) can0 020006FD#7FF9802E7FFF0154
(1791431467.899037) can0 0200FD07#0100000000000000
(1791431467.899274) can0 020007FD#7ADC80187FFF0140
(1791431467.899651) can0 0200FD08#0100000000000000
(1791431467.899785) can0 020008FD#7EBD7FC97FFF012C
(1791431467.944715) can1 0200FD01#0100000000000000
(1791431467.944952) can1 020001FD#7FFD7F6C7FFF0136
(1791431467.945285) can1 0200FD02#0100000000000000
(1791431467.945499) can1 020002FD#7FFD7FE67FFF0140
(1791431467.945735) can0 0200FD01#0100000000000000
(1791431467.945888) can1 0200FD03#0100000000000000
(1791431467.945958) can0 020001FD#7FAE7FC87FFF0136
(1791431467.946079) can1 020003FD#7FFF80647FFF0154
(1791431467.946282) can0 0200FD02#0100000000000000
(1791431467.946503) can0 020002FD#7FFD7F8E7FFF014A
(1791431467.946536) can1 0200FD04#0100000000000000
(1791431467.946737) can1 020004FD#7FFF7FD57FFF0140
(1791431467.946896) can0 0200FD03#0100000000000000
(1791431467.947096) can1 0200FD05#0100000000000000
(1791431467.947139) can0 020003FD#7FFF805D7FFF014A
(1791431467.947403) can1 020005FD#88E280417FFF015E
(1791431467.947528) can0 0200FD04#0100000000000000
(1791431467.947713) can0 020004FD#7FF87FFB7FFF012C
(1791431467.947741) can1 0200FD06#0100000000000000
(1791431467.947962) can1 020006FD#7FFB7FE37FFF015E
(1791431467.948100) can0 0200FD05#0100000000000000
(1791431467.948288) can1 0200FD07#0100000000000000
(1791431467.948404) can0 020005FD#7E7D80117FFF0154
(1791431467.948502) can1 020007FD#80017FFA7FFF0140
(1791431467.948736) can0 0200FD06#0100000000000000
(1791431467.948874) can1 0200FD08#0100000000000000
(1791431467.948966) can0 020006FD#7FF87FF67FFF0154
(1791431467.949044) can1 020008FD#828F7FFE7FFF0136
(1791431467.949399) can0 0200FD07#0100000000000000
(1791431467.949497) can0 020007FD#7ADC80487FFF0140
(1791431467.949925) can0 0200FD08#0100000000000000
(1791431467.950092) can0 020008FD#7EBD7FCA7FFF012C
(1791431468.002253) can1 0200FD01#0100000000000000
(1791431468.002567) can1 020001FD#7FFD80117FFF0136
(1791431468.002875) can1 0200FD02#0100000000000000
(1791431468.003045) can0 0200FD01#0100000000000000
(1791431468.003128) can1 020002FD#7FFE7FED7FFF0140
(1791431468.003232) can0 020001FD#7FAE7FE37FFF0136
(1791431468.003468) can1 0200FD03#0100000000000000
(1791431468.003742) can1 020003FD#7FFF7F927FFF0154
(1791431468.003748) can0 0200FD02#0100000000000000
(1791431468.003974) can0 020002FD#7FFD803C7FFF014A
(1791431468.004040) can1 0200FD04#0100000000000000
(1791431468.004285) can0 0200FD03#0100000000000000
(1791431468.004342) can1 020004FD#7FFF80707FFF0140
(1791431468.004498) can0 020003FD#7FFF7F597FFF014A
(1791431468.004660) can1 0200FD05#0100000000000000
(1791431468.004878) can0 0200FD04#0100000000000000
(1791431468.004911) can1 020005FD#88E17FE27FFF015E
(1791431468.005136) can0 020004FD#7FF87F837FFF012C
(1791431468.005213) can1 0200FD06#0100000000000000
(1791431468.005444) can1 020006FD#7FFA7FB47FFF015E
(1791431468.005525) can0 0200FD05#0100000000000000
(1791431468.005636) can0 020005FD#7E7D7FF87FFF0154
(1791431468.005849) can1 0200FD07#0100000000000000
(1791431468.006088) can0 0200FD06#0100000000000000
(1791431468.006128) can1 020007FD#800280057FFF0140
(1791431468.006273) can0 020006FD#7FF87FFA7FFF0154
(1791431468.006463) can1 0200FD08#0100000000000000
(1791431468.006604) can1 020008FD#828F7FE67FFF0136
(1791431468.006745) can0 0200FD07#0100000000000000
(1791431468.006956) can0 020007FD#7ADC80207FFF0140
(1791431468.007279) can0 0200FD08#0100000000000000
(1791431468.007414) can0 020008FD#7EBC7FD77FFF012C
(1791431468.058920) can1 0200FD01#0100000000000000
(1791431468.059161) can1 020001FD#7FFD7FCD7FFF0136
(1791431468.059527) can1 0200FD02#0100000000000000
(1791431468.059585) can0 0200FD01#0100000000000000
(1791431468.059743) can1 020002FD#7FFE7FFA7FFF0140
(1791431468.059779) can0 020001FD#7FAE7F957FFF0136
(1791431468.060098) can1 0200FD03#0100000000000000
(1791431468.060158) can0 0200FD02#0100000000000000
(1791431468.060401) can1 020003FD#7FFF806E7FFF0154
(1791431468.060458) can0 020002FD#7FFD7FC67FFF014A
(1791431468.060745) can1 0200FD04#0100000000000000
(1791431468.060781) can0 0200FD03#0100000000000000
(1791431468.060965) can0 020003FD#7FFF80427FFF014A
(1791431468.060999) can1 020004FD#7FFF80A67FFF0140
(1791431468.061292) can1 0200FD05#0100000000000000
(1791431468.061401) can0 0200FD04#0100000000000000
(1791431468.061502) can1 020005FD#88E2801E7FFF015E
(1791431468.061585) can0 020004FD#7FF880C47FFF012C
(1791431468.061895) can1 0200FD06#0100000000000000
(1791431468.061973) can0 0200FD05#0100000000000000
(1791431468.062139) can1 020006FD#7FFA7FE87FFF015E
(1791431468.062222) can0 020005FD#7E7D801B7FFF0154
(1791431468.062534) can1 0200FD07#0100000000000000
(1791431468.062595) can0 0200FD06#0100000000000000
(1791431468.062711) can1 020007FD#80017FE37FFF0140
(1791431468.062770) can0 020006FD#7FF97FF17FFF0154
(1791431468.063102) can1 0200FD08#0100000000000000
(1791431468.063166) can0 0200FD07#0100000000000000
(1791431468.063266) can1 020008FD#829080097FFF0136
(1791431468.063455) can0 020007FD#7ADC80077FFF0140
(1791431468.063823) can0 0200FD08#0100000000000000
(1791431468.063918) can0 020008FD#7EBD80277FFF012C
(1791431468.108474) can1 0200FD01#0100000000000000
(1791431468.108718) can1 020001FD#7FFD7F967FFF0136
(1791431468.109040) can1 0200FD02#0100000000000000
(1791431468.109109) can0 0200FD01#0100000000000000
(1791431468.109285) can1 020002FD#7FFE7FF77FFF0140
(1791431468.109408) can0 020001FD#7FAE804B7FFF0136
(1791431468.109658) can1 0200FD03#0100000000000000
(1791431468.109756) can0 0200FD02#0100000000000000
(1791431468.109900) can1 020003FD#7FFF7FE17FFF0154
(1791431468.109964) can0 020002FD#7FFD7FDB7FFF014A
(1791431468.110233) can1 0200FD04#0100000000000000
(1791431468.110293) can0 0200FD03#0100000000000000
(1791431468.110445) can1 020004FD#7FFF80667FFF0140
(1791431468.110503) can0 020003FD#7FFF7FEF7FFF014A
(1791431468.110847) can1 0200FD05#0100000000000000
(1791431468.110905) can0 0200FD04#0100000000000000
(1791431468.111030) can1 020005FD#88E17FF87FFF015E
(1791431468.111143) can0 020004FD#7FF87FEA7FFF012C
(1791431468.111540) can0 0200FD05#0100000000000000
(1791431468.111541) can1 0200FD06#0100000000000000
(1791431468.111655) can1 020006FD#7FFA7FDA7FFF015E
(1791431468.111744) can0 020005FD#7E7D800C7FFF0154
(1791431468.112108) can0 0200FD06#0100000000000000
(1791431468.112145) can1 0200FD07#0100000000000000
(1791431468.112410) can0 020006FD#7FF880077FFF0154
(1791431468.112443) can1 020007FD#800180067FFF0140
(1791431468.112727) can1 0200FD08#0100000000000000
(1791431468.112749) can0 0200FD07#0100000000000000
(1791431468.112886) can1 020008FD#82907FE47FFF0136
(1791431468.112960) can0 020007FD#7ADC7FE37FFF0140
(1791431468.113290) can0 0200FD08#0100000000000000
(1791431468.113430) can0 020008FD#7EBD7FFB7FFF012C
(1791431468.216398) can1 0200FD01#0100000000000000
(1791431468.216643) can1 020001FD#7FFD7F617FFF0136
(1791431468.216964) can1 0200FD02#0100000000000000
(1791431468.217221) can1 020002FD#7FFD805C7FFF0140
(1791431468.217462) can0 0200FD01#0100000000000000
(1791431468.217597) can0 020001FD#7FAE7FC37FFF0136
(1791431468.217600) can1 0200FD03#0100000000000000
(1791431468.217779) can1 020003FD#7FFF801D7FFF0154
(1791431468.218042) can0 0200FD02#0100000000000000
(1791431468.218167) can1 0200FD04#0100000000000000
(1791431468.218352) can0 020002FD#7FFD7FBE7FFF014A
(1791431468.218460) can1 020004FD#7FFF80417FFF0140
(1791431468.218661) can0 0200FD03#0100000000000000
(1791431468.218785) can1 0200FD05#0100000000000000
(1791431468.218905) can0 020003FD#7FFF803F7FFF014A
(1791431468.218969) can1 020005FD#88E17FEE7FFF015E
(1791431468.219230) can0 0200FD04#0100000000000000
(1791431468.219405) can1 0200FD06#0100000000000000
(1791431468.219460) can0 020004FD#7FF880597FFF012C
(1791431468.219572) can1 020006FD#7FFB80077FFF015E
(1791431468.219854) can0 0200FD05#0100000000000000
(1791431468.219972) can1 0200FD07#0100000000000000
(1791431468.220027) can0 020005FD#7E7D80337FFF0154
(1791431468.220152) can1 020007FD#800180197FFF0140
(1791431468.220474) can0 0200FD06#0100000000000000
(1791431468.220600) can1 0200FD08#0100000000000000
(1791431468.220651) can0 020006FD#7FF87FF47FFF0154
(1791431468.220700) can1 020008FD#82907FFB7FFF0136
(1791431468.221106) can0 0200FD07#0100000000000000
(1791431468.221284) can0 020007FD#7ADC80497FFF0140
(1791431468.221726) can0 0200FD08#0100000000000000
(1791431468.221878) can0 020008FD#7EBD80157FFF012C
(1791431468.313601) can1 0200FD01#0100000000000000
(1791431468.313778) can1 020001FD#7FFD7FC97FFF0136
(1791431468.314179) can1 0200FD02#0100000000000000
(1791431468.314467) can1 020002FD#7FFE80A17FFF0140
(1791431468.314790) can1 0200FD03#0100000000000000
(1791431468.314970) can1 020003FD#80007FE37FFF0154
(1791431468.315004) can0 0200FD01#0100000000000000
(1791431468.315242) can0 020001FD#7FAE805E7FFF0136
(1791431468.315409) can1 0200FD04#0100000000000000
(1791431468.315594) can1 020004FD#7FFE7F917FFF0140
(1791431468.315631) can0 0200FD02#0100000000000000
(1791431468.315791) can0 020002FD#7FFE80627FFF014A
(1791431468.315985) can1 0200FD05#0100000000000000
(1791431468.316175) can0 0200FD03#0100000000000000
(1791431468.316234) can1 020005FD#88E17FF17FFF015E
(1791431468.316470) can0 020003FD#7FFF80077FFF014A
(1791431468.316600) can1 0200FD06#0100000000000000
(1791431468.316781) can1 020006FD#7FFA7FF47FFF015E
(1791431468.316816) can0 0200FD04#0100000000000000
(1791431468.316978) can0 020004FD#7FF8800E7FFF012C
(1791431468.317171) can1 0200FD07#0100000000000000
(1791431468.317413) can0 0200FD05#0100000000000000
(1791431468.317471) can1 020007FD#80017FAC7FFF0140
(1791431468.317598) can0 020005FD#7E7E803B7FFF0154
(1791431468.317792) can1 0200FD08#0100000000000000
(1791431468.317940) can1 020008FD#8290802C7FFF0136
(1791431468.317983) can0 0200FD06#0100000000000000
(1791431468.318222) can0 020006FD#7FF87FCD7FFF0154
(1791431468.318604) can0 0200FD07#0100000000000000
(1791431468.318774) can0 020007FD#7ADC80237FFF0140
(1791431468.319166) can0 0200FD08#0100000000000000
(1791431468.319355) can0 020008FD#7EBC7FCD7FFF012C
(1791431468.420542) can1 0200FD01#0100000000000000
(1791431468.420764) can1 020001FD#7FFD7FC07FFF0136
(1791431468.421108) can1 0200FD02#0100000000000000
(1791431468.421426) can1 020002FD#7FFD7F9F7FFF0140
(1791431468.421758) can1 0200FD03#0100000000000000
(1791431468.421980) can1 020003FD#7FFF7FA67FFF0154
(1791431468.422302) can1 0200FD04#0100000000000000
(1791431468.422524) can1 020004FD#7FFF7FDB7FFF0140
(1791431468.422607) can0 0200FD01#0100000000000000
(1791431468.422757) can0 020001FD#7FAE80897FFF0136
(1791431468.422917) can1 0200FD05#0100000000000000
(1791431468.423155) can1 020005FD#88E180217FFF015E
(1791431468.423534) can1 0200FD06#0100000000000000
(1791431468.423763) can1 020006FD#7FFB7FFB7FFF015E
(1791431468.424159) can1 0200FD07#0100000000000000
(1791431468.424355) can1 020007FD#8001800D7FFF0140
(1791431468.424600) can0 0200FD02#0100000000000000
(1791431468.424755) can1 0200FD08#0100000000000000
(1791431468.424791) can0 020002FD#7FFD806F7FFF014A
(1791431468.424885) can1 020008FD#82907FB97FFF0136
(1791431468.425204) can0 0200FD03#0100000000000000
(1791431468.425411) can0 020003FD#7FFF7FDB7FFF014A
(1791431468.425798) can0 0200FD04#0100000000000000
(1791431468.426041) can0 020004FD#7FF880897FFF012C
(1791431468.426422) can0 0200FD05#0100000000000000
(1791431468.426603) can0 020005FD#7E7D7FF47FFF0154
(1791431468.426988) can0 0200FD06#0100000000000000
(1791431468.427228) can0 020006FD#7FF980327FFF0154
(1791431468.427601) can0 0200FD07#0100000000000000
(1791431468.427781) can0 020007FD#7ADC7FDF7FFF0140
(1791431468.428177) can0 0200FD08#0100000000000000
(1791431468.428361) can0 020008FD#7EBC7FFF7FFF012C
(1791431468.475255) can1 0200FD01#0100000000000000
(1791431468.475479) can1 020001FD#7FFD80757FFF0136
(1791431468.475852) can1 0200FD02#0100000000000000
(1791431468.476103) can1 020002FD#7FFD7F9E7FFF0140
(1791431468.476408) can0 0200FD01#0100000000000000
(1791431468.476485) can1 0200FD03#0100000000000000
(1791431468.476609) can0 020001FD#7FAF7FBB7FFF0136
(1791431468.476672) can1 020003FD#7FFF80F67FFF0154
(1791431468.476996) can0 0200FD02#0100000000000000
(1791431468.477055) can1 0200FD04#0100000000000000
(1791431468.477245) can0 020002FD#7FFD7FE77FFF014A
(1791431468.477378) can1 020004FD#7FFF807E7FFF0140
(1791431468.477605) can0 0200FD03#0100000000000000
(1791431468.477671) can1 0200FD05#0100000000000000
(1791431468.477783) can0 020003FD#7FFF7FD07FFF014A
(1791431468.477904) can1 020005FD#88E17FFB7FFF015E
(1791431468.478199) can0 0200FD04#0100000000000000
(1791431468.478235) can1 0200FD06#0100000000000000
(1791431468.478471) can1 020006FD#7FFA80057FFF015E
(1791431468.478506) can0 020004FD#7FF880357FFF012C
(1791431468.478789) can0 0200FD05#0100000000000000
(1791431468.478862) can1 0200FD07#0100000000000000
(1791431468.479032) can0 020005FD#7E7D801E7FFF0154
(1791431468.479066) can1 020007FD#8002803A7FFF0140
(1791431468.479428) can0 0200FD06#0100000000000000
(1791431468.479486) can1 0200FD08#0100000000000000
(1791431468.479606) can1 020008FD#828F7FD67FFF0136
(1791431468.479637) can0 020006FD#7FF980137FFF0154
(1791431468.479995) can0 0200FD07#0100000000000000
(1791431468.480232) can0 020007FD#7ADC7FF27FFF0140
(1791431468.480611) can0 0200FD08#0100000000000000
(1791431468.480730) can0 020008FD#7EBC7FEF7FFF012C
(1791431468.582946) can1 0200FD01#0100000000000000
(1791431468.583183) can1 020001FD#7FFE80AC7FFF0136
(1791431468.583611) can1 0200FD02#0100000000000000
(1791431468.583775) can1 020002FD#7FFE7FE77FFF0140
(1791431468.584182) can1 0200FD03#0100000000000000
(1791431468.584419) can0 0200FD01#0100000000000000
(1791431468.584480) can1 020003FD#7FFF7F2F7FFF0154
(1791431468.584594) can0 020001FD#7FAE7FE17FFF0136
(1791431468.584800) can1 0200FD04#0100000000000000
(1791431468.584983) can0 0200FD02#0100000000000000
(1791431468.585049) can1 020004FD#7FFF7FC67FFF0140
(1791431468.585237) can0 020002FD#7FFD80637FFF014A
(1791431468.585421) can1 0200FD05#0100000000000000
(1791431468.585614) can0 0200FD03#0100000000000000
(1791431468.585654) can1 020005FD#88E17FD37FFF015E
(1791431468.585791) can0 020003FD#7FFF7FF77FFF014A
(1791431468.586002) can1 0200FD06#0100000000000000
(1791431468.586173) can1 020006FD#7FFA80197FFF015E
(1791431468.586208) can0 0200FD04#0100000000000000
(1791431468.586486) can0 020004FD#7FF87FFD7FFF012C
(1791431468.586608) can1 0200FD07#0100000000000000
(1791431468.586792) can1 020007FD#800180167FFF0140
(1791431468.586826) can0 0200FD05#0100000000000000
(1791431468.587046) can0 020005FD#7E7D80137FFF0154
(1791431468.587172) can1 0200FD08#0100000000000000
(1791431468.587366) can1 020008FD#8290803B7FFF0136
(1791431468.587410) can0 0200FD06#0100000000000000
(1791431468.587588) can0 020006FD#7FF97FF07FFF0154
(1791431468.587961) can0 0200FD07#0100000000000000
(1791431468.588200) can0 020007FD#7ADC80057FFF0140
(1791431468.588608) can0 0200FD08#0100000000000000
(1791431468.588678) can0 020008FD#7EBC7FEC7FFF012C
(1791431468.675132) can1 0200FD01#0100000000000000
(1791431468.675426) can1 020001FD#7FFD80257FFF0136
(1791431468.675754) can1 0200FD02#0100000000000000
(1791431468.675984) can1 020002FD#7FFD800A7FFF0140
(1791431468.676306) can1 0200FD03#0100000000000000
(1791431468.676537) can1 020003FD#7FFF80167FFF0154
(1791431468.676923) can1 0200FD04#0100000000000000
(1791431468.677106) can1 020004FD#7FFF7FD17FFF0140
(1791431468.677489) can0 0200FD01#0100000000000000
(1791431468.677550) can1 0200FD05#0100000000000000
(1791431468.677668) can1 020005FD#88E17FFD7FFF015E
(1791431468.677704) can0 020001FD#7FAF805B7FFF0136
(1791431468.678068) can0 0200FD02#0100000000000000
(1791431468.678119) can1 0200FD06#0100000000000000
(1791431468.678377) can0 020002FD#7FFD801F7FFF014A
(1791431468.678420) can1 020006FD#7FFA80037FFF015E
(1791431468.678682) can0 0200FD03#0100000000000000
(1791431468.678770) can1 0200FD07#0100000000000000
(1791431468.678919) can0 020003FD#7FFF7F6B7FFF014A
(1791431468.678989) can1 020007FD#80017FEC7FFF0140
(1791431468.679249) can0 0200FD04#0100000000000000
(1791431468.679318) can1 0200FD08#0100000000000000
(1791431468.679486) can0 020004FD#7FF87FAE7FFF012C
(1791431468.679495) can1 020008FD#828F7FC47FFF0136
(1791431468.679866) can0 0200FD05#0100000000000000
(1791431468.680051) can0 020005FD#7E7D7FC07FFF0154
(1791431468.680487) can0 0200FD06#0100000000000000
(1791431468.680664) can0 020006FD#7FF9801F7FFF0154
(1791431468.681044) can0 0200FD07#0100000000000000
(1791431468.681281) can0 020007FD#7ADC7FEC7FFF0140
(1791431468.681614) can0 0200FD08#0100000000000000
(1791431468.681788) can0 020008FD#7EBC7FC77FFF012C
(1791431468.770489) can1 0200FD01#0100000000000000
(1791431468.770669) can1 020001FD#7FFD80CF7FFF0136
(1791431468.770810) can0 0200FD01#0100000000000000
(1791431468.771058) can0 020001FD#7FAE805F7FFF0136
(1791431468.771092) can1 0200FD02#0100000000000000
(1791431468.771377) can1 020002FD#7FFE806D7FFF0140
(1791431468.771416) can0 0200FD02#0100000000000000
(1791431468.771600) can0 020002FD#7FFD7FD47FFF014A
(1791431468.771687) can1 0200FD03#0100000000000000
(1791431468.771922) can1 020003FD#7FFF7E937FFF0154
(1791431468.771974) can0 0200FD03#0100000000000000
(1791431468.772241) can0 020003FD#7FFF80127FFF014A
(1791431468.772277) can1 0200FD04#0100000000000000
(1791431468.772486) can1 020004FD#7FFF80267FFF0140
(1791431468.772621) can0 0200FD04#0100000000000000
(1791431468.772800) can0 020004FD#7FF880A57FFF012C
(1791431468.772848) can1 0200FD05#0100000000000000
(1791431468.773097) can1 020005FD#88E17FFE7FFF015E
(1791431468.773194) can0 0200FD05#0100000000000000
(1791431468.773434) can1 0200FD06#0100000000000000
(1791431468.773475) can0 020005FD#7E7D7FF97FFF0154
(1791431468.773670) can1 020006FD#7FFA7FE37FFF015E
(1791431468.773814) can0 0200FD06#0100000000000000
(1791431468.773995) can0 020006FD#7FF880287FFF0154
(1791431468.774030) can1 0200FD07#0100000000000000
(1791431468.774177) can1 020007FD#80027FF67FFF0140
(1791431468.774431) can0 0200FD07#0100000000000000
(1791431468.774618) can0 020007FD#7ADC7FF77FFF0140
(1791431468.774652) can1 0200FD08#0100000000000000
(1791431468.774771) can1 020008FD#82907FED7FFF0136
(1791431468.775041) can0 0200FD08#0100000000000000
(1791431468.775145) can0 020008FD#7EBD80177FFF012C
(1791431468.821953) can1 0200FD01#0100000000000000
(1791431468.822199) can1 020001FD#7FFD7FCC7FFF0136
(1791431468.822557) can1 0200FD02#0100000000000000
(1791431468.822773) can1 020002FD#7FFE80387FFF0140
(1791431468.823123) can1 0200FD03#0100000000000000
(1791431468.823437) can0 0200FD01#0100000000000000
(1791431468.823476) can1 020003FD#7FFF804E7FFF0154
(1791431468.823618) can0 020001FD#7FAE805F7FFF0136
(1791431468.823778) can1 0200FD04#0100000000000000
(1791431468.823997) can1 020004FD#7FFE7FA17FFF0140
(1791431468.824031) can0 0200FD02#0100000000000000
(1791431468.824246) can0 020002FD#7FFD804C7FFF014A
(1791431468.824318) can1 0200FD05#0100000000000000
(1791431468.824532) can1 020005FD#88E1800C7FFF015E
(1791431468.824616) can0 0200FD03#0100000000000000
(1791431468.824794) can0 020003FD#7FFF7F207FFF014A
(1791431468.824935) can1 0200FD06#0100000000000000
(1791431468.825187) can1 020006FD#7FFB80157FFF015E
(1791431468.825191) can0 0200FD04#0100000000000000
(1791431468.825475) can0 020004FD#7FF87F937FFF012C
(1791431468.825560) can1 0200FD07#0100000000000000
(1791431468.825745) can1 020007FD#80017FFB7FFF0140
(1791431468.825814) can0 0200FD05#0100000000000000
(1791431468.825996) can0 020005FD#7E7D7FFD7FFF0154
(1791431468.826133) can1 0200FD08#0100000000000000
(1791431468.826273) can1 020008FD#82907FF07FFF0136
(1791431468.826438) can0 0200FD06#0100000000000000
(1791431468.826620) can0 020006FD#7FF87FF07FFF0154
(1791431468.827007) can0 0200FD07#0100000000000000
(1791431468.827248) can0 020007FD#7ADC7FD87FFF0140
(1791431468.827623) can0 0200FD08#0100000000000000
(1791431468.827718) can0 020008FD#7EBD80257FFF012C
(1791431468.877941) can1 0200FD01#0100000000000000
(1791431468.878094) can1 020001FD#7FFD7FD97FFF0136
(1791431468.878754) can1 0200FD02#0100000000000000
(1791431468.878995) can1 020002FD#7FFD7FBD7FFF0140
(1791431468.879310) can1 0200FD03#0100000000000000
(1791431468.879343) can0 0200FD01#0100000000000000
(1791431468.879536) can0 020001FD#7FAE7FA17FFF0136
(1791431468.879570) can1 020003FD#7FFF80077FFF0154
(1791431468.879928) can1 0200FD04#0100000000000000
(1791431468.879965) can0 0200FD02#0100000000000000
(1791431468.880127) can1 020004FD#7FFF80B67FFF0140
(1791431468.880189) can0 020002FD#7FFD803E7FFF014A
(1791431468.880571) can1 0200FD05#0100000000000000
(1791431468.880572) can0 0200FD03#0100000000000000
(1791431468.880753) can0 020003FD#7FFF803E7FFF014A
(1791431468.880775) can1 020005FD#88E17FDB7FFF015E
(1791431468.881144) can1 0200FD06#0100000000000000
(1791431468.881145) can0 0200FD04#0100000000000000
(1791431468.881446) can0 020004FD#7FF87F9B7FFF012C
(1791431468.881475) can1 020006FD#7FFA7FEC7FFF015E
(1791431468.881783) can0 0200FD05#0100000000000000
(1791431468.881785) can1 0200FD07#0100000000000000
(1791431468.882003) can0 020005FD#7E7E801E7FFF0154
(1791431468.882009) can1 020007FD#800180067FFF0140
(1791431468.882326) can0 0200FD06#0100000000000000
(1791431468.882328) can1 0200FD08#0100000000000000
(1791431468.882473) can1 020008FD#829080047FFF0136
(1791431468.882542) can0 020006FD#7FF880387FFF0154
(1791431468.882939) can0 0200FD07#0100000000000000
(1791431468.883117) can0 020007FD#7ADC802A7FFF0140
(1791431468.883564) can0 0200FD08#0100000000000000
(1791431468.883656) can0 020008FD#7EBD7FFF7FFF012C
(1791431468.929625) can1 0200FD01#0100000000000000
(1791431468.929803) can1 020001FD#7FFD7F387FFF0136
(1791431468.930190) can1 0200FD02#0100000000000000
(1791431468.930482) can1 020002FD#7FFD80107FFF0140
(1791431468.930817) can1 0200FD03#0100000000000000
(1791431468.930941) can0 0200FD01#0100000000000000
(1791431468.930998) can1 020003FD#7FFF80197FFF0154
(1791431468.931119) can0 020001FD#7FAE7FE87FFF0136
(1791431468.931428) can1 0200FD04#0100000000000000
(1791431468.931560) can0 0200FD02#0100000000000000
(1791431468.931608) can1 020004FD#7FFF7F8B7FFF0140
(1791431468.931781) can0 020002FD#7FFD7FFA7FFF014A
(1791431468.931999) can1 0200FD05#0100000000000000
(1791431468.932132) can0 0200FD03#0100000000000000
(1791431468.932182) can1 020005FD#88E17FFD7FFF015E
(1791431468.932449) can0 020003FD#7FFF80A17FFF014A
(1791431468.932632) can1 0200FD06#0100000000000000
(1791431468.932781) can0 0200FD04#0100000000000000
(1791431468.932819) can1 020006FD#7FFB801A7FFF015E
(1791431468.932999) can0 020004FD#7FF87FD17FFF012C
(1791431468.933193) can1 0200FD07#0100000000000000
(1791431468.933324) can0 0200FD05#0100000000000000
(1791431468.933481) can1 020007FD#8001801E7FFF0140
(1791431468.933541) can0 020005FD#7E7D7FD27FFF0154
(1791431468.933817) can1 0200FD08#0100000000000000
(1791431468.933931) can0 0200FD06#0100000000000000
(1791431468.933966) can1 020008FD#829080377FFF0136
(1791431468.934170) can0 020006FD#7FF87FD77FFF0154
(1791431468.934567) can0 0200FD07#0100000000000000
(1791431468.934786) can0 020007FD#7ADC7FFB7FFF0140
(1791431468.935193) can0 0200FD08#0100000000000000
(1791431468.935300) can0 020008FD#7EBD80077FFF012C
(1791431469.022204) can1 0200FD01#0100000000000000
(1791431469.022497) can1 020001FD#7FFE806C7FFF0136
(1791431469.022876) can1 0200FD02#0100000000000000
(1791431469.023056) can1 020002FD#7FFE80067FFF0140
(1791431469.023499) can1 0200FD03#0100000000000000
(1791431469.023677) can1 020003FD#7FFF7F967FFF0154
(1791431469.023712) can0 0200FD01#0100000000000000
(1791431469.023943) can0 020001FD#7FAF804A7FFF0136
(1791431469.024066) can1 0200FD04#0100000000000000
(1791431469.024249) can1 020004FD#7FFF802A7FFF0140
(1791431469.024300) can0 0200FD02#0100000000000000
(1791431469.024490) can0 020002FD#7FFD7FD37FFF014A
(1791431469.024698) can1 0200FD05#0100000000000000
(1791431469.024872) can1 020005FD#88E17FCC7FFF015E
(1791431469.024906) can0 0200FD03#0100000000000000
(1791431469.025131) can0 020003FD#7FFF7FFF7FFF014A
(1791431469.025262) can1 0200FD06#0100000000000000
(1791431469.025497) can1 020006FD#7FFB80217FFF015E
(1791431469.025530) can0 0200FD04#0100000000000000
(1791431469.025678) can0 020004FD#7FF87F7C7FFF012C
(1791431469.025888) can1 0200FD07#0100000000000000
(1791431469.026071) can1 020007FD#8001802A7FFF0140
(1791431469.026074) can0 0200FD05#0100000000000000
(1791431469.026322) can0 020005FD#7E7D800A7FFF0154
(1791431469.026508) can1 0200FD08#0100000000000000
(1791431469.026651) can1 020008FD#82907FEE7FFF0136
(1791431469.026702) can0 0200FD06#0100000000000000
(1791431469.026942) can0 020006FD#7FF980167FFF0154
(1791431469.027253) can0 0200FD07#0100000000000000
(1791431469.027501) can0 020007FD#7ADC80047FFF0140
(1791431469.027876) can0 0200FD08#0100000000000000
(1791431469.028010) can0 020008FD#7EBC7FDC7FFF012C
(1791431469.125513) can1 0200FD01#0100000000000000
(1791431469.125615) can1 020001FD#7FFD7FB37FFF0136
(1791431469.126069) can1 0200FD02#0100000000000000
(1791431469.126307) can1 020002FD#7FFE80037FFF0140
(1791431469.126710) can1 0200FD03#0100000000000000
(1791431469.126835) can0 0200FD01#0100000000000000
(1791431469.126889) can1 020003FD#7FFF80FE7FFF0154
(1791431469.127079) can0 020001FD#7FAE7FDB7FFF0136
(1791431469.127268) can1 0200FD04#0100000000000000
(1791431469.127444) can0 0200FD02#0100000000000000
(1791431469.127484) can1 020004FD#7FFF7F8B7FFF0140
(1791431469.127627) can0 020002FD#7FFD7F8E7FFF014A
(1791431469.127890) can1 0200FD05#0100000000000000
(1791431469.128009) can0 0200FD03#0100000000000000
(1791431469.128069) can1 020005FD#88E17FF27FFF015E
(1791431469.128249) can0 020003FD#7FFF7FFC7FFF014A
(1791431469.128508) can1 0200FD06#0100000000000000
(1791431469.128634) can0 0200FD04#0100000000000000
(1791431469.128683) can1 020006FD#7FFB80267FFF015E
(1791431469.128807) can0 020004FD#7FF87FDB7FFF012C
(1791431469.129081) can1 0200FD07#0100000000000000
(1791431469.129202) can0 0200FD05#0100000000000000
(1791431469.129394) can1 020007FD#800280137FFF0140
(1791431469.129498) can0 020005FD#7E7D7FFB7FFF0154
(1791431469.129702) can1 0200FD08#0100000000000000
(1791431469.129821) can0 0200FD06#0100000000000000
(1791431469.129888) can1 020008FD#828F802E7FFF0136
(1791431469.130015) can0 020006FD#7FF980267FFF0154
(1791431469.130440) can0 0200FD07#0100000000000000
(1791431469.130614) can0 020007FD#7ADC7FC27FFF0140
(1791431469.130984) can0 0200FD08#0100000000000000
(1791431469.131146) can0 020008FD#7EBD7FE47FFF012C
(1791431469.234957) can1 0200FD01#0100000000000000
(1791431469.235200) can1 020001FD#7FFD7F5F7FFF0136
(1791431469.235582) can1 0200FD02#0100000000000000
(1791431469.235706) can0 0200FD01#0100000000000000
(1791431469.235790) can1 020002FD#7FFE807D7FFF0140
(1791431469.235957) can0 020001FD#7FAE80627FFF0136
(1791431469.236155) can1 0200FD03#0100000000000000
(1791431469.236275) can0 0200FD02#0100000000000000
(1791431469.236455) can1 020003FD#7FFF80257FFF0154
(1791431469.236491) can0 020002FD#7FFD7F547FFF014A
(1791431469.236789) can1 0200FD04#0100000000000000
(1791431469.236861) can0 0200FD03#0100000000000000
(1791431469.237014) can1 020004FD#7FFF808D7FFF0140
(1791431469.237096) can0 020003FD#7FFF80887FFF014A
(1791431469.237343) can1 0200FD05#0100000000000000
(1791431469.237448) can0 0200FD04#0100000000000000
(1791431469.237546) can1 020005FD#88E180157FFF015E
(1791431469.237618) can0 020004FD#7FF87F787FFF012C
(1791431469.237956) can1 0200FD06#0100000000000000
(1791431469.238032) can0 0200FD05#0100000000000000
(1791431469.238134) can1 020006FD#7FFB801E7FFF015E
(1791431469.238277) can0 020005FD#7E7D7FD77FFF0154
(1791431469.238580) can1 0200FD07#0100000000000000
(1791431469.238638) can0 0200FD06#0100000000000000
(1791431469.238791) can1 020007FD#8002803D7FFF0140
(1791431469.238826) can0 020006FD#7FF87FFB7FFF0154
(1791431469.239147) can1 0200FD08#0100000000000000
(1791431469.239206) can0 0200FD07#0100000000000000
(1791431469.239399) can1 020008FD#82907FE67FFF0136
(1791431469.239509) can0 020007FD#7ADC7FDE7FFF0140
(1791431469.239896) can0 0200FD08#0100000000000000
(1791431469.239976) can0 020008FD#7EBD80037FFF012C
(1791431469.324976) can1 0200FD01#0100000000000000
(1791431469.325214) can1 020001FD#7FFD7FF77FFF0136
(1791431469.325579) can1 0200FD02#0100000000000000
(1791431469.325793) can1 020002FD#7FFD7F8A7FFF0140
(1791431469.326145) can1 0200FD03#0100000000000000
(1791431469.326242) can0 0200FD01#0100000000000000
(1791431469.326456) can1 020003FD#7FFF7F9B7FFF0154
(1791431469.326561) can0 020001FD#7FAE80067FFF0136
(1791431469.326793) can1 0200FD04#0100000000000000
(1791431469.326887) can0 0200FD02#0100000000000000
(1791431469.327014) can1 020004FD#7FFF7F097FFF0140
(1791431469.327122) can0 020002FD#7FFD7FC37FFF014A
(1791431469.327339) can1 0200FD05#0100000000000000
(1791431469.327515) can0 0200FD03#0100000000000000
(1791431469.327551) can1 020005FD#88E180317FFF015E
(1791431469.327692) can0 020003FD#7FFF7FF57FFF014A
(1791431469.327956) can1 0200FD06#0100000000000000
(1791431469.328091) can0 0200FD04#0100000000000000
(1791431469.328134) can1 020006FD#7FFA7FEC7FFF015E
(1791431469.328411) can0 020004FD#7FF880977FFF012C
(1791431469.328585) can1 0200FD07#0100000000000000
(1791431469.328712) can0 0200FD05#0100000000000000
(1791431469.328793) can1 020007FD#800180137FFF0140
(1791431469.328955) can0 020005FD#7E7D7FCA7FFF0154
(1791431469.329155) can1 0200FD08#0100000000000000
(1791431469.329280) can0 0200FD06#0100000000000000
(1791431469.329396) can1 020008FD#82907FD77FFF0136
(1791431469.329511) can0 020006FD#7FF87FF87FFF0154
(1791431469.329889) can0 0200FD07#0100000000000000
(1791431469.330134) can0 020007FD#7ADC800D7FFF0140
(1791431469.330581) can0 0200FD08#0100000000000000
(1791431469.330652) can0 020008FD#7EBD7FBE7FFF012C
(1791431469.410977) can1 0200FD01#0100000000000000
(1791431469.411159) can1 020001FD#7FFD804D7FFF0136
(1791431469.411579) can1 0200FD02#0100000000000000
(1791431469.411749) can1 020002FD#7FFE800A7FFF0140
(1791431469.412074) can0 0200FD01#0100000000000000
(1791431469.412156) can1 0200FD03#0100000000000000
(1791431469.412263) can0 020001FD#7FAE80117FFF0136
(1791431469.412397) can1 020003FD#800081297FFF0154
(1791431469.412647) can0 0200FD02#0100000000000000
(1791431469.412810) can1 0200FD04#0100000000000000
(1791431469.412839) can0 020002FD#7FFD80437FFF014A
(1791431469.413018) can1 020004FD#7FFF7FE77FFF0140
(1791431469.413216) can0 0200FD03#0100000000000000
(1791431469.413349) can1 0200FD05#0100000000000000
(1791431469.413502) can0 020003FD#7FFF81127FFF014A
(1791431469.413557) can1 020005FD#88E17FFC7FFF015E
(1791431469.413838) can0 0200FD04#0100000000000000
(1791431469.413961) can1 0200FD06#0100000000000000
(1791431469.414081) can0 020004FD#7FF880737FFF012C
(1791431469.414205) can1 020006FD#7FFA7FED7FFF015E
(1791431469.414454) can0 0200FD05#0100000000000000
(1791431469.414581) can1 0200FD07#0100000000000000
(1791431469.414644) can0 020005FD#7E7D80027FFF0154
(1791431469.414798) can1 020007FD#80017FF77FFF0140
(1791431469.415020) can0 0200FD06#0100000000000000
(1791431469.415157) can1 0200FD08#0100000000000000
(1791431469.415261) can0 020006FD#7FF87F927FFF0154
(1791431469.415325) can1 020008FD#8290801C7FFF0136
(1791431469.415644) can0 0200FD07#0100000000000000
(1791431469.415819) can0 020007FD#7ADC7FDC7FFF0140
(1791431469.416214) can0 0200FD08#0100000000000000
(1791431469.416399) can0 020008FD#7EBD7FF37FFF012C
(1791431469.510969) can1 0200FD01#0100000000000000
(1791431469.511150) can1 020001FD#7FFD80467FFF0136
(1791431469.511350) can0 0200FD01#0100000000000000
(1791431469.511569) can0 020001FD#7FAE80C17FFF0136
(1791431469.511604) can1 0200FD02#0100000000000000
(1791431469.511803) can1 020002FD#7FFD7FC87FFF0140
(1791431469.511964) can0 0200FD02#0100000000000000
(1791431469.512165) can1 0200FD03#0100000000000000
(1791431469.512201) can0 020002FD#7FFD7FCD7FFF014A
(1791431469.512474) can1 020003FD#7FFF801C7FFF0154
(1791431469.512589) can0 0200FD03#0100000000000000
(1791431469.512705) can0 020003FD#7FFF7F4E7FFF014A
(1791431469.512801) can1 0200FD04#0100000000000000
(1791431469.513026) can1 020004FD#7FFF7FD57FFF0140
(1791431469.513165) can0 0200FD04#0100000000000000
(1791431469.513346) can1 0200FD05#0100000000000000
(1791431469.513465) can0 020004FD#7FF880097FFF012C
(1791431469.513569) can1 020005FD#88E17FDA7FFF015E
(1791431469.513802) can0 0200FD05#0100000000000000
(1791431469.513962) can1 0200FD06#0100000000000000
(1791431469.514026) can0 020005FD#7E7E801A7FFF0154
(1791431469.514208) can1 020006FD#7FFB80177FFF015E
(1791431469.514343) can0 0200FD06#0100000000000000
(1791431469.514561) can0 020006FD#7FF880237FFF0154
(1791431469.514596) can1 0200FD07#0100000000000000
(1791431469.514755) can1 020007FD#80017FF27FFF0140
(1791431469.514954) can0 0200FD07#0100000000000000
(1791431469.515127) can0 020007FD#7ADC80137FFF0140
(1791431469.515163) can1 0200FD08#0100000000000000
(1791431469.515342) can1 020008FD#8290800D7FFF0136
(1791431469.515527) can0 0200FD08#0100000000000000
(1791431469.515662) can0 020008FD#7EBD802A7FFF012C
(1791431469.601289) can1 0200FD01#0100000000000000
(1791431469.601546) can1 020001FD#7FFD7FC67FFF0136
(1791431469.601906) can1 0200FD02#0100000000000000
(1791431469.602083) can1 020002FD#7FFE7FD27FFF0140
(1791431469.602536) can1 0200FD03#0100000000000000
(1791431469.602712) can1 020003FD#7FFF809F7FFF0154
(1791431469.603108) can1 0200FD04#0100000000000000
(1791431469.603383) can0 0200FD01#0100000000000000
(1791431469.603419) can1 020004FD#7FFF802E7FFF0140
(1791431469.603636) can0 020001FD#7FAE80027FFF0136
(1791431469.603728) can1 0200FD05#0100000000000000
(1791431469.603939) can0 0200FD02#0100000000000000
(1791431469.603975) can1 020005FD#88E180037FFF015E
(1791431469.604178) can0 020002FD#7FFD7EDF7FFF014A
(1791431469.604292) can1 0200FD06#0100000000000000
(1791431469.604523) can1 020006FD#7FFB80267FFF015E
(1791431469.604594) can0 0200FD03#0100000000000000
(1791431469.604711) can0 020003FD#7FFF7F9E7FFF014A
(1791431469.604913) can1 0200FD07#0100000000000000
(1791431469.605094) can1 020007FD#8001800B7FFF0140
(1791431469.605164) can0 0200FD04#0100000000000000
(1791431469.605457) can0 020004FD#7FF87FCB7FFF012C
(1791431469.605524) can1 0200FD08#0100000000000000
(1791431469.605654) can1 020008FD#82907FE47FFF0136
(1791431469.605811) can0 0200FD05#0100000000000000
(1791431469.606028) can0 020005FD#7E7E803D7FFF0154
(1791431469.606346) can0 0200FD06#0100000000000000
(1791431469.606569) can0 020006FD#7FF87FFD7FFF0154
(1791431469.606965) can0 0200FD07#0100000000000000
(1791431469.607144) can0 020007FD#7ADC80007FFF0140
(1791431469.607585) can0 0200FD08#0100000000000000
(1791431469.607693) can0 020008FD#7EBD802A7FFF012C
(1791431469.692818) can1 0200FD01#0100000000000000
(1791431469.693042) can1 020001FD#7FFD800F7FFF0136
(1791431469.693348) can1 0200FD02#0100000000000000
(1791431469.693577) can1 020002FD#7FFD7FD37FFF0140
(1791431469.693968) can1 0200FD03#0100000000000000
(1791431469.694215) can1 020003FD#7FFF803F7FFF0154
(1791431469.694590) can1 0200FD04#0100000000000000
(1791431469.694807) can1 020004FD#7FFF7FD37FFF0140
(1791431469.694981) can0 0200FD01#0100000000000000
(1791431469.695162) can1 0200FD05#0100000000000000
(1791431469.695223) can0 020001FD#7FAF80137FFF0136
(1791431469.695336) can1 020005FD#88E17FF47FFF015E
(1791431469.695596) can0 0200FD02#0100000000000000
(1791431469.695809) can1 0200FD06#0100000000000000
(1791431469.695810) can0 020002FD#7FFD80AE7FFF014A
(1791431469.696030) can1 020006FD#7FFA7FF97FFF015E
(1791431469.696163) can0 0200FD03#0100000000000000
(1791431469.696359) can1 0200FD07#0100000000000000
(1791431469.696463) can0 020003FD#7FFF7FEC7FFF014A
(1791431469.696576) can1 020007FD#800180237FFF0140
(1791431469.696787) can0 0200FD04#0100000000000000
(1791431469.696939) can1 0200FD08#0100000000000000
(1791431469.697028) can0 020004FD#7FF880477FFF012C
(1791431469.697122) can1 020008FD#82907FF77FFF0136
(1791431469.697345) can0 0200FD05#0100000000000000
(1791431469.697570) can0 020005FD#7E7D7FC37FFF0154
(1791431469.697963) can0 0200FD06#0100000000000000
(1791431469.698147) can0 020006FD#7FF87FCD7FFF0154
(1791431469.698531) can0 0200FD07#0100000000000000
(1791431469.698809) can0 020007FD#7ADC80157FFF0140
(1791431469.699173) can0 0200FD08#0100000000000000
(1791431469.699249) can0 020008FD#7EBC80097FFF012C
(1791431469.778167) can1 0200FD01#0100000000000000
(1791431469.778469) can1 020001FD#7FFD80197FFF0136
(1791431469.778818) can1 0200FD02#0100000000000000
(1791431469.778982) can0 0200FD01#0100000000000000
(1791431469.779041) can1 020002FD#7FFE805D7FFF0140
(1791431469.779234) can0 020001FD#7FAE7FF27FFF0136
(1791431469.779363) can1 0200FD03#0100000000000000
(1791431469.779591) can1 020003FD#7FFF802A7FFF0154
(1791431469.779623) can0 0200FD02#0100000000000000
(1791431469.779817) can0 020002FD#7FFD7FAF7FFF014A
(1791431469.779978) can1 0200FD04#0100000000000000
(1791431469.780172) can0 0200FD03#0100000000000000
(1791431469.780218) can1 020004FD#7FFF7FEF7FFF0140
(1791431469.780473) can0 020003FD#7FFF7F617FFF014A
(1791431469.780608) can1 0200FD05#0100000000000000
(1791431469.780788) can1 020005FD#88E180187FFF015E
(1791431469.780791) can0 0200FD04#0100000000000000
(1791431469.781045) can0 020004FD#7FF87F7B7FFF012C
(1791431469.781170) can1 0200FD06#0100000000000000
(1791431469.781372) can0 0200FD05#0100000000000000
(1791431469.781479) can1 020006FD#7FFA7FE67FFF015E
(1791431469.781576) can0 020005FD#7E7D80027FFF0154
(1791431469.781812) can1 0200FD07#0100000000000000
(1791431469.781962) can0 0200FD06#0100000000000000
(1791431469.782042) can1 020007FD#80017FF67FFF0140
(1791431469.782158) can0 020006FD#7FF97FD47FFF0154
(1791431469.782364) can1 0200FD08#0100000000000000
(1791431469.782533) can1 020008FD#829080287FFF0136
(1791431469.782602) can0 0200FD07#0100000000000000
(1791431469.782821) can0 020007FD#7ADC800E7FFF0140
(1791431469.783169) can0 0200FD08#0100000000000000
(1791431469.783342) can0 020008FD#7EBC7FD67FFF012C
(1791431469.833729) can1 0200FD01#0100000000000000
(1791431469.833956) can1 020001FD#7FFD800F7FFF0136
(1791431469.834259) can1 0200FD02#0100000000000000
(1791431469.834520) can1 020002FD#7FFD801C7FFF0140
(1791431469.834828) can1 0200FD03#0100000000000000
(1791431469.835075) can1 020003FD#7FFF7FD77FFF0154
(1791431469.835387) can1 0200FD04#0100000000000000
(1791431469.835574) can1 020004FD#7FFF805F7FFF0140
(1791431469.835931) can0 0200FD01#0100000000000000
(1791431469.835974) can1 0200FD05#0100000000000000
(1791431469.836152) can1 020005FD#88E180007FFF015E
(1791431469.836187) can0 020001FD#7FAF808B7FFF0136
(1791431469.836537) can0 0200FD02#0100000000000000
(1791431469.836598) can1 0200FD06#0100000000000000
(1791431469.836716) can1 020006FD#7FFA800D7FFF015E
(1791431469.836752) can0 020002FD#7FFD7FFF7FFF014A
(1791431469.837122) can0 0200FD03#0100000000000000
(1791431469.837174) can1 0200FD07#0100000000000000
(1791431469.837418) can0 020003FD#7FFF7FC07FFF014A
(1791431469.837476) can1 020007FD#8002802E7FFF0140
(1791431469.837728) can0 0200FD04#0100000000000000
(1791431469.837814) can1 0200FD08#0100000000000000
(1791431469.837960) can1 020008FD#828F7FDB7FFF0136
(1791431469.837963) can0 020004FD#7FF8801B7FFF012C
(1791431469.838289) can0 0200FD05#0100000000000000
(1791431469.838529) can0 020005FD#7E7D80157FFF0154
(1791431469.838885) can0 0200FD06#0100000000000000
(1791431469.839130) can0 020006FD#7FF980107FFF0154
(1791431469.839538) can0 0200FD07#0100000000000000
(1791431469.839661) can0 020007FD#7ADC80067FFF0140
(1791431469.840113) can0 0200FD08#0100000000000000
(1791431469.840242) can0 020008FD#7EBD7FFA7FFF012C
(1791431469.927925) can1 0200FD01#0100000000000000
(1791431469.928165) can1 020001FD#7FFD806E7FFF0136
(1791431469.928479) can0 0200FD01#0100000000000000
(1791431469.928543) can1 0200FD02#0100000000000000
(1791431469.928665) can0 020001FD#7FAE80187FFF0136
(1791431469.928727) can1 020002FD#7FFE7F7C7FFF0140
(1791431469.929053) can0 0200FD02#0100000000000000
(1791431469.929116) can1 0200FD03#0100000000000000
(1791431469.929302) can0 020002FD#7FFD7FCF7FFF014A
(1791431469.929418) can1 020003FD#8000809F7FFF0154
(1791431469.929665) can0 0200FD03#0100000000000000
(1791431469.929733) can1 0200FD04#0100000000000000
(1791431469.929846) can0 020003FD#7FFF7F5C7FFF014A
(1791431469.929983) can1 020004FD#7FFF80317FFF0140
(1791431469.930238) can0 0200FD04#0100000000000000
(1791431469.930299) can1 0200FD05#0100000000000000
(1791431469.930524) can0 020004FD#7FF880147FFF012C
(1791431469.930558) can1 020005FD#88E180247FFF015E
(1791431469.930860) can0 0200FD05#0100000000000000
(1791431469.930925) can1 0200FD06#0100000000000000
(1791431469.931095) can0 020005FD#7E7D800D7FFF0154
(1791431469.931175) can1 020006FD#7FFA80007FFF015E
(1791431469.931477) can0 0200FD06#0100000000000000
(1791431469.931538) can1 0200FD07#0100000000000000
(1791431469.931673) can0 020006FD#7FF880047FFF0154
(1791431469.931721) can1 020007FD#800180047FFF0140
(1791431469.932054) can0 0200FD07#0100000000000000
(1791431469.932107) can1 0200FD08#0100000000000000
(1791431469.932274) can1 020008FD#8290802F7FFF0136
(1791431469.932308) can0 020007FD#7ADC80087FFF0140
(1791431469.932668) can0 0200FD08#0100000000000000
(1791431469.932750) can0 020008FD#7EBD7FD57FFF012C
(1791431470.028862) can1 0200FD01#0100000000000000
(1791431470.029097) can1 020001FD#7FFD7FB97FFF0136
(1791431470.029486) can1 0200FD02#0100000000000000
(1791431470.029677) can1 020002FD#7FFD7FB07FFF0140
(1791431470.029929) can0 0200FD01#0100000000000000
(1791431470.030057) can1 0200FD03#0100000000000000
(1791431470.030173) can0 020001FD#7FAE7F8F7FFF0136
(1791431470.030308) can1 020003FD#7FFF7FFA7FFF0154
(1791431470.030542) can0 0200FD02#0100000000000000
(1791431470.030673) can1 0200FD04#0100000000000000
(1791431470.030726) can0 020002FD#7FFD7FBE7FFF014A
(1791431470.030852) can1 020004FD#7FFF7FEB7FFF0140
(1791431470.031121) can0 0200FD03#0100000000000000
(1791431470.031245) can1 0200FD05#0100000000000000
(1791431470.031432) can0 020003FD#7FFF80617FFF014A
(1791431470.031543) can1 020005FD#88E17FC37FFF015E
(1791431470.031740) can0 0200FD04#0100000000000000
(1791431470.031868) can1 0200FD06#0100000000000000
(1791431470.031986) can0 020004FD#7FF87FF17FFF012C
(1791431470.032118) can1 020006FD#7FFA7FD77FFF015E
(1791431470.032310) can0 0200FD05#0100000000000000
(1791431470.032484) can1 0200FD07#0100000000000000
(1791431470.032530) can0 020005FD#7E7E80367FFF0154
(1791431470.032672) can1 020007FD#800180237FFF0140
(1791431470.032932) can0 0200FD06#0100000000000000
(1791431470.033044) can1 0200FD08#0100000000000000
(1791431470.033172) can0 020006FD#7FF980067FFF0154
(1791431470.033207) can1 020008FD#829080197FFF0136
(1791431470.033548) can0 0200FD07#0100000000000000
(1791431470.033728) can0 020007FD#7ADC802C7FFF0140
(1791431470.034170) can0 0200FD08#0100000000000000
(1791431470.034234) can0 020008FD#7EBD803E7FFF012C
(1791431470.134866) can1 0200FD01#0100000000000000
(1791431470.135047) can1 020001FD#7FFD7FA27FFF0136
(1791431470.135484) can1 0200FD02#0100000000000000
(1791431470.135669) can1 020002FD#7FFE80267FFF0140
(1791431470.135871) can0 0200FD01#0100000000000000
(1791431470.136045) can1 0200FD03#0100000000000000
(1791431470.136119) can0 020001FD#7FAE7FF17FFF0136
(1791431470.136220) can1 020003FD#7FFF7FDB7FFF0154
(1791431470.136555) can0 0200FD02#0100000000000000
(1791431470.136673) can0 020002FD#7FFD7FBB7FFF014A
(1791431470.136706) can1 0200FD04#0100000000000000
(1791431470.136854) can1 020004FD#7FFF80407FFF0140
(1791431470.137123) can0 0200FD03#0100000000000000
(1791431470.137246) can1 0200FD05#0100000000000000
(1791431470.137427) can0 020003FD#7FFF80667FFF014A
(1791431470.137527) can1 020005FD#88E180157FFF015E
(1791431470.137741) can0 0200FD04#0100000000000000
(1791431470.137863) can1 0200FD06#0100000000000000
(1791431470.137989) can0 020004FD#7FF87FF57FFF012C
(1791431470.138107) can1 020006FD#7FFB803E7FFF015E
(1791431470.138311) can0 0200FD05#0100000000000000
(1791431470.138485) can1 0200FD07#0100000000000000
(1791431470.138541) can0 020005FD#7E7E80007FFF0154
(1791431470.138669) can1 020007FD#8001801A7FFF0140
(1791431470.138930) can0 0200FD06#0100000000000000
(1791431470.139055) can1 0200FD08#0100000000000000
(1791431470.139173) can0 020006FD#7FF880017FFF0154
(1791431470.139212) can1 020008FD#829080057FFF0136
(1791431470.139614) can0 0200FD07#0100000000000000
(1791431470.139724) can0 020007FD#7ADC7FD57FFF0140
(1791431470.140183) can0 0200FD08#0100000000000000
(1791431470.140324) can0 020008FD#7EBC801B7FFF012C
(1791431470.185997) can1 0200FD01#0100000000000000
(1791431470.186175) can1 020001FD#7FFD7F6A7FFF0136
(1791431470.186621) can1 0200FD02#0100000000000000
(1791431470.186622) can0 0200FD01#0100000000000000
(1791431470.186835) can1 020002FD#7FFE80177FFF0140
(1791431470.186841) can0 020001FD#7FAE7F4B7FFF0136
(1791431470.187181) can1 0200FD03#0100000000000000
(1791431470.187215) can0 0200FD02#0100000000000000
(1791431470.187507) can0 020002FD#7FFD7FDA7FFF014A
(1791431470.187511) can1 020003FD#8000815C7FFF0154
(1791431470.187826) can1 0200FD04#0100000000000000
(1791431470.187829) can0 0200FD03#0100000000000000
(1791431470.188054) can1 020004FD#7FFF7FF47FFF0140
(1791431470.188087) can0 020003FD#7FFF7FDE7FFF014A
(1791431470.188375) can0 0200FD04#0100000000000000
(1791431470.188377) can1 0200FD05#0100000000000000
(1791431470.188592) can0 020004FD#7FF880167FFF012C
(1791431470.188625) can1 020005FD#88E17FFA7FFF015E
(1791431470.188982) can0 0200FD05#0100000000000000
(1791431470.189025) can1 0200FD06#0100000000000000
(1791431470.189173) can1 020006FD#7FFA7FF07FFF015E
(1791431470.189231) can0 020005FD#7E7D7FE37FFF0154
(1791431470.189613) can0 0200FD06#0100000000000000
(1791431470.189615) can1 0200FD07#0100000000000000
(1791431470.189803) can0 020006FD#7FF87FEC7FFF0154
(1791431470.189830) can1 020007FD#8001801C7FFF0140
(1791431470.190185) can0 0200FD07#0100000000000000
(1791431470.190187) can1 0200FD08#0100000000000000
(1791431470.190351) can1 020008FD#829080227FFF0136
(1791431470.190499) can0 020007FD#7ADC802A7FFF0140
(1791431470.190867) can0 0200FD08#0100000000000000
(1791431470.190975) can0 020008FD#7EBD7FD87FFF012C
(1791431470.238618) can1 0200FD01#0100000000000000
(1791431470.238856) can1 020001FD#7FFD802F7FFF0136
(1791431470.239020) can0 0200FD01#0100000000000000
(1791431470.239178) can1 0200FD02#0100000000000000
(1791431470.239260) can0 020001FD#7FAE80157FFF0136
(1791431470.239496) can1 020002FD#7FFE807E7FFF0140
(1791431470.239617) can0 0200FD02#0100000000000000
(1791431470.239835) can1 0200FD03#0100000000000000
(1791431470.239838) can0 020002FD#7FFD80217FFF014A
(1791431470.240054) can1 020003FD#7FFF7F417FFF0154
(1791431470.240181) can0 0200FD03#0100000000000000
(1791431470.240377) can1 0200FD04#0100000000000000
(1791431470.240495) can0 020003FD#7FFF803E7FFF014A
(1791431470.240595) can1 020004FD#7FFF7FFF7FFF0140
(1791431470.240835) can0 0200FD04#0100000000000000
(1791431470.240993) can1 0200FD05#0100000000000000
(1791431470.241051) can0 020004FD#7FF8805B7FFF012C
(1791431470.241242) can1 020005FD#88E180177FFF015E
(1791431470.241372) can0 0200FD05#0100000000000000
(1791431470.241600) can0 020005FD#7E7D800D7FFF0154
(1791431470.241634) can1 0200FD06#0100000000000000
(1791431470.241832) can1 020006FD#7FFB7FEB7FFF015E
(1791431470.241995) can0 0200FD06#0100000000000000
(1791431470.242176) can0 020006FD#7FF87FE97FFF0154
(1791431470.242211) can1 0200FD07#0100000000000000
(1791431470.242502) can1 020007FD#800180157FFF0140
(1791431470.242622) can0 0200FD07#0100000000000000
(1791431470.242832) can0 020007FD#7ADC7FD67FFF0140
(1791431470.242835) can1 0200FD08#0100000000000000
(1791431470.242960) can1 020008FD#8290800C7FFF0136
(1791431470.243185) can0 0200FD08#0100000000000000
(1791431470.243334) can0 020008FD#7EBD80007FFF012C
(1791431470.291265) can1 0200FD01#0100000000000000
(1791431470.291442) can1 020001FD#7FFD7FBE7FFF0136
(1791431470.292116) can1 0200FD02#0100000000000000
(1791431470.292367) can1 020002FD#7FFD7F8D7FFF0140
(1791431470.292683) can1 0200FD03#0100000000000000
(1791431470.292931) can1 020003FD#7FFF80137FFF0154
(1791431470.293226) can1 0200FD04#0100000000000000
(1791431470.293535) can1 020004FD#7FFF80007FFF0140
(1791431470.293823) can0 0200FD01#0100000000000000
(1791431470.293876) can1 0200FD05#0100000000000000
(1791431470.293988) can0 020001FD#7FAE7FFC7FFF0136
(1791431470.294054) can1 020005FD#88E180287FFF015E
(1791431470.294495) can1 0200FD06#0100000000000000
(1791431470.294553) can0 0200FD02#0100000000000000
(1791431470.294683) can1 020006FD#7FFA7FC17FFF015E
(1791431470.294729) can0 020002FD#7FFD7F427FFF014A
(1791431470.295072) can1 0200FD07#0100000000000000
(1791431470.295121) can0 0200FD03#0100000000000000
(1791431470.295320) can1 020007FD#8001804C7FFF0140
(1791431470.295362) can0 020003FD#800080CA7FFF014A
(1791431470.295696) can1 0200FD08#0100000000000000
(1791431470.295741) can0 0200FD04#0100000000000000
(1791431470.295839) can1 020008FD#829080367FFF0136
(1791431470.295974) can0 020004FD#7FF880A77FFF012C
(1791431470.296306) can0 0200FD05#0100000000000000
(1791431470.296551) can0 020005FD#7E7D7FE67FFF0154
(1791431470.296937) can0 0200FD06#0100000000000000
(1791431470.297179) can0 020006FD#7FF980377FFF0154
(1791431470.297554) can0 0200FD07#0100000000000000
(1791431470.297733) can0 020007FD#7ADC80127FFF0140
(1791431470.298117) can0 0200FD08#0100000000000000
(1791431470.298274) can0 020008FD#7EBC7FF17FFF012C
(1791431470.349946) can1 0200FD01#0100000000000000
(1791431470.350184) can1 020001FD#7FFD7FE57FFF0136
(1791431470.350561) can1 0200FD02#0100000000000000
(1791431470.350729) can1 020002FD#7FFE80577FFF0140
(1791431470.351162) can1 0200FD03#0100000000000000
(1791431470.351333) can1 020003FD#7FFF80507FFF0154
(1791431470.351749) can1 0200FD04#0100000000000000
(1791431470.351989) can1 020004FD#7FFF7FC17FFF0140
(1791431470.352032) can0 0200FD01#0100000000000000
(1791431470.352220) can0 020001FD#7FAE7FC07FFF0136
(1791431470.352317) can1 0200FD05#0100000000000000
(1791431470.352555) can1 020005FD#88E1801D7FFF015E
(1791431470.352618) can0 0200FD02#0100000000000000
(1791431470.352836) can0 020002FD#7FFD80367FFF014A
(1791431470.352942) can1 0200FD06#0100000000000000
(1791431470.353124) can1 020006FD#7FFA7FC47FFF015E
(1791431470.353186) can0 0200FD03#0100000000000000
(1791431470.353504) can0 020003FD#7FFF80187FFF014A
(1791431470.353558) can1 0200FD07#0100000000000000
(1791431470.353738) can1 020007FD#80027FC17FFF0140
(1791431470.353835) can0 0200FD04#0100000000000000
(1791431470.354055) can0 020004FD#7FF8805F7FFF012C
(1791431470.354120) can1 0200FD08#0100000000000000
(1791431470.354284) can1 020008FD#82907FEB7FFF0136
(1791431470.354358) can0 0200FD05#0100000000000000
(1791431470.354600) can0 020005FD#7E7D800F7FFF0154
(1791431470.354964) can0 0200FD06#0100000000000000
(1791431470.355199) can0 020006FD#7FF87FE47FFF0154
(1791431470.355622) can0 0200FD07#0100000000000000
(1791431470.355726) can0 020007FD#7ADC7FFD7FFF0140
(1791431470.356181) can0 0200FD08#0100000000000000
(1791431470.356326) can0 020008FD#7EBD7FE27FFF012C
(1791431470.400875) can1 0200FD01#0100000000000000
(1791431470.401115) can1 020001FD#7FFD7FEE7FFF0136
(1791431470.401486) can1 0200FD02#0100000000000000
(1791431470.401680) can1 020002FD#7FFE7F9D7FFF0140
(1791431470.401756) can0 0200FD01#0100000000000000
(1791431470.401940) can0 020001FD#7FAE7F947FFF0136
(1791431470.402059) can1 0200FD03#0100000000000000
(1791431470.402311) can1 020003FD#7FFF7F847FFF0154
(1791431470.402382) can0 0200FD02#0100000000000000
(1791431470.402555) can0 020002FD#7FFD7FE17FFF014A
(1791431470.402682) can1 0200FD04#0100000000000000
(1791431470.402856) can1 020004FD#7FFE7FA97FFF0140
(1791431470.403061) can0 0200FD03#0100000000000000
(1791431470.403251) can0 020003FD#7FFF7FFE7FFF014A
(1791431470.403279) can1 0200FD05#0100000000000000
(1791431470.403495) can1 020005FD#88E180097FFF015E
(1791431470.403685) can0 0200FD04#0100000000000000
(1791431470.403866) can0 020004FD#7FF8806A7FFF012C
(1791431470.403900) can1 0200FD06#0100000000000000
(1791431470.404119) can1 020006FD#7FFA7FF87FFF015E
(1791431470.404249) can0 0200FD05#0100000000000000
(1791431470.404497) can1 0200FD07#0100000000000000
(1791431470.404551) can0 020005FD#7E7D7FC57FFF0154
(1791431470.404665) can1 020007FD#8001801E7FFF0140
(1791431470.404877) can0 0200FD06#0100000000000000
(1791431470.405066) can1 0200FD08#0100000000000000
(1791431470.405120) can0 020006FD#7FF87F997FFF0154
(1791431470.405219) can1 020008FD#82907FAD7FFF0136
(1791431470.405498) can0 0200FD07#0100000000000000
(1791431470.405700) can0 020007FD#7ADC80007FFF0140
(1791431470.406063) can0 0200FD08#0100000000000000
(1791431470.406192) can0 020008FD#7EBD7FEA7FFF012C
(1791431470.460835) can1 0200FD01#0100000000000000
(1791431470.461056) can1 020001FD#7FFD7FB97FFF0136
(1791431470.461401) can1 0200FD02#0100000000000000
(1791431470.461609) can1 020002FD#7FFD7FBF7FFF0140
(1791431470.461999) can1 0200FD03#0100000000000000
(1791431470.462183) can1 020003FD#7FFF7F0A7FFF0154
(1791431470.462624) can1 0200FD04#0100000000000000
(1791431470.462753) can0 0200FD01#0100000000000000
(1791431470.462840) can1 020004FD#7FFF80397FFF0140
(1791431470.462932) can0 020001FD#7FAE7F987FFF0136
(1791431470.463197) can1 0200FD05#0100000000000000
(1791431470.463330) can0 0200FD02#0100000000000000
(1791431470.463493) can1 020005FD#88E180127FFF015E
(1791431470.463557) can0 020002FD#7FFD80187FFF014A
(1791431470.463852) can1 0200FD06#0100000000000000
(1791431470.463949) can0 0200FD03#0100000000000000
(1791431470.464066) can1 020006FD#7FFB804B7FFF015E
(1791431470.464193) can0 020003FD#7FFF7FFC7FFF014A
(1791431470.464388) can1 0200FD07#0100000000000000
(1791431470.464561) can0 0200FD04#0100000000000000
(1791431470.464598) can1 020007FD#800180267FFF0140
(1791431470.464736) can0 020004FD#7FF880107FFF012C
(1791431470.464991) can1 0200FD08#0100000000000000
(1791431470.465122) can0 0200FD05#0100000000000000
(1791431470.465158) can1 020008FD#829080297FFF0136
(1791431470.465363) can0 020005FD#7E7D7FEA7FFF0154
(1791431470.465685) can0 0200FD06#0100000000000000
(1791431470.465868) can0 020006FD#7FF980087FFF0154
(1791431470.466248) can0 0200FD07#0100000000000000
(1791431470.466553) can0 020007FD#7ADC7FEA7FFF0140
(1791431470.466871) can0 0200FD08#0100000000000000
(1791431470.467025) can0 020008FD#7EBD80157FFF012C
(1791431470.558424) can1 0200FD01#0100000000000000
(1791431470.558673) can1 020001FD#7FFE805B7FFF0136
(1791431470.558988) can1 0200FD02#0100000000000000
(1791431470.559217) can1 020002FD#7FFD7FA57FFF0140
(1791431470.559631) can1 0200FD03#0100000000000000
(1791431470.559735) can1 020003FD#7FFF80637FFF0154
(1791431470.560191) can1 0200FD04#0100000000000000
(1791431470.560377) can1 020004FD#7FFF7FA47FFF0140
(1791431470.560691) can0 0200FD01#0100000000000000
(1791431470.560844) can1 0200FD05#0100000000000000
(1791431470.560887) can0 020001FD#7FAE7FB57FFF0136
(1791431470.560995) can1 020005FD#88E180127FFF015E
(1791431470.561259) can0 0200FD02#0100000000000000
(1791431470.561391) can1 0200FD06#0100000000000000
(1791431470.561567) can0 020002FD#7FFD7FBA7FFF014A
(1791431470.561604) can1 020006FD#7FFA7FFB7FFF015E
(1791431470.561953) can0 0200FD03#0100000000000000
(1791431470.562006) can1 0200FD07#0100000000000000
(1791431470.562131) can0 020003FD#7FFF7FB87FFF014A
(1791431470.562239) can1 020007FD#8002801F7FFF0140
(1791431470.562561) can0 0200FD04#0100000000000000
(1791431470.562628) can1 0200FD08#0100000000000000
(1791431470.562730) can1 020008FD#828F7FFE7FFF0136
(1791431470.562765) can0 020004FD#7FF8801E7FFF012C
(1791431470.563123) can0 0200FD05#0100000000000000
(1791431470.563307) can0 020005FD#7E7D80107FFF0154
(1791431470.563690) can0 0200FD06#0100000000000000
(1791431470.563873) can0 020006FD#7FF8803F7FFF0154
(1791431470.564259) can0 0200FD07#0100000000000000
(1791431470.564558) can0 020007FD#7ADC80357FFF0140
(1791431470.564850) can0 0200FD08#0100000000000000
(1791431470.565020) can0 020008FD#7EBC80197FFF012C
(1791431470.613128) can1 0200FD01#0100000000000000
(1791431470.613297) can1 020001FD#7FFD80CA7FFF0136
(1791431470.613693) can1 0200FD02#0100000000000000
(1791431470.613874) can1 020002FD#7FFD7FA27FFF0140
(1791431470.613910) can0 0200FD01#0100000000000000
(1791431470.614135) can0 020001FD#7FAE800C7FFF0136
(1791431470.614265) can1 0200FD03#0100000000000000
(1791431470.614508) can0 0200FD02#0100000000000000
(1791431470.614548) can1 020003FD#7FFF7EFC7FFF0154
(1791431470.614693) can0 020002FD#7FFD809F7FFF014A
(1791431470.614880) can1 0200FD04#0100000000000000
(1791431470.615082) can0 0200FD03#0100000000000000
(1791431470.615119) can1 020004FD#7FFE7F817FFF0140
(1791431470.615327) can0 020003FD#7FFF804F7FFF014A
(1791431470.615507) can1 0200FD05#0100000000000000
(1791431470.615692) can1 020005FD#88E17FF07FFF015E
(1791431470.615725) can0 0200FD04#0100000000000000
(1791431470.615873) can0 020004FD#7FF880997FFF012C
(1791431470.616079) can1 0200FD06#0100000000000000
(1791431470.616264) can0 0200FD05#0100000000000000
(1791431470.616327) can1 020006FD#7FFA80067FFF015E
(1791431470.616570) can0 020005FD#7E7D80077FFF0154
(1791431470.616706) can1 0200FD07#0100000000000000
(1791431470.616876) can1 020007FD#8001801B7FFF0140
(1791431470.616916) can0 0200FD06#0100000000000000
(1791431470.617131) can0 020006FD#7FF87FE97FFF0154
(1791431470.617258) can1 0200FD08#0100000000000000
(1791431470.617450) can1 020008FD#829080177FFF0136
(1791431470.617503) can0 0200FD07#0100000000000000
(1791431470.617696) can0 020007FD#7ADC7FED7FFF0140
(1791431470.618052) can0 0200FD08#0100000000000000
(1791431470.618212) can0 020008FD#7EBD7FC57FFF012C
(1791431470.664514) can1 0200FD01#0100000000000000
(1791431470.664700) can1 020001FD#7FFE80467FFF0136
(1791431470.665065) can1 0200FD02#0100000000000000
(1791431470.665321) can1 020002FD#7FFE7FE07FFF0140
(1791431470.665411) can0 0200FD01#0100000000000000
(1791431470.665620) can0 020001FD#7FAE806D7FFF0136
(1791431470.665695) can1 0200FD03#0100000000000000
(1791431470.665872) can1 020003FD#8000807F7FFF0154
(1791431470.666003) can0 0200FD02#0100000000000000
(1791431470.666248) can0 020002FD#7FFD7FBA7FFF014A
(1791431470.666285) can1 0200FD04#0100000000000000
(1791431470.666550) can1 020004FD#7FFE801D7FFF0140
(1791431470.666633) can0 0200FD03#0100000000000000
(1791431470.666806) can0 020003FD#7FFF7FB57FFF014A
(1791431470.666882) can1 0200FD05#0100000000000000
(1791431470.667125) can1 020005FD#88E17FF17FFF015E
(1791431470.667190) can0 0200FD04#0100000000000000
(1791431470.667369) can0 020004FD#7FF8804D7FFF012C
(1791431470.667495) can1 0200FD06#0100000000000000
(1791431470.667672) can1 020006FD#7FFA7FD77FFF015E
(1791431470.667757) can0 0200FD05#0100000000000000
(1791431470.667999) can0 020005FD#7E7D7FCC7FFF0154
(1791431470.668072) can1 0200FD07#0100000000000000
(1791431470.668253) can1 020007FD#800180187FFF0140
(1791431470.668321) can0 0200FD06#0100000000000000
(1791431470.668564) can0 020006FD#7FF97FBA7FFF0154
(1791431470.668691) can1 0200FD08#0100000000000000
(1791431470.668848) can1 020008FD#829080157FFF0136
(1791431470.668947) can0 0200FD07#0100000000000000
(1791431470.669194) can0 020007FD#7ADC80397FFF0140
(1791431470.669627) can0 0200FD08#0100000000000000
(1791431470.669701) can0 020008FD#7EBD7FFF7FFF012C
(1791431470.759336) can1 0200FD01#0100000000000000
(1791431470.759570) can1 020001FD#7FFD7F4F7FFF0136
(1791431470.759959) can1 0200FD02#0100000000000000
(1791431470.760202) can1 020002FD#7FFD80267FFF0140
(1791431470.760302) can0 0200FD01#0100000000000000
(1791431470.760571) can1 0200FD03#0100000000000000
(1791431470.760608) can0 020001FD#7FAE7FE37FFF0136
(1791431470.760748) can1 020003FD#7FFF80007FFF0154
(1791431470.760927) can0 0200FD02#0100000000000000
(1791431470.761139) can1 0200FD04#0100000000000000
(1791431470.761175) can0 020002FD#7FFD7F7A7FFF014A
(1791431470.761383) can1 020004FD#7FFF80267FFF0140
(1791431470.761507) can0 0200FD03#0100000000000000
(1791431470.761698) can0 020003FD#7FFF80BA7FFF014A
(1791431470.761759) can1 0200FD05#0100000000000000
(1791431470.762000) can1 020005FD#88E1801B7FFF015E
(1791431470.762078) can0 0200FD04#0100000000000000
(1791431470.762252) can0 020004FD#7FF8800B7FFF012C
(1791431470.762330) can1 0200FD06#0100000000000000
(1791431470.762568) can1 020006FD#7FFA80047FFF015E
(1791431470.762708) can0 0200FD05#0100000000000000
(1791431470.762882) can0 020005FD#7E7E803F7FFF0154
(1791431470.762955) can1 0200FD07#0100000000000000
(1791431470.763201) can1 020007FD#800180197FFF0140
(1791431470.763273) can0 0200FD06#0100000000000000
(1791431470.763554) can0 020006FD#7FF87FF37FFF0154
(1791431470.763590) can1 0200FD08#0100000000000000
(1791431470.763672) can1 020008FD#8290800B7FFF0136
(1791431470.763878) can0 0200FD07#0100000000000000
(1791431470.764118) can0 020007FD#7ADC7FBF7FFF0140
(1791431470.764493) can0 0200FD08#0100000000000000
(1791431470.764589) can0 020008FD#7EBD7FF07FFF012C
(1791431470.828771) can1 0200FD01#0100000000000000
(1791431470.829015) can1 020001FD#7FFD803D7FFF0136
(1791431470.829337) can1 0200FD02#0100000000000000
(1791431470.829405) can0 0200FD01#0100000000000000
(1791431470.829576) can1 020002FD#7FFD804A7FFF0140
(1791431470.829625) can0 020001FD#7FAE7FDA7FFF0136
(1791431470.830009) can1 0200FD03#0100000000000000
(1791431470.830020) can0 0200FD02#0100000000000000
(1791431470.830198) can0 020002FD#7FFD7F987FFF014A
(1791431470.830239) can1 020003FD#7FFF80377FFF0154
(1791431470.830589) can1 0200FD04#0100000000000000
(1791431470.830650) can0 0200FD03#0100000000000000
(1791431470.830765) can1 020004FD#7FFF800B7FFF0140
(1791431470.830836) can0 020003FD#7FFF7F907FFF014A
(1791431470.831154) can1 0200FD05#0100000000000000
(1791431470.831222) can0 0200FD04#0100000000000000
(1791431470.831394) can1 020005FD#88E17FF57FFF015E
(1791431470.831520) can0 020004FD#7FF8801F7FFF012C
(1791431470.831778) can1 0200FD06#0100000000000000
(1791431470.831865) can0 0200FD05#0100000000000000
(1791431470.831956) can1 020006FD#7FFA800F7FFF015E
(1791431470.832080) can0 020005FD#7E7D7FC97FFF0154
(1791431470.832343) can1 0200FD07#0100000000000000
(1791431470.832405) can0 0200FD06#0100000000000000
(1791431470.832576) can1 020007FD#80017FFA7FFF0140
(1791431470.832616) can0 020006FD#7FF87FF67FFF0154
(1791431470.832960) can1 0200FD08#0100000000000000
(1791431470.833053) can0 0200FD07#0100000000000000
(1791431470.833096) can1 020008FD#829080237FFF0136
(1791431470.833235) can0 020007FD#7ADC80207FFF0140
(1791431470.833643) can0 0200FD08#0100000000000000
(1791431470.833770) can0 020008FD#7EBD803E7FFF012C
(1791431470.881372) can1 0200FD01#0100000000000000
(1791431470.881568) can1 020001FD#7FFD7F887FFF0136
(1791431470.881928) can1 0200FD02#0100000000000000
(1791431470.882167) can1 020002FD#7FFE80077FFF0140
(1791431470.882504) can1 0200FD03#0100000000000000
(1791431470.882683) can1 020003FD#7FFF7FC57FFF0154
(1791431470.882772) can0 0200FD01#0100000000000000
(1791431470.883011) can0 020001FD#7FAE80497FFF0136
(1791431470.883057) can1 0200FD04#0100000000000000
(1791431470.883295) can1 020004FD#7FFF80837FFF0140
(1791431470.883343) can0 0200FD02#0100000000000000
(1791431470.883577) can0 020002FD#7FFD7F957FFF014A
(1791431470.883702) can1 0200FD05#0100000000000000
(1791431470.883859) can1 020005FD#88E17FFB7FFF015E
(1791431470.883962) can0 0200FD03#0100000000000000
(1791431470.884212) can0 020003FD#7FFF804C7FFF014A
(1791431470.884274) can1 0200FD06#0100000000000000
(1791431470.884571) can1 020006FD#7FFA7FF17FFF015E
(1791431470.884608) can0 0200FD04#0100000000000000
(1791431470.884752) can0 020004FD#7FF8802B7FFF012C
(1791431470.884897) can1 0200FD07#0100000000000000
(1791431470.885139) can1 020007FD#80017FA27FFF0140
(1791431470.885175) can0 0200FD05#0100000000000000
(1791431470.885389) can0 020005FD#7E7D80387FFF0154
(1791431470.885518) can1 0200FD08#0100000000000000
(1791431470.885627) can1 020008FD#82907FED7FFF0136
(1791431470.885769) can0 0200FD06#0100000000000000
(1791431470.886007) can0 020006FD#7FF97FE47FFF0154
(1791431470.886334) can0 0200FD07#0100000000000000
(1791431470.886576) can0 020007FD#7ADC80007FFF0140
(1791431470.886950) can0 0200FD08#0100000000000000
(1791431470.887075) can0 020008FD#7EBC7FB27FFF012C
(1791431470.984184) can1 0200FD01#0100000000000000
(1791431470.984368) can1 020001FD#7FFD80177FFF0136
(1791431470.984783) can1 0200FD02#0100000000000000
(1791431470.985021) can1 020002FD#7FFE800A7FFF0140
(1791431470.985204) can0 0200FD01#0100000000000000
(1791431470.985345) can1 0200FD03#0100000000000000
(1791431470.985386) can0 020001FD#7FAE7FFA7FFF0136
(1791431470.985581) can1 020003FD#7FFF80287FFF0154
(1791431470.985784) can0 0200FD02#0100000000000000
(1791431470.985970) can1 0200FD04#0100000000000000
(1791431470.986026) can0 020002FD#7FFD7F237FFF014A
(1791431470.986211) can1 020004FD#7FFF80407FFF0140
(1791431470.986346) can0 0200FD03#0100000000000000
(1791431470.986564) can0 020003FD#7FFF7FA97FFF014A
(1791431470.986600) can1 0200FD05#0100000000000000
(1791431470.986761) can1 020005FD#88E180097FFF015E
(1791431470.986966) can0 0200FD04#0100000000000000
(1791431470.987149) can1 0200FD06#0100000000000000
(1791431470.987206) can0 020004FD#7FF87FF47FFF012C
(1791431470.987385) can1 020006FD#7FFA80527FFF015E
(1791431470.987600) can0 0200FD05#0100000000000000
(1791431470.987777) can0 020005FD#7E7D7FE67FFF0154
(1791431470.987781) can1 0200FD07#0100000000000000
(1791431470.988024) can1 020007FD#80017FB97FFF0140
(1791431470.988162) can0 0200FD06#0100000000000000
(1791431470.988352) can1 0200FD08#0100000000000000
(1791431470.988463) can0 020006FD#7FF87FE67FFF0154
(1791431470.988531) can1 020008FD#82907FC37FFF0136
(1791431470.988842) can0 0200FD07#0100000000000000
(1791431470.989013) can0 020007FD#7ADC7FC67FFF0140
(1791431470.989403) can0 0200FD08#0100000000000000
(1791431470.989521) can0 020008FD#7EBD7FE47FFF012C
(1791431471.035512) can1 0200FD01#0100000000000000
(1791431471.035693) can1 020001FD#7FFD80AE7FFF0136
(1791431471.036078) can0 0200FD01#0100000000000000
(1791431471.036100) can1 0200FD02#0100000000000000
(1791431471.036262) can1 020002FD#7FFD7FEE7FFF0140
(1791431471.036296) can0 020001FD#7FAE7FAF7FFF0136
(1791431471.036657) can0 0200FD02#0100000000000000
(1791431471.036714) can1 0200FD03#0100000000000000
(1791431471.036868) can0 020002FD#7FFD801A7FFF014A
(1791431471.036907) can1 020003FD#800080207FFF0154
(1791431471.037229) can0 0200FD03#0100000000000000
(1791431471.037280) can1 0200FD04#0100000000000000
(1791431471.037528) can0 020003FD#7FFF7F4B7FFF014A
(1791431471.037581) can1 020004FD#7FFF802D7FFF0140
(1791431471.037877) can0 0200FD04#0100000000000000
(1791431471.037903) can1 0200FD05#0100000000000000
(1791431471.038085) can0 020004FD#7FF87F897FFF012C
(1791431471.038120) can1 020005FD#88E17FFA7FFF015E
(1791431471.038413) can0 0200FD05#0100000000000000
(1791431471.038524) can1 0200FD06#0100000000000000
(1791431471.038624) can0 020005FD#7E7D7FE97FFF0154
(1791431471.038712) can1 020006FD#7FFB800F7FFF015E
(1791431471.039032) can0 0200FD06#0100000000000000
(1791431471.039098) can1 0200FD07#0100000000000000
(1791431471.039270) can0 020006FD#7FF87FE37FFF0154
(1791431471.039339) can1 020007FD#80017FF97FFF0140
(1791431471.039660) can0 0200FD07#0100000000000000
(1791431471.039713) can1 0200FD08#0100000000000000
(1791431471.039839) can0 020007FD#7ADC7FD27FFF0140
(1791431471.039866) can1 020008FD#82907FDE7FFF0136
(1791431471.040225) can0 0200FD08#0100000000000000
(1791431471.040362) can0 020008FD#7EBC7FE27FFF012C
(1791431471.133441) can1 0200FD01#0100000000000000
(1791431471.133632) can1 020001FD#7FFD7FC07FFF0136
(1791431471.134008) can1 0200FD02#0100000000000000
(1791431471.134257) can1 020002FD#7FFE80A97FFF0140
(1791431471.134586) can1 0200FD03#0100000000000000
(1791431471.134769) can1 020003FD#7FFF80B57FFF0154
(1791431471.135159) can1 0200FD04#0100000000000000
(1791431471.135406) can1 020004FD#7FFF80767FFF0140
(1791431471.135790) can1 0200FD05#0100000000000000
(1791431471.135975) can0 0200FD01#0100000000000000
(1791431471.136022) can1 020005FD#88E17FCE7FFF015E
(1791431471.136220) can0 020001FD#7FAE7FD17FFF0136
(1791431471.136343) can1 0200FD06#0100000000000000
(1791431471.136586) can1 020006FD#7FFA80027FFF015E
(1791431471.136589) can0 0200FD02#0100000000000000
(1791431471.136764) can0 020002FD#7FFD80457FFF014A
(1791431471.136977) can1 0200FD07#0100000000000000
(1791431471.137150) can1 020007FD#80017FC07FFF0140
(1791431471.137184) can0 0200FD03#0100000000000000
(1791431471.137409) can0 020003FD#7FFF7F857FFF014A
(1791431471.137595) can1 0200FD08#0100000000000000
(1791431471.137714) can1 020008FD#828F7FCE7FFF0136
(1791431471.137781) can0 0200FD04#0100000000000000
(1791431471.138016) can0 020004FD#7FF880D67FFF012C
(1791431471.138381) can0 0200FD05#0100000000000000
(1791431471.138585) can0 020005FD#7E7D80197FFF0154
(1791431471.138964) can0 0200FD06#0100000000000000
(1791431471.139213) can0 020006FD#7FF9803F7FFF0154
(1791431471.139593) can0 0200FD07#0100000000000000
(1791431471.139767) can0 020007FD#7ADC7FEC7FFF0140
(1791431471.140168) can0 0200FD08#0100000000000000
(1791431471.140322) can0 020008FD#7EBD7FFA7FFF012C
(1791431471.185656) can1 0200FD01#0100000000000000
(1791431471.185768) can1 020001FD#7FFE80B37FFF0136
(1791431471.186205) can1 0200FD02#0100000000000000
(1791431471.186496) can1 020002FD#7FFE7FD37FFF0140
(1791431471.186802) can1 0200FD03#0100000000000000
(1791431471.187018) can1 020003FD#8000802A7FFF0154
(1791431471.187321) can1 0200FD04#0100000000000000
(1791431471.187632) can1 020004FD#7FFF80217FFF0140
(1791431471.187899) can1 0200FD05#0100000000000000
(1791431471.188146) can1 020005FD#88E180167FFF015E
(1791431471.188341) can0 0200FD01#0100000000000000
(1791431471.188520) can1 0200FD06#0100000000000000
(1791431471.188572) can0 020001FD#7FAE7FAD7FFF0136
(1791431471.188698) can1 020006FD#7FFA7FF77FFF015E
(1791431471.188978) can0 0200FD02#0100000000000000
(1791431471.189066) can1 0200FD07#0100000000000000
(1791431471.189147) can0 020002FD#7FFD7FDA7FFF014A
(1791431471.189320) can1 020007FD#800180007FFF0140
(1791431471.189592) can0 0200FD03#0100000000000000
(1791431471.189660) can1 0200FD08#0100000000000000
(1791431471.189781) can0 020003FD#7FFF80327FFF014A
(1791431471.189813) can1 020008FD#82907FDC7FFF0136
(1791431471.190168) can0 0200FD04#0100000000000000
(1791431471.190487) can0 020004FD#7FF87FB57FFF012C
(1791431471.190870) can0 0200FD05#0100000000000000
(1791431471.191025) can0 020005FD#7E7E800A7FFF0154
(1791431471.191422) can0 0200FD06#0100000000000000
(1791431471.191634) can0 020006FD#7FF87FE27FFF0154
(1791431471.192012) can0 0200FD07#0100000000000000
(1791431471.192260) can0 020007FD#7ADC7FF17FFF0140
(1791431471.192657) can0 0200FD08#0100000000000000
(1791431471.192732) can0 020008FD#7EBD7FF47FFF012C
(1791431471.242425) can1 0200FD01#0100000000000000
(1791431471.242636) can1 020001FD#7FFD7FFD7FFF0136
(1791431471.243023) can1 0200FD02#0100000000000000
(1791431471.243194) can1 020002FD#7FFD7FB87FFF0140
(1791431471.243294) can0 0200FD01#0100000000000000
(1791431471.243591) can0 020001FD#7FAE7FCC7FFF0136
(1791431471.243655) can1 0200FD03#0100000000000000
(1791431471.243883) can1 020003FD#7FFF7F607FFF0154
(1791431471.243910) can0 0200FD02#0100000000000000
(1791431471.244092) can0 020002FD#7FFD805E7FFF014A
(1791431471.244221) can1 0200FD04#0100000000000000
(1791431471.244400) can1 020004FD#7FFE7FC67FFF0140
(1791431471.244534) can0 0200FD03#0100000000000000
(1791431471.244723) can0 020003FD#7FFF7F9C7FFF014A
(1791431471.244879) can1 0200FD05#0100000000000000
(1791431471.245099) can1 020005FD#88E180077FFF015E
(1791431471.245134) can0 0200FD04#0100000000000000
(1791431471.245298) can0 020004FD#7FF87FD37FFF012C
(1791431471.245425) can1 0200FD06#0100000000000000
(1791431471.245630) can1 020006FD#7FFA801E7FFF015E
(1791431471.245720) can0 0200FD05#0100000000000000
(1791431471.245906) can0 020005FD#7E7E80157FFF0154
(1791431471.246025) can1 0200FD07#0100000000000000
(1791431471.246281) can1 020007FD#800180027FFF0140
(1791431471.246313) can0 0200FD06#0100000000000000
(1791431471.246588) can0 020006FD#7FF87FF17FFF0154
(1791431471.246655) can1 0200FD08#0100000000000000
(1791431471.246757) can1 020008FD#829080457FFF0136
(1791431471.246900) can0 0200FD07#0100000000000000
(1791431471.247139) can0 020007FD#7ADC80287FFF0140
(1791431471.247539) can0 0200FD08#0100000000000000
(1791431471.247634) can0 020008FD#7EBD80367FFF012C
(1791431471.342856) can1 0200FD01#0100000000000000
(1791431471.343104) can1 020001FD#7FFD80307FFF0136
(1791431471.343419) can1 0200FD02#0100000000000000
(1791431471.343644) can1 020002FD#7FFE804B7FFF0140
(1791431471.343723) can0 0200FD01#0100000000000000
(1791431471.343898) can0 020001FD#7FAE80557FFF0136
(1791431471.344042) can1 0200FD03#0100000000000000
(1791431471.344223) can1 020003FD#7FFF80537FFF0154
